# MHz Y RI R 1

7700	0.0010762814	-0.04598727	-1.7585578e-06	-2.4001297e-05	-1.7585578e-06	-2.4001297e-05	0.00075042515	-0.034994784	
7701	0.0010755847	-0.045932899	-1.7668868e-06	-2.4081932e-05	-1.7668868e-06	-2.4081932e-05	0.00075017383	-0.034957598	
7702	0.0010748907	-0.045878566	-1.7752639e-06	-2.4162949e-05	-1.7752639e-06	-2.4162949e-05	0.00074992401	-0.034920428	
7703	0.0010741994	-0.045824273	-1.7836894e-06	-2.424435e-05	-1.7836894e-06	-2.424435e-05	0.00074967569	-0.034883272	
7704	0.0010735107	-0.045770019	-1.7921638e-06	-2.4326138e-05	-1.7921638e-06	-2.4326138e-05	0.00074942885	-0.034846132	
7705	0.0010728248	-0.045715804	-1.8006873e-06	-2.4408315e-05	-1.8006873e-06	-2.4408315e-05	0.00074918352	-0.034809006	
7706	0.0010721415	-0.045661628	-1.8092603e-06	-2.4490883e-05	-1.8092603e-06	-2.4490883e-05	0.00074893968	-0.034771896	
7707	0.001071461	-0.04560749	-1.817883e-06	-2.4573844e-05	-1.817883e-06	-2.4573844e-05	0.00074869734	-0.0347348	
7708	0.0010707831	-0.045553391	-1.826556e-06	-2.46572e-05	-1.826556e-06	-2.46572e-05	0.0007484565	-0.03469772	
7709	0.0010701079	-0.045499331	-1.8352794e-06	-2.4740955e-05	-1.8352794e-06	-2.4740955e-05	0.00074821716	-0.034660654	
7710	0.0010694355	-0.045445308	-1.8440536e-06	-2.4825109e-05	-1.8440536e-06	-2.4825109e-05	0.00074797932	-0.034623602	
7711	0.0010687656	-0.045391324	-1.8528791e-06	-2.4909666e-05	-1.8528791e-06	-2.4909666e-05	0.00074774297	-0.034586566	
7712	0.0010680985	-0.045337377	-1.8617561e-06	-2.4994628e-05	-1.8617561e-06	-2.4994628e-05	0.00074750813	-0.034549544	
7713	0.0010674341	-0.045283469	-1.870685e-06	-2.5079996e-05	-1.870685e-06	-2.5079996e-05	0.00074727479	-0.034512536	
7714	0.0010667723	-0.045229598	-1.8796661e-06	-2.5165774e-05	-1.8796661e-06	-2.5165774e-05	0.00074704296	-0.034475543	
7715	0.0010661132	-0.045175764	-1.8886999e-06	-2.5251964e-05	-1.8886999e-06	-2.5251964e-05	0.00074681262	-0.034438563	
7716	0.0010654567	-0.045121968	-1.8977866e-06	-2.5338568e-05	-1.8977866e-06	-2.5338568e-05	0.0007465838	-0.034401599	
7717	0.001064803	-0.045068209	-1.9069268e-06	-2.5425589e-05	-1.9069268e-06	-2.5425589e-05	0.00074635647	-0.034364648	
7718	0.0010641519	-0.045014488	-1.9161206e-06	-2.5513029e-05	-1.9161206e-06	-2.5513029e-05	0.00074613066	-0.034327711	
7719	0.0010635035	-0.044960803	-1.9253685e-06	-2.560089e-05	-1.9253685e-06	-2.560089e-05	0.00074590635	-0.034290789	
7720	0.0010628577	-0.044907155	-1.934671e-06	-2.5689175e-05	-1.934671e-06	-2.5689175e-05	0.00074568355	-0.03425388	
7721	0.0010622146	-0.044853544	-1.9440282e-06	-2.5777887e-05	-1.9440282e-06	-2.5777887e-05	0.00074546226	-0.034216985	
7722	0.0010615742	-0.04479997	-1.9534407e-06	-2.5867027e-05	-1.9534407e-06	-2.5867027e-05	0.00074524247	-0.034180104	
7723	0.0010609364	-0.044746432	-1.9629089e-06	-2.5956599e-05	-1.9629089e-06	-2.5956599e-05	0.0007450242	-0.034143236	
7724	0.0010603013	-0.04469293	-1.972433e-06	-2.6046605e-05	-1.972433e-06	-2.6046605e-05	0.00074480744	-0.034106382	
7725	0.0010596688	-0.044639464	-1.9820135e-06	-2.6137047e-05	-1.9820135e-06	-2.6137047e-05	0.0007445922	-0.034069542	
7726	0.001059039	-0.044586034	-1.9916509e-06	-2.6227929e-05	-1.9916509e-06	-2.6227929e-05	0.00074437847	-0.034032715	
7727	0.0010584118	-0.044532641	-2.0013454e-06	-2.6319252e-05	-2.0013454e-06	-2.6319252e-05	0.00074416625	-0.033995902	
7728	0.0010577873	-0.044479283	-2.0110975e-06	-2.6411019e-05	-2.0110975e-06	-2.6411019e-05	0.00074395555	-0.033959101	
7729	0.0010571655	-0.04442596	-2.0209077e-06	-2.6503233e-05	-2.0209077e-06	-2.6503233e-05	0.00074374637	-0.033922314	
7730	0.0010565463	-0.044372673	-2.0307762e-06	-2.6595897e-05	-2.0307762e-06	-2.6595897e-05	0.0007435387	-0.033885541	
7731	0.0010559297	-0.044319421	-2.0407036e-06	-2.6689013e-05	-2.0407036e-06	-2.6689013e-05	0.00074333256	-0.03384878	
7732	0.0010553158	-0.044266205	-2.0506901e-06	-2.6782583e-05	-2.0506901e-06	-2.6782583e-05	0.00074312793	-0.033812032	
7733	0.0010547045	-0.044213024	-2.0607364e-06	-2.6876612e-05	-2.0607364e-06	-2.6876612e-05	0.00074292483	-0.033775297	
7734	0.0010540959	-0.044159877	-2.0708427e-06	-2.69711e-05	-2.0708427e-06	-2.69711e-05	0.00074272325	-0.033738575	
7735	0.0010534899	-0.044106765	-2.0810095e-06	-2.7066051e-05	-2.0810095e-06	-2.7066051e-05	0.00074252319	-0.033701866	
7736	0.0010528866	-0.044053688	-2.0912373e-06	-2.7161468e-05	-2.0912373e-06	-2.7161468e-05	0.00074232466	-0.033665169	
7737	0.0010522859	-0.044000646	-2.1015264e-06	-2.7257354e-05	-2.1015264e-06	-2.7257354e-05	0.00074212766	-0.033628486	
7738	0.0010516879	-0.043947637	-2.1118773e-06	-2.735371e-05	-2.1118773e-06	-2.735371e-05	0.00074193218	-0.033591814	
7739	0.0010510924	-0.043894663	-2.1222904e-06	-2.7450541e-05	-2.1222904e-06	-2.7450541e-05	0.00074173823	-0.033555155	
7740	0.0010504997	-0.043841723	-2.1327662e-06	-2.7547849e-05	-2.1327662e-06	-2.7547849e-05	0.00074154582	-0.033518509	
7741	0.0010499095	-0.043788817	-2.1433051e-06	-2.7645636e-05	-2.1433051e-06	-2.7645636e-05	0.00074135493	-0.033481874	
7742	0.001049322	-0.043735945	-2.1539076e-06	-2.7743906e-05	-2.1539076e-06	-2.7743906e-05	0.00074116558	-0.033445252	
7743	0.0010487371	-0.043683107	-2.1645741e-06	-2.7842661e-05	-2.1645741e-06	-2.7842661e-05	0.00074097776	-0.033408643	
7744	0.0010481549	-0.043630302	-2.1753051e-06	-2.7941905e-05	-2.1753051e-06	-2.7941905e-05	0.00074079148	-0.033372045	
7745	0.0010475752	-0.04357753	-2.186101e-06	-2.804164e-05	-2.186101e-06	-2.804164e-05	0.00074060673	-0.033335459	
7746	0.0010469983	-0.043524792	-2.1969623e-06	-2.814187e-05	-2.1969623e-06	-2.814187e-05	0.00074042353	-0.033298885	
7747	0.0010464239	-0.043472087	-2.2078895e-06	-2.8242596e-05	-2.2078895e-06	-2.8242596e-05	0.00074024186	-0.033262323	
7748	0.0010458522	-0.043419415	-2.2188831e-06	-2.8343823e-05	-2.2188831e-06	-2.8343823e-05	0.00074006174	-0.033225773	
7749	0.0010452831	-0.043366775	-2.2299435e-06	-2.8445553e-05	-2.2299435e-06	-2.8445553e-05	0.00073988315	-0.033189234	
7750	0.0010447166	-0.043314169	-2.2410711e-06	-2.854779e-05	-2.2410711e-06	-2.854779e-05	0.00073970612	-0.033152707	
7751	0.0010441527	-0.043261595	-2.2522666e-06	-2.8650535e-05	-2.2522666e-06	-2.8650535e-05	0.00073953062	-0.033116192	
7752	0.0010435915	-0.043209054	-2.2635303e-06	-2.8753793e-05	-2.2635303e-06	-2.8753793e-05	0.00073935668	-0.033079688	
7753	0.0010430329	-0.043156544	-2.2748628e-06	-2.8857567e-05	-2.2748628e-06	-2.8857567e-05	0.00073918428	-0.033043196	
7754	0.0010424769	-0.043104068	-2.2862646e-06	-2.8961859e-05	-2.2862646e-06	-2.8961859e-05	0.00073901344	-0.033006714	
7755	0.0010419236	-0.043051623	-2.2977361e-06	-2.9066673e-05	-2.2977361e-06	-2.9066673e-05	0.00073884414	-0.032970244	
7756	0.0010413729	-0.04299921	-2.3092778e-06	-2.9172012e-05	-2.3092778e-06	-2.9172012e-05	0.00073867641	-0.032933785	
7757	0.0010408248	-0.042946828	-2.3208904e-06	-2.9277879e-05	-2.3208904e-06	-2.9277879e-05	0.00073851022	-0.032897338	
7758	0.0010402793	-0.042894479	-2.3325742e-06	-2.9384277e-05	-2.3325742e-06	-2.9384277e-05	0.00073834559	-0.032860901	
7759	0.0010397364	-0.042842161	-2.3443299e-06	-2.949121e-05	-2.3443299e-06	-2.949121e-05	0.00073818253	-0.032824475	
7760	0.0010391962	-0.042789874	-2.3561578e-06	-2.9598681e-05	-2.3561578e-06	-2.9598681e-05	0.00073802102	-0.03278806	
7761	0.0010386585	-0.042737619	-2.3680586e-06	-2.9706692e-05	-2.3680586e-06	-2.9706692e-05	0.00073786107	-0.032751656	
7762	0.0010381235	-0.042685395	-2.3800328e-06	-2.9815248e-05	-2.3800328e-06	-2.9815248e-05	0.00073770269	-0.032715262	
7763	0.0010375911	-0.042633201	-2.3920809e-06	-2.9924352e-05	-2.3920809e-06	-2.9924352e-05	0.00073754587	-0.032678879	
7764	0.0010370614	-0.042581039	-2.4042035e-06	-3.0034007e-05	-2.4042035e-06	-3.0034007e-05	0.00073739062	-0.032642507	
7765	0.0010365342	-0.042528907	-2.4164011e-06	-3.0144217e-05	-2.4164011e-06	-3.0144217e-05	0.00073723694	-0.032606145	
7766	0.0010360097	-0.042476806	-2.4286742e-06	-3.0254984e-05	-2.4286742e-06	-3.0254984e-05	0.00073708483	-0.032569793	
7767	0.0010354878	-0.042424735	-2.4410234e-06	-3.0366312e-05	-2.4410234e-06	-3.0366312e-05	0.0007369343	-0.032533452	
7768	0.0010349685	-0.042372694	-2.4534492e-06	-3.0478206e-05	-2.4534492e-06	-3.0478206e-05	0.00073678533	-0.032497121	
7769	0.0010344518	-0.042320684	-2.4659523e-06	-3.0590667e-05	-2.4659523e-06	-3.0590667e-05	0.00073663795	-0.0324608	
7770	0.0010339378	-0.042268704	-2.4785332e-06	-3.07037e-05	-2.4785332e-06	-3.07037e-05	0.00073649214	-0.032424489	
7771	0.0010334263	-0.042216754	-2.4911924e-06	-3.0817309e-05	-2.4911924e-06	-3.0817309e-05	0.00073634792	-0.032388188	
7772	0.0010329175	-0.042164833	-2.5039305e-06	-3.0931496e-05	-2.5039305e-06	-3.0931496e-05	0.00073620527	-0.032351897	
7773	0.0010324113	-0.042112942	-2.5167482e-06	-3.1046266e-05	-2.5167482e-06	-3.1046266e-05	0.00073606421	-0.032315616	
7774	0.0010319077	-0.04206108	-2.529646e-06	-3.1161621e-05	-2.529646e-06	-3.1161621e-05	0.00073592474	-0.032279344	
7775	0.0010314067	-0.042009248	-2.5426244e-06	-3.1277566e-05	-2.5426244e-06	-3.1277566e-05	0.00073578685	-0.032243083	
7776	0.0010309084	-0.041957445	-2.5556842e-06	-3.1394105e-05	-2.5556842e-06	-3.1394105e-05	0.00073565056	-0.03220683	
7777	0.0010304126	-0.041905672	-2.5688258e-06	-3.151124e-05	-2.5688258e-06	-3.151124e-05	0.00073551586	-0.032170588	
7778	0.0010299195	-0.041853927	-2.58205e-06	-3.1628976e-05	-2.58205e-06	-3.1628976e-05	0.00073538275	-0.032134355	
7779	0.001029429	-0.041802211	-2.5953572e-06	-3.1747316e-05	-2.5953572e-06	-3.1747316e-05	0.00073525124	-0.032098131	
7780	0.0010289411	-0.041750524	-2.6087482e-06	-3.1866265e-05	-2.6087482e-06	-3.1866265e-05	0.00073512133	-0.032061916	
7781	0.0010284558	-0.041698865	-2.6222235e-06	-3.1985826e-05	-2.6222235e-06	-3.1985826e-05	0.00073499302	-0.032025711	
7782	0.0010279732	-0.041647234	-2.6357838e-06	-3.2106002e-05	-2.6357838e-06	-3.2106002e-05	0.00073486631	-0.031989514	
7783	0.0010274932	-0.041595632	-2.6494297e-06	-3.2226798e-05	-2.6494297e-06	-3.2226798e-05	0.00073474121	-0.031953327	
7784	0.0010270158	-0.041544059	-2.6631619e-06	-3.2348217e-05	-2.6631619e-06	-3.2348217e-05	0.00073461771	-0.031917149	
7785	0.001026541	-0.041492513	-2.6769809e-06	-3.2470264e-05	-2.6769809e-06	-3.2470264e-05	0.00073449583	-0.031880979	
7786	0.0010260688	-0.041440995	-2.6908875e-06	-3.2592942e-05	-2.6908875e-06	-3.2592942e-05	0.00073437556	-0.031844819	
7787	0.0010255992	-0.041389504	-2.7048823e-06	-3.2716256e-05	-2.7048823e-06	-3.2716256e-05	0.0007342569	-0.031808667	
7788	0.0010251323	-0.041338042	-2.7189659e-06	-3.2840209e-05	-2.7189659e-06	-3.2840209e-05	0.00073413986	-0.031772524	
7789	0.001024668	-0.041286607	-2.733139e-06	-3.2964805e-05	-2.733139e-06	-3.2964805e-05	0.00073402444	-0.031736389	
7790	0.0010242063	-0.041235199	-2.7474024e-06	-3.3090048e-05	-2.7474024e-06	-3.3090048e-05	0.00073391063	-0.031700263	
7791	0.0010237472	-0.041183819	-2.7617566e-06	-3.3215943e-05	-2.7617566e-06	-3.3215943e-05	0.00073379846	-0.031664145	
7792	0.0010232908	-0.041132465	-2.7762024e-06	-3.3342494e-05	-2.7762024e-06	-3.3342494e-05	0.00073368791	-0.031628036	
7793	0.001022837	-0.041081139	-2.7907404e-06	-3.3469704e-05	-2.7907404e-06	-3.3469704e-05	0.00073357899	-0.031591934	
7794	0.0010223858	-0.041029839	-2.8053714e-06	-3.3597578e-05	-2.8053714e-06	-3.3597578e-05	0.0007334717	-0.031555841	
7795	0.0010219372	-0.040978566	-2.820096e-06	-3.3726121e-05	-2.820096e-06	-3.3726121e-05	0.00073336604	-0.031519756	
7796	0.0010214913	-0.04092732	-2.8349149e-06	-3.3855336e-05	-2.8349149e-06	-3.3855336e-05	0.00073326202	-0.031483679	
7797	0.001021048	-0.0408761	-2.849829e-06	-3.3985227e-05	-2.849829e-06	-3.3985227e-05	0.00073315964	-0.03144761	
7798	0.0010206073	-0.040824906	-2.8648388e-06	-3.4115799e-05	-2.8648388e-06	-3.4115799e-05	0.00073305891	-0.031411549	
7799	0.0010201692	-0.040773738	-2.8799451e-06	-3.4247057e-05	-2.8799451e-06	-3.4247057e-05	0.00073295981	-0.031375495	
7800	0.0010197338	-0.040722597	-2.8951487e-06	-3.4379004e-05	-2.8951487e-06	-3.4379004e-05	0.00073286236	-0.03133945	
7801	0.001019301	-0.040671481	-2.9104502e-06	-3.4511645e-05	-2.9104502e-06	-3.4511645e-05	0.00073276657	-0.031303411	
7802	0.0010188708	-0.040620391	-2.9258505e-06	-3.4644985e-05	-2.9258505e-06	-3.4644985e-05	0.00073267242	-0.031267381	
7803	0.0010184433	-0.040569327	-2.9413502e-06	-3.4779027e-05	-2.9413502e-06	-3.4779027e-05	0.00073257993	-0.031231358	
7804	0.0010180184	-0.040518288	-2.9569502e-06	-3.4913778e-05	-2.9569502e-06	-3.4913778e-05	0.0007324891	-0.031195342	
7805	0.0010175961	-0.040467275	-2.9726513e-06	-3.504924e-05	-2.9726513e-06	-3.504924e-05	0.00073239992	-0.031159333	
7806	0.0010171764	-0.040416287	-2.9884541e-06	-3.5185418e-05	-2.9884541e-06	-3.5185418e-05	0.00073231241	-0.031123332	
7807	0.0010167594	-0.040365324	-3.0043594e-06	-3.5322318e-05	-3.0043594e-06	-3.5322318e-05	0.00073222657	-0.031087337	
7808	0.0010163451	-0.040314385	-3.0203681e-06	-3.5459944e-05	-3.0203681e-06	-3.5459944e-05	0.00073214239	-0.03105135	
7809	0.0010159334	-0.040263472	-3.0364809e-06	-3.55983e-05	-3.0364809e-06	-3.55983e-05	0.00073205989	-0.03101537	
7810	0.0010155243	-0.040212583	-3.0526987e-06	-3.5737391e-05	-3.0526987e-06	-3.5737391e-05	0.00073197906	-0.030979396	
7811	0.0010151178	-0.040161719	-3.0690222e-06	-3.5877222e-05	-3.0690222e-06	-3.5877222e-05	0.00073189991	-0.030943429	
7812	0.0010147141	-0.04011088	-3.0854523e-06	-3.6017798e-05	-3.0854523e-06	-3.6017798e-05	0.00073182244	-0.030907469	
7813	0.0010143129	-0.040060064	-3.1019898e-06	-3.6159123e-05	-3.1019898e-06	-3.6159123e-05	0.00073174666	-0.030871516	
7814	0.0010139144	-0.040009273	-3.1186354e-06	-3.6301203e-05	-3.1186354e-06	-3.6301203e-05	0.00073167256	-0.030835569	
7815	0.0010135185	-0.039958506	-3.1353901e-06	-3.6444042e-05	-3.1353901e-06	-3.6444042e-05	0.00073160015	-0.030799629	
7816	0.0010131253	-0.039907762	-3.1522547e-06	-3.6587646e-05	-3.1522547e-06	-3.6587646e-05	0.00073152943	-0.030763695	
7817	0.0010127348	-0.039857043	-3.1692301e-06	-3.6732018e-05	-3.1692301e-06	-3.6732018e-05	0.00073146041	-0.030727767	
7818	0.0010123469	-0.039806347	-3.186317e-06	-3.6877165e-05	-3.186317e-06	-3.6877165e-05	0.00073139309	-0.030691845	
7819	0.0010119616	-0.039755674	-3.2035164e-06	-3.7023091e-05	-3.2035164e-06	-3.7023091e-05	0.00073132747	-0.03065593	
7820	0.001011579	-0.039705025	-3.2208292e-06	-3.7169801e-05	-3.2208292e-06	-3.7169801e-05	0.00073126356	-0.03062002	
7821	0.0010111991	-0.039654399	-3.2382562e-06	-3.7317301e-05	-3.2382562e-06	-3.7317301e-05	0.00073120135	-0.030584117	
7822	0.0010108218	-0.039603796	-3.2557983e-06	-3.7465595e-05	-3.2557983e-06	-3.7465595e-05	0.00073114086	-0.030548219	
7823	0.0010104472	-0.039553216	-3.2734564e-06	-3.7614689e-05	-3.2734564e-06	-3.7614689e-05	0.00073108208	-0.030512328	
7824	0.0010100753	-0.039502659	-3.2912314e-06	-3.7764588e-05	-3.2912314e-06	-3.7764588e-05	0.00073102502	-0.030476442	
7825	0.001009706	-0.039452125	-3.3091242e-06	-3.7915298e-05	-3.3091242e-06	-3.7915298e-05	0.00073096968	-0.030440561	
7826	0.0010093394	-0.039401613	-3.3271358e-06	-3.8066823e-05	-3.3271358e-06	-3.8066823e-05	0.00073091607	-0.030404686	
7827	0.0010089754	-0.039351123	-3.3452671e-06	-3.8219169e-05	-3.3452671e-06	-3.8219169e-05	0.00073086418	-0.030368817	
7828	0.0010086141	-0.039300656	-3.363519e-06	-3.8372342e-05	-3.363519e-06	-3.8372342e-05	0.00073081403	-0.030332953	
7829	0.0010082555	-0.039250211	-3.3818925e-06	-3.8526346e-05	-3.3818925e-06	-3.8526346e-05	0.00073076562	-0.030297094	
7830	0.0010078996	-0.039199788	-3.4003885e-06	-3.8681188e-05	-3.4003885e-06	-3.8681188e-05	0.00073071894	-0.03026124	
7831	0.0010075463	-0.039149387	-3.419008e-06	-3.8836873e-05	-3.419008e-06	-3.8836873e-05	0.00073067401	-0.030225392	
7832	0.0010071958	-0.039099007	-3.437752e-06	-3.8993406e-05	-3.437752e-06	-3.8993406e-05	0.00073063082	-0.030189548	
7833	0.0010068479	-0.039048649	-3.4566214e-06	-3.9150794e-05	-3.4566214e-06	-3.9150794e-05	0.00073058938	-0.03015371	
7834	0.0010065027	-0.038998313	-3.4756172e-06	-3.9309041e-05	-3.4756172e-06	-3.9309041e-05	0.0007305497	-0.030117876	
7835	0.0010061602	-0.038947998	-3.4947405e-06	-3.9468154e-05	-3.4947405e-06	-3.9468154e-05	0.00073051177	-0.030082047	
7836	0.0010058203	-0.038897704	-3.5139923e-06	-3.9628138e-05	-3.5139923e-06	-3.9628138e-05	0.0007304756	-0.030046223	
7837	0.0010054832	-0.038847431	-3.5333735e-06	-3.9788999e-05	-3.5333735e-06	-3.9788999e-05	0.0007304412	-0.030010403	
7838	0.0010051487	-0.038797179	-3.5528852e-06	-3.9950743e-05	-3.5528852e-06	-3.9950743e-05	0.00073040857	-0.029974588	
7839	0.001004817	-0.038746948	-3.5725285e-06	-4.0113376e-05	-3.5725285e-06	-4.0113376e-05	0.00073037771	-0.029938778	
7840	0.0010044879	-0.038696738	-3.5923043e-06	-4.0276903e-05	-3.5923043e-06	-4.0276903e-05	0.00073034862	-0.029902971	
7841	0.0010041616	-0.038646548	-3.6122138e-06	-4.0441332e-05	-3.6122138e-06	-4.0441332e-05	0.00073032132	-0.029867169	
7842	0.001003838	-0.038596378	-3.632258e-06	-4.0606667e-05	-3.632258e-06	-4.0606667e-05	0.00073029579	-0.029831372	
7843	0.001003517	-0.038546229	-3.652438e-06	-4.0772914e-05	-3.652438e-06	-4.0772914e-05	0.00073027206	-0.029795578	
7844	0.0010031988	-0.0384961	-3.6727548e-06	-4.0940081e-05	-3.6727548e-06	-4.0940081e-05	0.00073025012	-0.029759788	
7845	0.0010028833	-0.038445991	-3.6932096e-06	-4.1108173e-05	-3.6932096e-06	-4.1108173e-05	0.00073022997	-0.029724002	
7846	0.0010025705	-0.038395901	-3.7138035e-06	-4.1277197e-05	-3.7138035e-06	-4.1277197e-05	0.00073021163	-0.02968822	
7847	0.0010022604	-0.038345832	-3.7345376e-06	-4.1447158e-05	-3.7345376e-06	-4.1447158e-05	0.00073019509	-0.029652442	
7848	0.0010019531	-0.038295782	-3.755413e-06	-4.1618063e-05	-3.755413e-06	-4.1618063e-05	0.00073018035	-0.029616667	
7849	0.0010016484	-0.038245751	-3.7764308e-06	-4.1789918e-05	-3.7764308e-06	-4.1789918e-05	0.00073016743	-0.029580896	
7850	0.0010013465	-0.03819574	-3.7975922e-06	-4.196273e-05	-3.7975922e-06	-4.196273e-05	0.00073015632	-0.029545129	
7851	0.0010010473	-0.038145748	-3.8188985e-06	-4.2136506e-05	-3.8188985e-06	-4.2136506e-05	0.00073014704	-0.029509364	
7852	0.0010007509	-0.038095775	-3.8403506e-06	-4.2311251e-05	-3.8403506e-06	-4.2311251e-05	0.00073013958	-0.029473603	
7853	0.0010004572	-0.03804582	-3.8619498e-06	-4.2486973e-05	-3.8619498e-06	-4.2486973e-05	0.00073013395	-0.029437846	
7854	0.0010001662	-0.037995885	-3.8836974e-06	-4.2663677e-05	-3.8836974e-06	-4.2663677e-05	0.00073013015	-0.029402091	
7855	0.00099987801	-0.037945968	-3.9055944e-06	-4.2841372e-05	-3.9055944e-06	-4.2841372e-05	0.00073012819	-0.02936634	
7856	0.00099959254	-0.03789607	-3.9276422e-06	-4.3020062e-05	-3.9276422e-06	-4.3020062e-05	0.00073012808	-0.029330591	
7857	0.00099930981	-0.03784619	-3.9498419e-06	-4.3199757e-05	-3.9498419e-06	-4.3199757e-05	0.0007301298	-0.029294845	
7858	0.00099902984	-0.037796328	-3.9721949e-06	-4.3380461e-05	-3.9721949e-06	-4.3380461e-05	0.00073013339	-0.029259102	
7859	0.00099875263	-0.037746484	-3.9947022e-06	-4.3562182e-05	-3.9947022e-06	-4.3562182e-05	0.00073013882	-0.029223362	
7860	0.00099847818	-0.037696658	-4.0173652e-06	-4.3744927e-05	-4.0173652e-06	-4.3744927e-05	0.00073014612	-0.029187625	
7861	0.00099820649	-0.03764685	-4.0401852e-06	-4.3928703e-05	-4.0401852e-06	-4.3928703e-05	0.00073015528	-0.029151889	
7862	0.00099793757	-0.03759706	-4.0631634e-06	-4.4113518e-05	-4.0631634e-06	-4.4113518e-05	0.00073016632	-0.029116157	
7863	0.00099767142	-0.037547287	-4.0863012e-06	-4.4299377e-05	-4.0863012e-06	-4.4299377e-05	0.00073017922	-0.029080426	
7864	0.00099740805	-0.037497532	-4.1095998e-06	-4.4486289e-05	-4.1095998e-06	-4.4486289e-05	0.00073019401	-0.029044698	
7865	0.00099714745	-0.037447794	-4.1330606e-06	-4.4674261e-05	-4.1330606e-06	-4.4674261e-05	0.00073021068	-0.029008972	
7866	0.00099688964	-0.037398073	-4.156685e-06	-4.4863299e-05	-4.156685e-06	-4.4863299e-05	0.00073022923	-0.028973248	
