# MHz Y RI R 1

7200	0.0015723758	-0.056070108	-1.9951859e-05	0.00031340251	-1.9951859e-05	0.00031340251	0.001103419	-0.043868584	
7235.416667	0.001492036	-0.053995273	-1.7030697e-05	0.00030157705	-1.7030697e-05	0.00030157705	0.0010775257	-0.042481789	
7270.833333	0.0014256748	-0.052008971	-1.4510542e-05	0.00029048654	-1.4510542e-05	0.00029048654	0.0010534199	-0.041137518	
7306.25	0.0013708155	-0.050102305	-1.2361578e-05	0.00028006447	-1.2361578e-05	0.00028006447	0.0010312086	-0.039833845	
7341.666667	0.0013255187	-0.04826897	-1.0562983e-05	0.00027024422	-1.0562983e-05	0.00027024422	0.001010727	-0.038566418	
7377.083333	0.0012873627	-0.04650283	-9.0963429e-06	0.00026097046	-9.0963429e-06	0.00026097046	0.00099244522	-0.037332481	
7412.5	0.0012552804	-0.044797888	-7.9475835e-06	0.00025218797	-7.9475835e-06	0.00025218797	0.00097553896	-0.036129364	
7447.916667	0.0012281965	-0.043147516	-7.1152891e-06	0.00024384083	-7.1152891e-06	0.00024384083	0.00096021365	-0.034954318	
7483.333334	0.0012053224	-0.041547786	-6.599612e-06	0.00023588954	-6.599612e-06	0.00023588954	0.00094705271	-0.033805142	
7518.75	0.0011860499	-0.039993486	-6.4061921e-06	0.00022827683	-6.4061921e-06	0.00022827683	0.00093520423	-0.032678368	
7554.166667	0.001169275	-0.038480005	-6.5444429e-06	0.00022096187	-6.5444429e-06	0.00022096187	0.00092541821	-0.03157295	
7589.583334	0.0011555203	-0.037003439	-7.036878e-06	0.00021389124	-7.036878e-06	0.00021389124	0.00091710112	-0.030485455	
7625	0.0011439891	-0.035559361	-7.909103e-06	0.00020701212	-7.909103e-06	0.00020701212	0.00091055897	-0.029414021	
7660.416667	0.0011345192	-0.034144074	-9.1975994e-06	0.00020026868	-9.1975994e-06	0.00020026868	0.00090602046	-0.028356605	
7695.833334	0.0011276726	-0.032753651	-1.0954277e-05	0.00019359333	-1.0954277e-05	0.00019359333	0.00090334957	-0.027310643	
7731.25	0.0011227827	-0.031384793	-1.3240174e-05	0.00018690984	-1.3240174e-05	0.00018690984	0.00090293104	-0.026274008	
7766.666667	0.0011204861	-0.030033494	-1.6140789e-05	0.00018012245	-1.6140789e-05	0.00018012245	0.00090451144	-0.025244317	
7784.375	0.0011205231	-0.0293636	-1.7854939e-05	0.00017665631	-1.7854939e-05	0.00017665631	0.00090615671	-0.024731326	
7802.083334	0.0011208407	-0.02869661	-1.9765099e-05	0.00017311738	-1.9765099e-05	0.00017311738	0.00090846255	-0.024219242	
7819.791667	0.0011220804	-0.028032235	-2.1894001e-05	0.00016948721	-2.1894001e-05	0.00016948721	0.00091153325	-0.023707444	
7837.5	0.0011240639	-0.027370256	-2.4261385e-05	0.00016574484	-2.4261385e-05	0.00016574484	0.00091532574	-0.023195812	
7855.208334	0.0011270276	-0.026709668	-2.6895704e-05	0.00016186344	-2.6895704e-05	0.00016186344	0.00092000743	-0.022683991	
7872.916667	0.0011311135	-0.026050393	-2.982475e-05	0.00015781607	-2.982475e-05	0.00015781607	0.00092541113	-0.022171827	
7890.625	0.0011359155	-0.025391651	-3.3083246e-05	0.00015356496	-3.3083246e-05	0.00015356496	0.00093157588	-0.021658503	
7908.333334	0.0011416535	-0.024733119	-3.671289e-05	0.00014907399	-3.671289e-05	0.00014907399	0.00093885037	-0.021143797	
7926.041667	0.0011489302	-0.024074234	-4.0762548e-05	0.00014429829	-4.0762548e-05	0.00014429829	0.00094703798	-0.020627302	
7943.75	0.0011573653	-0.023414284	-4.5288195e-05	0.00013918401	-4.5288195e-05	0.00013918401	0.00095649162	-0.020108535	
7961.458333	0.001167134	-0.022752887	-5.035606e-05	0.00013367016	-5.035606e-05	0.00013367016	0.00096721417	-0.01958703	
7979.166667	0.0011784728	-0.022089087	-5.604666e-05	0.00012768247	-5.604666e-05	0.00012768247	0.00097928347	-0.019062229	
7996.875	0.0011917868	-0.021422276	-6.2456064e-05	0.00012113569	-6.2456064e-05	0.00012113569	0.00099283692	-0.018533604	
8014.583333	0.0012069783	-0.020751726	-6.9697743e-05	0.00011392711	-6.9697743e-05	0.00011392711	0.0010080388	-0.018000522	
8032.291667	0.0012243371	-0.020076634	-7.7911657e-05	0.0001059353	-7.7911657e-05	0.0001059353	0.0010252551	-0.017462319	
8050	0.0012444477	-0.019396105	-8.7268257e-05	9.7014031e-05	-8.7268257e-05	9.7014031e-05	0.001044626	-0.016918209	
8067.708333	0.0012672989	-0.01870915	-9.7973394e-05	8.6988295e-05	-9.7973394e-05	8.6988295e-05	0.0010663103	-0.016367565	
8085.416667	0.0012933125	-0.018014741	-0.0001102857	7.5644545e-05	-0.0001102857	7.5644545e-05	0.001090988	-0.015809095	
8103.125	0.0013234326	-0.017311713	-0.00012453011	6.2726635e-05	-0.00012453011	6.2726635e-05	0.0011188014	-0.015241955	
8120.833333	0.0013578207	-0.016598491	-0.00014110504	4.7918261e-05	-0.00014110504	4.7918261e-05	0.001150287	-0.014665078	
8129.6875	0.0013769218	-0.016237684	-0.00015042481	3.9690326e-05	-0.00015042481	3.9690326e-05	0.0011678323	-0.014372581	
8138.541667	0.0013973274	-0.015873777	-0.0001605302	3.0838961e-05	-0.0001605302	3.0838961e-05	0.0011864799	-0.014077157	
8147.395833	0.0014194111	-0.015506337	-0.00017151045	2.1299122e-05	-0.00017151045	2.1299122e-05	0.0012064055	-0.013778459	
8156.25	0.0014431478	-0.015135543	-0.00018346192	1.1009657e-05	-0.00018346192	1.1009657e-05	0.0012277281	-0.013476474	
8165.104167	0.0014688016	-0.014760863	-0.00019650784	-1.1552235e-07	-0.00019650784	-1.1552235e-07	0.0012506179	-0.013170945	
8173.958333	0.0014963659	-0.014382158	-0.00021076781	-1.2153502e-05	-0.00021076781	-1.2153502e-05	0.0012754121	-0.012861642	
8182.8125	0.0015261839	-0.013998893	-0.00022640116	-2.5206327e-05	-0.00022640116	-2.5206327e-05	0.0013019855	-0.012548167	
8191.666667	0.0015584168	-0.013611047	-0.00024358573	-3.9380725e-05	-0.00024358573	-3.9380725e-05	0.0013306609	-0.012230349	
8200.520833	0.0015934746	-0.01321801	-0.00026250179	-5.4787507e-05	-0.00026250179	-5.4787507e-05	0.0013617675	-0.011907746	
8209.375	0.0016315322	-0.012819513	-0.00028340749	-7.1566572e-05	-0.00028340749	-7.1566572e-05	0.0013954815	-0.011580266	
8218.229166	0.0016730532	-0.012415172	-0.00030655775	-8.9859257e-05	-0.00030655775	-8.9859257e-05	0.0014320285	-0.011247339	
8227.083333	0.0017184166	-0.012004467	-0.00033230001	-0.00010984327	-0.00033230001	-0.00010984327	0.0014719024	-0.010908803	
8235.9375	0.0017680784	-0.011587	-0.00036098852	-0.00013168439	-0.00036098852	-0.00013168439	0.0015156086	-0.010563976	
8244.791666	0.0018224184	-0.011162209	-0.00039308258	-0.00015559308	-0.00039308258	-0.00015559308	0.0015634108	-0.010212555	
8253.645833	0.0018825649	-0.010729468	-0.00042911033	-0.00018178994	-0.00042911033	-0.00018178994	0.0016159502	-0.0098539565	
8262.5	0.0019488707	-0.010288218	-0.00046972564	-0.00021052239	-0.00046972564	-0.00021052239	0.0016738826	-0.0094877324	
8266.927083	0.0019846505	-0.010064244	-0.00049196763	-0.00022591508	-0.00049196763	-0.00022591508	0.0017052385	-0.009301489	
8271.354166	0.0020224578	-0.0098377306	-0.00051567441	-0.00024204887	-0.00051567441	-0.00024204887	0.0017382126	-0.0091132529	
8275.78125	0.002062283	-0.0096088965	-0.00054093399	-0.00025894753	-0.00054093399	-0.00025894753	0.0017729768	-0.0089225921	
8280.208333	0.0021043551	-0.0093773316	-0.00056789446	-0.0002766597	-0.00056789446	-0.0002766597	0.001809697	-0.0087298375	
8284.635416	0.0021488782	-0.0091432102	-0.00059669338	-0.00029520567	-0.00059669338	-0.00029520567	0.001848534	-0.0085345178	
8289.0625	0.0021960682	-0.0089062621	-0.00062751693	-0.00031463953	-0.00062751693	-0.00031463953	0.0018895648	-0.0083368258	
8293.489583	0.0022460397	-0.0086664951	-0.00066050806	-0.00033499379	-0.00066050806	-0.00033499379	0.0019331407	-0.0081364338	
8297.916666	0.0022989122	-0.0084236841	-0.00069589935	-0.00035629642	-0.00069589935	-0.00035629642	0.0019793557	-0.0079334836	
8302.34375	0.0023553248	-0.0081778367	-0.00073389912	-0.00037858473	-0.00073389912	-0.00037858473	0.0020283892	-0.0077277996	
8306.770833	0.0024153147	-0.0079287476	-0.00077474765	-0.00040189275	-0.00077474765	-0.00040189275	0.0020806136	-0.0075191549	
8311.197916	0.0024791511	-0.0076763601	-0.00081873117	-0.00042624584	-0.00081873117	-0.00042624584	0.0021362678	-0.0073076895	
8315.625	0.002547437	-0.0074206265	-0.00086616318	-0.0004516623	-0.00086616318	-0.0004516623	0.00219556	-0.0070931311	
8317.838541	0.0025831438	-0.0072913726	-0.00089125821	-0.00046477991	-0.00089125821	-0.00046477991	0.0022266291	-0.0069846672	
8320.052083	0.0026201774	-0.007161329	-0.00091734611	-0.00047816664	-0.00091734611	-0.00047816664	0.0022588475	-0.006875444	
8322.265625	0.0026585286	-0.0070304229	-0.00094448541	-0.00049181335	-0.00094448541	-0.00049181335	0.0022921345	-0.0067655217	
8324.479166	0.0026981863	-0.00689858	-0.00097272154	-0.00050573989	-0.00097272154	-0.00050573989	0.0023266358	-0.0066546221	
8326.692708	0.0027392576	-0.0067658065	-0.0010020914	-0.00051992097	-0.0010020914	-0.00051992097	0.002362424	-0.0065430676	
8328.90625	0.0027816589	-0.00663214	-0.001032654	-0.00053437075	-0.001032654	-0.00053437075	0.0023993444	-0.0064305383	
8331.119791	0.0028257021	-0.0064975328	-0.0010644949	-0.00054908147	-0.0010644949	-0.00054908147	0.0024376703	-0.0063173085	
8333.333333	0.0028713863	-0.006361897	-0.001097664	-0.00056404087	-0.001097664	-0.00056404087	0.0024772927	-0.0062032457	
8337.268518	0.0029567451	-0.0061186702	-0.001160117	-0.0005912285	-0.001160117	-0.0005912285	0.0025515867	-0.005998245	
8341.203703	0.0030479467	-0.0058723951	-0.0012274153	-0.00061911102	-0.0012274153	-0.00061911102	0.0026307643	-0.0057906997	
8345.138889	0.0031453799	-0.0056231539	-0.0013000211	-0.00064760262	-0.0013000211	-0.00064760262	0.0027155292	-0.0055805412	
8349.074074	0.003249762	-0.0053711239	-0.001378441	-0.00067658541	-0.001378441	-0.00067658541	0.0028062661	-0.005367774	
8353.009259	0.0033618393	-0.0051162402	-0.00146325	-0.00070590734	-0.00146325	-0.00070590734	0.0029035456	-0.0051524421	
8356.944444	0.0034820085	-0.0048586734	-0.0015550585	-0.00073532413	-0.0015550585	-0.00073532413	0.0030080808	-0.0049347519	
8360.879629	0.0036111766	-0.0045987499	-0.0016545707	-0.00076458426	-0.0016545707	-0.00076458426	0.0031203699	-0.0047148956	
8364.814815	0.003750318	-0.004336585	-0.0017625591	-0.00079333179	-0.0017625591	-0.00079333179	0.0032413278	-0.0044930527	
8366.782407	0.0038239511	-0.0042048233	-0.0018199814	-0.00080736587	-0.0018199814	-0.00080736587	0.0033052618	-0.0043815568	
8368.75	0.0039002377	-0.0040726446	-0.0018797231	-0.00082113993	-0.0018797231	-0.00082113993	0.0033715488	-0.0042696904	
8370.717592	0.0039795642	-0.0039402082	-0.0019421756	-0.00083439252	-0.0019421756	-0.00083439252	0.0034405918	-0.0041575037	
8372.685185	0.0040619866	-0.0038074083	-0.002007217	-0.0008473439	-0.002007217	-0.0008473439	0.0035121115	-0.004044952	
8374.652777	0.0041477099	-0.0036745196	-0.0020750621	-0.00085967021	-0.0020750621	-0.00085967021	0.0035865916	-0.0039322931	
8376.62037	0.0042367036	-0.0035415353	-0.0021459837	-0.00087136187	-0.0021459837	-0.00087136187	0.003664117	-0.003819584	
8378.587963	0.0043293383	-0.0034086531	-0.0022199253	-0.0008822193	-0.0022199253	-0.0008822193	0.0037446085	-0.0037069064	
8380.555555	0.00442559	-0.0032759124	-0.0022970132	-0.00089212438	-0.0022970132	-0.00089212438	0.003828287	-0.0035944113	
8382.523148	0.0045257291	-0.0031434128	-0.0023774385	-0.00090111501	-0.0023774385	-0.00090111501	0.0039152869	-0.0034820395	
8384.49074	0.0046298776	-0.0030114292	-0.0024613367	-0.00090888827	-0.0024613367	-0.00090888827	0.0040058233	-0.0033701191	
8386.458333	0.0047382352	-0.0028800653	-0.0025490081	-0.00091527501	-0.0025490081	-0.00091527501	0.0040999525	-0.0032585887	
8388.425926	0.0048509345	-0.0027496363	-0.0026404984	-0.00091998309	-0.0026404984	-0.00091998309	0.0041980356	-0.0031478481	
8390.393518	0.0049681711	-0.0026201084	-0.0027358644	-0.00092301558	-0.0027358644	-0.00092301558	0.0042998618	-0.0030380905	
8392.361111	0.0050901527	-0.0024920026	-0.002835445	-0.00092385211	-0.002835445	-0.00092385211	0.0044060145	-0.0029293348	
8394.328703	0.0052171041	-0.0023652921	-0.0029393485	-0.00092256989	-0.0029393485	-0.00092256989	0.0045162988	-0.0028217827	
8396.296296	0.0053490544	-0.0022405581	-0.0030476353	-0.00091854003	-0.0030476353	-0.00091854003	0.0046311192	-0.0027161048	
8398.263889	0.005486109	-0.0021179937	-0.0031605041	-0.00091158287	-0.0031605041	-0.00091158287	0.0047503022	-0.0026121222	
8400.231481	0.005628691	-0.0019979164	-0.0032781313	-0.00090135072	-0.0032781313	-0.00090135072	0.004874303	-0.0025103339	
8402.199074	0.0057768582	-0.0018809529	-0.0034006116	-0.00088741594	-0.0034006116	-0.00088741594	0.0050031684	-0.0024110275	
8404.166666	0.0059305843	-0.0017672498	-0.0035280212	-0.00086939804	-0.0035280212	-0.00086939804	0.0051369082	-0.0023146639	
8406.134259	0.006090283	-0.0016575887	-0.0036605319	-0.00084673705	-0.0036605319	-0.00084673705	0.0052757115	-0.0022218037	
8408.101852	0.0062555867	-0.0015521525	-0.0037981713	-0.00081904123	-0.0037981713	-0.00081904123	0.0054196733	-0.0021325162	
8410.069444	0.0064271107	-0.0014516788	-0.0039411261	-0.00078565973	-0.0039411261	-0.00078565973	0.0055687709	-0.0020477282	
8412.037037	0.0066043037	-0.0013569946	-0.0040890703	-0.00074603208	-0.0040890703	-0.00074603208	0.0057229834	-0.0019676327	
8413.020833	0.0066952818	-0.0013118938	-0.0041650442	-0.0007236748	-0.0041650442	-0.0007236748	0.005802029	-0.0019296375	
8414.004629	0.0067875223	-0.0012684216	-0.0042423059	-0.00069953152	-0.0042423059	-0.00069953152	0.0058825212	-0.0018929385	
8414.988426	0.0068813543	-0.001226728	-0.0043207209	-0.00067348783	-0.0043207209	-0.00067348783	0.005964061	-0.0018578752	
8415.972222	0.006976517	-0.0011868321	-0.004400468	-0.00064546978	-0.004400468	-0.00064546978	0.0060469139	-0.0018243619	
8416.956018	0.0070731645	-0.0011488923	-0.0044814279	-0.00061537291	-0.0044814279	-0.00061537291	0.0061310561	-0.0017924744	
8417.939815	0.0071713314	-0.0011129754	-0.0045636344	-0.00058312904	-0.0045636344	-0.00058312904	0.0062165119	-0.0017622697	
8418.923611	0.0072706084	-0.0010791711	-0.004646811	-0.00054857506	-0.004646811	-0.00054857506	0.006302844	-0.0017341246	
8419.907407	0.0073712693	-0.001047596	-0.0047312558	-0.00051172475	-0.0047312558	-0.00051172475	0.0063905474	-0.0017076254	
8420.891203	0.0074733418	-0.0010183736	-0.004816963	-0.00047233041	-0.004816963	-0.00047233041	0.0064794018	-0.0016833611	
8421.875	0.0075765215	-0.00099160779	-0.0049035468	-0.00043038354	-0.0049035468	-0.00043038354	0.0065693096	-0.0016612326	
8422.858796	0.0076810062	-0.00096738708	-0.0049910187	-0.00038578261	-0.0049910187	-0.00038578261	0.006660106	-0.0016412964	
8423.842592	0.0077864953	-0.0009458287	-0.0050795426	-0.00033842312	-0.0050795426	-0.00033842312	0.0067520474	-0.0016234829	
8424.826389	0.0078929193	-0.00092703229	-0.0051688992	-0.00028814574	-0.0051688992	-0.00028814574	0.0068448458	-0.0016082131	
8425.810185	0.008000469	-0.00091114816	-0.0052591251	-0.00023484622	-0.0052591251	-0.00023484622	0.0069385026	-0.001595574	
8426.793981	0.0081088641	-0.00089824405	-0.0053499479	-0.0001784751	-0.0053499479	-0.0001784751	0.007032778	-0.0015853843	
8427.777778	0.0082178968	-0.00088845514	-0.0054413524	-0.00011889113	-0.0054413524	-0.00011889113	0.0071278081	-0.0015779167	
8428.761574	0.0083277446	-0.00088189898	-0.0055333605	-5.5996782e-05	-0.0055333605	-5.5996782e-05	0.0072235837	-0.001573224	
8429.74537	0.0084380888	-0.0008786604	-0.005625632	1.0324091e-05	-0.005625632	1.0324091e-05	0.0073196148	-0.0015714318	
8430.729166	0.008548776	-0.0008788482	-0.0057183352	8.0167915e-05	-0.0057183352	8.0167915e-05	0.007416124	-0.0015725959	
8431.712963	0.0086598008	-0.00088260908	-0.0058110631	0.00015364179	-0.0058110631	0.00015364179	0.0075129164	-0.0015768447	
8432.696759	0.0087711989	-0.00088998891	-0.0059039758	0.00023084471	-0.0059039758	0.00023084471	0.0076100197	-0.0015842862	
8433.680555	0.0088824772	-0.00090114199	-0.0059968529	0.00031189766	-0.0059968529	0.00031189766	0.0077069841	-0.0015949432	
8434.664352	0.0089933145	-0.00091607192	-0.0060890465	0.00039679045	-0.0060890465	0.00039679045	0.0078036818	-0.0016088953	
8435.648148	0.0091040992	-0.00093492923	-0.0061811528	0.00048570776	-0.0061811528	0.00048570776	0.007900296	-0.0016262689	
8436.631944	0.0092143476	-0.000957779	-0.0062725848	0.00057868368	-0.0062725848	0.00057868368	0.0079963738	-0.0016470991	
8437.61574	0.0093236634	-0.00098466697	-0.0063630346	0.00067577081	-0.0063630346	0.00067577081	0.0080919222	-0.001671448	
8438.599537	0.0094322223	-0.0010156836	-0.0064525738	0.00077705888	-0.0064525738	0.00077705888	0.0081865456	-0.0016993568	
8439.583333	0.0095397065	-0.0010508658	-0.0065410987	0.00088258076	-0.0065410987	0.00088258076	0.0082803291	-0.001730882	
8440.567129	0.0096455665	-0.0010902081	-0.0066279584	0.00099236036	-0.0066279584	0.00099236036	0.00837276	-0.0017660505	
8441.550926	0.0097498928	-0.0011337566	-0.0067131236	0.0011064273	-0.0067131236	0.0011064273	0.008463931	-0.0018048678	
8442.534722	0.0098524063	-0.0011815694	-0.0067965862	0.001224834	-0.0067965862	0.001224834	0.0085535936	-0.0018473709	
8443.518518	0.009952852	-0.0012335613	-0.0068779436	0.0013475153	-0.0068779436	0.0013475153	0.0086413174	-0.0018935236	
8445.486111	0.010146573	-0.0013501131	-0.0070335196	0.0016057397	-0.0070335196	0.0016057397	0.0088104694	-0.0019967272	
8447.453703	0.010328621	-0.0014829685	-0.0071775667	0.001880748	-0.0071775667	0.001880748	0.0089697738	-0.0021141301	
8449.421296	0.010497099	-0.0016315086	-0.007308551	0.0021719806	-0.007308551	0.0021719806	0.0091173536	-0.0022451835	
8451.388889	0.010649916	-0.0017946344	-0.0074241574	0.0024784657	-0.0074241574	0.0024784657	0.0092513413	-0.0023889451	
8453.356481	0.01078497	-0.0019710231	-0.0075224858	0.0027990228	-0.0075224858	0.0027990228	0.0093700742	-0.0025442826	
8455.324074	0.010900472	-0.002158981	-0.0076021102	0.0031320619	-0.0076021102	0.0031320619	0.0094717838	-0.0027097096	
8457.291666	0.010994513	-0.0023565219	-0.0076609365	0.0034758962	-0.0076609365	0.0034758962	0.0095549782	-0.0028835341	
8459.259259	0.011065808	-0.0025612958	-0.0076978016	0.0038282406	-0.0076978016	0.0038282406	0.0096185553	-0.0030637023	
8461.226852	0.01111358	-0.0027709488	-0.0077119466	0.0041869873	-0.0077119466	0.0041869873	0.0096614495	-0.0032481411	
8463.194444	0.01113653	-0.0029826708	-0.0077021955	0.0045497201	-0.0077021955	0.0045497201	0.009683133	-0.0034345367	
8465.162037	0.011134522	-0.0031936851	-0.0076683528	0.0049137553	-0.0076683528	0.0049137553	0.0096829219	-0.0036203199	
8467.129629	0.011107594	-0.0034010355	-0.007610326	0.0052764391	-0.007610326	0.0052764391	0.0096612948	-0.0038030477	
8469.097222	0.011056326	-0.0036021015	-0.007528774	0.0056354008	-0.007528774	0.0056354008	0.0096183994	-0.0039803765	
8471.064815	0.010981854	-0.0037940372	-0.0074244951	0.0059878799	-0.0074244951	0.0059878799	0.0095550871	-0.0041498209	
8473.032407	0.010884732	-0.0039742012	-0.0072983769	0.0063316449	-0.0072983769	0.0063316449	0.0094727215	-0.0043092213	
8475	0.010767353	-0.0041406406	-0.007152054	0.0066648845	-0.007152054	0.0066648845	0.0093720257	-0.0044566538	
8476.967592	0.01063095	-0.0042911772	-0.0069872112	0.0069856821	-0.0069872112	0.0069856821	0.0092551896	-0.0045904216	
8478.935185	0.010477737	-0.0044240394	-0.00680549	0.007292383	-0.00680549	0.007292383	0.009123817	-0.0047089265	
8480.902778	0.010310331	-0.0045380665	-0.0066092782	0.0075837985	-0.0066092782	0.0075837985	0.0089796972	-0.0048110245	
8482.87037	0.010130269	-0.0046322088	-0.0064001289	0.0078595007	-0.0064001289	0.0078595007	0.0088248369	-0.0048960129	
8484.837963	0.0099404301	-0.0047058111	-0.0061806099	0.0081184447	-0.0061806099	0.0081184447	0.0086612898	-0.0049631493	
8486.805555	0.0097430594	-0.0047585651	-0.0059526638	0.0083605527	-0.0059526638	0.0083605527	0.0084913291	-0.0050122448	
8488.773148	0.0095401978	-0.0047906849	-0.0057182162	0.0085862796	-0.0057182162	0.0085862796	0.0083162137	-0.0050434069	
8490.740741	0.0093336523	-0.0048018804	-0.0054788859	0.0087952676	-0.0054788859	0.0087952676	0.0081380498	-0.0050564573	
