! Date: Wednesday, June 05, 2013  1:52 PM
! Filename: C:\Data\Mike_Arnold\TGP2105-SM\Over_Temp\TGP2105-SM_EVB01_25C_Phase58.s2p 
! Comments: 
!^VDC(V):5.000
!^VDC(mA):0.070
!%Freq(GHz),S11(dB),S11(ang),S21(dB),S21(ang),S12(dB),S12(ang),S22(dB),S22(ang)
# GHz   S   DB   R   50
    5.000000000	-12.233	 96.317	 -6.610	106.446	 -6.622	106.432	-10.870	-155.870
    5.100000000	-13.100	 96.708	 -6.503	 88.895	 -6.516	 88.863	-10.017	-162.967
    5.200000000	-13.871	 97.387	 -6.437	 71.939	 -6.450	 71.930	 -9.482	-171.596
    5.300000000	-14.700	 97.875	 -6.392	 55.533	 -6.409	 55.491	 -9.224	178.891
    5.400000000	-15.761	 99.669	 -6.360	 39.582	 -6.381	 39.548	 -9.281	169.804
    5.500000000	-16.850	106.156	 -6.331	 24.129	 -6.351	 24.077	 -9.584	161.307
    5.600000000	-17.191	115.166	 -6.278	  9.143	 -6.282	  9.105	-10.120	154.190
    5.700000000	-17.169	123.302	 -6.168	 -6.044	 -6.182	 -6.064	-10.952	149.194
    5.800000000	-16.711	134.006	 -6.113	-21.414	 -6.124	-21.419	-11.781	147.863
    5.900000000	-15.079	142.066	 -6.137	-36.552	 -6.155	-36.566	-12.337	149.623
    6.000000000	-13.223	143.044	 -6.210	-51.231	 -6.225	-51.281	-12.407	152.084
    6.100000000	-11.707	139.789	 -6.307	-65.465	 -6.323	-65.482	-12.114	153.626
    6.200000000	-10.465	134.134	 -6.409	-79.150	 -6.417	-79.185	-11.599	153.483
    6.300000000	 -9.509	126.650	 -6.491	-92.434	 -6.502	-92.441	-11.090	150.972
    6.400000000	 -8.918	118.301	 -6.549	-105.339	 -6.558	-105.392	-10.745	146.534
    6.500000000	 -8.552	109.608	 -6.566	-118.048	 -6.577	-118.043	-10.602	141.136
    6.600000000	 -8.321	100.555	 -6.560	-130.480	 -6.569	-130.520	-10.623	134.766
    6.700000000	 -8.307	 90.637	 -6.493	-142.952	 -6.507	-142.978	-10.896	127.333
    6.800000000	 -8.465	 80.388	 -6.390	-155.547	 -6.413	-155.489	-11.436	119.143
    6.900000000	 -8.759	 70.039	 -6.275	-168.153	 -6.297	-168.109	-12.234	110.400
    7.000000000	 -9.154	 58.997	 -6.157	179.061	 -6.182	179.136	-13.353	100.415
    7.100000000	 -9.673	 47.688	 -6.041	166.170	 -6.063	166.216	-14.833	 89.184
    7.200000000	-10.272	 36.456	 -5.932	153.166	 -5.952	153.218	-16.750	 76.375
    7.300000000	-10.902	 25.204	 -5.843	140.121	 -5.865	140.179	-19.008	 60.739
    7.400000000	-11.551	 14.099	 -5.771	127.054	 -5.798	127.128	-21.651	 39.502
    7.500000000	-12.229	  3.398	 -5.722	114.016	 -5.746	114.067	-24.283	  9.995
    7.600000000	-12.869	 -6.508	 -5.691	101.100	 -5.713	101.128	-25.613	-26.021
    7.700000000	-13.516	-15.734	 -5.675	 88.245	 -5.700	 88.297	-25.230	-59.135
    7.800000000	-14.190	-23.912	 -5.661	 75.537	 -5.685	 75.560	-24.366	-86.369
    7.900000000	-14.954	-31.220	 -5.660	 62.889	 -5.685	 62.949	-24.020	-109.374
    8.000000000	-15.766	-37.498	 -5.660	 50.376	 -5.685	 50.400	-24.178	-132.435
    8.100000000	-16.783	-42.759	 -5.673	 37.862	 -5.698	 37.958	-24.313	-157.974
    8.200000000	-17.957	-46.515	 -5.694	 25.467	 -5.716	 25.534	-23.923	172.472
    8.300000000	-19.352	-47.678	 -5.718	 13.183	 -5.745	 13.298	-22.568	142.219
    8.400000000	-20.699	-46.282	 -5.755	  1.031	 -5.777	  1.111	-20.733	118.237
    8.500000000	-22.201	-43.097	 -5.797	-11.031	 -5.821	-10.934	-18.861	 99.960
    8.600000000	-23.280	-36.618	 -5.843	-22.986	 -5.871	-22.928	-17.181	 85.419
    8.700000000	-23.985	-31.272	 -5.890	-34.838	 -5.913	-34.760	-15.995	 73.927
    8.800000000	-24.732	-30.169	 -5.927	-46.566	 -5.957	-46.509	-15.206	 64.340
    8.900000000	-25.977	-33.096	 -5.968	-58.225	 -5.993	-58.160	-14.702	 57.124
    9.000000000	-28.065	-41.637	 -5.994	-69.839	 -6.020	-69.774	-14.588	 50.453
    9.100000000	-31.577	-64.615	 -6.017	-81.413	 -6.041	-81.340	-14.714	 45.583
    9.200000000	-33.233	-128.034	 -6.028	-92.982	 -6.059	-92.920	-15.210	 43.054
    9.300000000	-28.114	-174.510	 -6.049	-104.587	 -6.070	-104.486	-15.781	 41.293
    9.400000000	-23.655	166.214	 -6.066	-116.127	 -6.094	-116.029	-16.477	 42.217
    9.500000000	-20.520	155.257	 -6.095	-127.662	 -6.119	-127.552	-17.278	 44.302
    9.600000000	-18.404	145.698	 -6.124	-139.099	 -6.152	-139.000	-17.922	 47.199
    9.700000000	-16.984	138.977	 -6.157	-150.429	 -6.183	-150.346	-18.385	 49.982
    9.800000000	-16.037	133.276	 -6.185	-161.674	 -6.215	-161.600	-19.081	 51.712
    9.900000000	-15.481	128.688	 -6.213	-172.892	 -6.243	-172.793	-20.026	 51.271
   10.000000000	-15.499	117.396	 -6.249	175.699	 -6.282	175.803	-21.259	 41.414
   10.100000000	-15.404	112.861	 -6.275	164.551	 -6.309	164.653	-22.937	 30.885
   10.200000000	-15.230	110.676	 -6.298	153.460	 -6.331	153.535	-24.614	 13.338
   10.300000000	-15.319	108.965	 -6.324	142.444	 -6.353	142.503	-26.384	-15.874
   10.400000000	-15.230	108.538	 -6.353	131.396	 -6.385	131.484	-25.578	-52.922
   10.500000000	-15.192	109.084	 -6.380	120.453	 -6.408	120.556	-23.486	-78.889
   10.600000000	-14.982	109.613	 -6.420	109.528	 -6.448	109.607	-20.787	-98.440
   10.700000000	-14.798	109.461	 -6.467	 98.745	 -6.486	 98.710	-18.811	-110.390
   10.800000000	-14.490	109.437	 -6.515	 87.912	 -6.534	 87.874	-17.236	-120.930
   10.900000000	-14.344	108.193	 -6.563	 77.160	 -6.583	 77.130	-16.037	-128.924
   11.000000000	-14.152	106.820	 -6.616	 66.422	 -6.633	 66.393	-15.198	-136.757
   11.100000000	-14.174	104.551	 -6.657	 55.729	 -6.678	 55.680	-14.651	-143.719
   11.200000000	-14.228	102.583	 -6.704	 45.081	 -6.720	 45.035	-14.262	-150.479
   11.300000000	-14.470	100.406	 -6.739	 34.413	 -6.759	 34.403	-14.067	-157.312
   11.400000000	-14.824	 98.112	 -6.777	 23.761	 -6.792	 23.762	-14.008	-163.834
   11.500000000	-15.335	 96.424	 -6.809	 13.153	 -6.827	 13.100	-14.040	-170.347
   11.600000000	-15.980	 94.753	 -6.838	  2.502	 -6.856	  2.474	-14.102	-176.938
   11.700000000	-16.870	 94.020	 -6.870	 -8.170	 -6.886	 -8.215	-14.201	176.547
   11.800000000	-17.947	 95.040	 -6.900	-18.828	 -6.918	-18.899	-14.229	170.211
   11.900000000	-19.073	 97.658	 -6.932	-29.538	 -6.950	-29.567	-14.196	163.645
   12.000000000	-20.416	103.228	 -6.969	-40.218	 -6.986	-40.241	-14.064	157.174
   12.100000000	-21.599	114.137	 -7.012	-50.981	 -7.026	-50.996	-13.802	151.363
   12.200000000	-21.859	129.435	 -7.062	-61.729	 -7.069	-61.775	-13.470	145.287
   12.300000000	-21.004	142.197	 -7.118	-72.515	 -7.132	-72.543	-13.027	139.409
   12.400000000	-19.487	151.068	 -7.182	-83.267	 -7.190	-83.340	-12.551	133.697
   12.500000000	-17.859	153.878	 -7.250	-94.086	 -7.267	-94.140	-12.036	128.341
   12.600000000	-16.296	152.912	 -7.332	-104.860	 -7.346	-104.936	-11.527	122.909
   12.700000000	-15.116	149.264	 -7.417	-115.659	 -7.429	-115.742	-11.046	117.809
   12.800000000	-14.033	143.599	 -7.502	-126.472	 -7.520	-126.511	-10.631	112.788
   12.900000000	-13.151	136.228	 -7.596	-137.249	 -7.610	-137.282	-10.260	107.859
   13.000000000	-12.450	128.029	 -7.684	-147.983	 -7.698	-148.018	 -9.959	103.128
   13.100000000	-11.852	119.169	 -7.774	-158.721	 -7.791	-158.738	 -9.731	 98.400
   13.200000000	-11.256	109.803	 -7.873	-169.375	 -7.883	-169.418	 -9.570	 93.633
   13.300000000	-10.772	 99.794	 -7.954	-179.990	 -7.965	179.919	 -9.495	 88.807
   13.400000000	-10.272	 90.065	 -8.035	169.378	 -8.045	169.321	 -9.497	 84.118
   13.500000000	 -9.778	 80.232	 -8.116	158.762	 -8.132	158.705	 -9.549	 78.739
   13.600000000	 -9.267	 70.496	 -8.209	148.198	 -8.221	148.136	 -9.680	 73.410
   13.700000000	 -8.851	 61.369	 -8.299	137.713	 -8.310	137.639	 -9.900	 67.394
   13.800000000	 -8.405	 52.892	 -8.392	127.279	 -8.400	127.197	-10.146	 61.188
   13.900000000	 -7.993	 45.350	 -8.483	116.896	 -8.493	116.842	-10.472	 54.281
   14.000000000	 -7.636	 37.988	 -8.570	106.632	 -8.585	106.565	-10.809	 47.223
   14.100000000	 -7.356	 31.796	 -8.655	 96.453	 -8.667	 96.379	-11.207	 39.682
   14.200000000	 -7.122	 25.986	 -8.728	 86.314	 -8.743	 86.261	-11.696	 32.385
   14.300000000	 -6.966	 21.108	 -8.787	 76.262	 -8.800	 76.207	-12.200	 25.673
   14.400000000	 -6.899	 16.790	 -8.823	 66.183	 -8.838	 66.163	-12.773	 19.828
   14.500000000	 -6.854	 13.376	 -8.846	 56.225	 -8.855	 56.128	-13.489	 14.460
   14.600000000	 -6.967	 10.213	 -8.837	 46.167	 -8.849	 46.104	-14.247	 11.630
   14.700000000	 -7.059	  8.510	 -8.818	 36.025	 -8.823	 35.983	-15.172	 11.388
   14.800000000	 -7.286	  6.987	 -8.771	 25.818	 -8.782	 25.740	-15.952	 13.873
   14.900000000	 -7.452	  5.879	 -8.729	 15.548	 -8.747	 15.477	-16.452	 21.206
   15.000000000	 -7.694	  6.257	 -8.683	  5.196	 -8.698	  5.095	-16.352	 30.408
   15.100000000	 -7.893	  5.955	 -8.641	 -5.259	 -8.655	 -5.322	-15.598	 38.568
   15.200000000	 -8.127	  6.180	 -8.610	-15.645	 -8.618	-15.715	-14.491	 44.201
   15.300000000	 -8.315	  6.008	 -8.588	-26.069	 -8.604	-26.171	-13.261	 46.878
   15.400000000	 -8.527	  4.864	 -8.582	-36.443	 -8.596	-36.531	-12.238	 47.199
   15.500000000	 -8.880	  3.257	 -8.570	-46.779	 -8.591	-46.805	-11.372	 45.843
   15.600000000	 -9.277	  0.359	 -8.577	-57.041	 -8.593	-57.070	-10.713	 44.252
   15.700000000	 -9.815	 -4.021	 -8.575	-67.285	 -8.599	-67.310	-10.236	 41.931
   15.800000000	-10.521	-10.237	 -8.577	-77.588	 -8.601	-77.616	 -9.965	 39.385
   15.900000000	-11.324	-17.687	 -8.586	-87.868	 -8.603	-87.921	 -9.801	 36.546
   16.000000000	-12.189	-27.907	 -8.595	-98.268	 -8.607	-98.357	 -9.775	 33.994
   16.100000000	-12.970	-40.719	 -8.602	-108.839	 -8.626	-108.794	 -9.905	 30.203
   16.200000000	-13.547	-54.976	 -8.627	-119.396	 -8.652	-119.377	-10.047	 26.382
   16.300000000	-13.693	-69.877	 -8.656	-130.048	 -8.681	-130.011	-10.421	 21.584
   16.400000000	-13.436	-83.606	 -8.692	-140.728	 -8.715	-140.699	-10.865	 15.435
   16.500000000	-12.967	-96.028	 -8.730	-151.455	 -8.762	-151.414	-11.431	  8.734
   16.600000000	-12.423	-104.859	 -8.766	-162.152	 -8.797	-162.090	-12.171	 -0.267
   16.700000000	-11.745	-113.454	 -8.817	-172.852	 -8.846	-172.799	-12.909	-10.412
   16.800000000	-11.441	-118.040	 -8.847	176.570	 -8.878	176.613	-14.143	-23.237
   16.900000000	-10.995	-124.143	 -8.894	165.957	 -8.920	166.001	-14.490	-39.170
   17.000000000	-10.853	-127.042	 -8.909	155.530	 -8.940	155.584	-15.172	-53.572
   17.100000000	-10.845	-132.821	 -8.927	145.112	 -8.951	145.138	-15.114	-71.113
   17.200000000	-10.848	-135.325	 -8.924	134.772	 -8.955	134.795	-15.038	-82.593
   17.300000000	-11.469	-139.416	 -8.895	124.429	 -8.924	124.459	-15.067	-94.796
   17.400000000	-12.053	-142.876	 -8.848	114.042	 -8.883	114.065	-14.890	-103.585
   17.500000000	-13.156	-147.330	 -8.790	103.572	 -8.817	103.563	-15.035	-110.438
   17.600000000	-14.678	-152.036	 -8.714	 92.872	 -8.733	 92.861	-15.332	-115.078
   17.700000000	-16.909	-157.575	 -8.624	 81.989	 -8.652	 82.018	-15.896	-117.704
   17.800000000	-20.202	-164.371	 -8.539	 70.899	 -8.565	 70.882	-16.721	-119.514
   17.900000000	-25.920	-176.785	 -8.458	 59.515	 -8.491	 59.544	-17.864	-120.510
   18.000000000	-33.283	113.656	 -8.388	 48.000	 -8.419	 48.015	-19.392	-119.987
   18.100000000	-25.736	 43.693	 -8.334	 36.234	 -8.359	 36.225	-21.547	-119.838
   18.200000000	-20.564	 32.585	 -8.291	 24.395	 -8.320	 24.419	-25.172	-120.880
   18.300000000	-17.641	 27.538	 -8.264	 12.434	 -8.286	 12.465	-34.307	-115.556
   18.400000000	-15.348	 25.632	 -8.242	  0.430	 -8.267	  0.447	-34.088	 45.630
   18.500000000	-13.833	 24.137	 -8.236	-11.556	 -8.251	-11.524	-24.341	 49.125
   18.600000000	-12.527	 22.860	 -8.235	-23.527	 -8.258	-23.513	-19.614	 46.987
   18.700000000	-11.599	 21.577	 -8.244	-35.420	 -8.264	-35.380	-16.608	 44.752
   18.800000000	-10.946	 20.277	 -8.252	-47.191	 -8.273	-47.158	-14.691	 41.101
   18.900000000	-10.585	 18.564	 -8.245	-58.878	 -8.277	-58.875	-13.406	 37.759
   19.000000000	-10.509	 17.277	 -8.239	-70.489	 -8.269	-70.452	-12.511	 36.252
   19.100000000	-10.657	 15.332	 -8.230	-82.123	 -8.260	-82.017	-11.985	 34.606
   19.200000000	-11.253	 15.254	 -8.190	-93.589	 -8.222	-93.523	-11.802	 33.150
   19.300000000	-12.070	 13.468	 -8.133	-105.326	 -8.167	-105.197	-11.714	 34.429
   19.400000000	-13.234	 15.949	 -8.066	-117.248	 -8.096	-117.160	-11.901	 35.337
   19.500000000	-15.082	 17.600	 -8.003	-129.502	 -8.042	-129.431	-11.823	 37.758
   19.600000000	-16.378	 24.272	 -7.974	-141.996	 -8.010	-141.883	-11.778	 41.179
   19.700000000	-17.807	 34.256	 -7.957	-154.575	 -7.998	-154.465	-11.503	 43.083
   19.800000000	-18.540	 42.776	 -7.953	-167.337	 -7.987	-167.234	-11.159	 44.480
   19.900000000	-19.027	 49.908	 -7.956	179.734	 -7.991	179.797	-10.867	 43.887
   20.000000000	-19.017	 50.958	 -7.969	166.706	 -8.007	166.818	-10.575	 41.744
