! Date: Wednesday, June 05, 2013  1:53 PM
! Filename: C:\Data\Mike_Arnold\TGP2105-SM\Over_Temp\TGP2105-SM_EVB01_25C_Phase61.s2p 
! Comments: 
!^VDC(V):5.000
!^VDC(mA):0.128
!%Freq(GHz),S11(dB),S11(ang),S21(dB),S21(ang),S12(dB),S12(ang),S22(dB),S22(ang)
# GHz   S   DB   R   50
    5.000000000	 -8.368	117.518	 -7.169	120.552	 -7.184	120.531	 -9.691	-134.014
    5.100000000	 -8.759	109.021	 -7.083	103.830	 -7.102	103.830	 -8.742	-142.841
    5.200000000	 -9.275	 99.744	 -7.004	 87.758	 -7.022	 87.736	 -8.083	-152.180
    5.300000000	-10.000	 89.200	 -6.916	 72.098	 -6.933	 72.070	 -7.669	-162.007
    5.400000000	-11.063	 77.259	 -6.810	 56.793	 -6.824	 56.751	 -7.481	-171.295
    5.500000000	-12.694	 64.355	 -6.680	 41.829	 -6.696	 41.765	 -7.486	179.951
    5.600000000	-14.778	 50.413	 -6.512	 27.009	 -6.527	 26.958	 -7.629	172.315
    5.700000000	-17.428	 31.023	 -6.331	 11.806	 -6.342	 11.762	 -7.913	166.013
    5.800000000	-20.881	 -5.753	 -6.209	 -3.594	 -6.223	 -3.641	 -8.182	161.238
    5.900000000	-21.911	-68.285	 -6.170	-18.769	 -6.185	-18.785	 -8.402	157.814
    6.000000000	-18.227	-115.120	 -6.189	-33.628	 -6.200	-33.710	 -8.520	154.807
    6.100000000	-14.790	-140.556	 -6.250	-48.079	 -6.264	-48.090	 -8.554	152.176
    6.200000000	-12.348	-159.015	 -6.333	-62.011	 -6.342	-62.042	 -8.471	149.432
    6.300000000	-10.686	-174.627	 -6.415	-75.539	 -6.433	-75.557	 -8.356	145.916
    6.400000000	 -9.575	172.066	 -6.483	-88.601	 -6.496	-88.618	 -8.287	141.428
    6.500000000	 -8.805	159.890	 -6.525	-101.315	 -6.537	-101.366	 -8.303	136.341
    6.600000000	 -8.277	148.026	 -6.545	-113.757	 -6.560	-113.775	 -8.392	130.673
    6.700000000	 -8.038	136.445	 -6.501	-126.080	 -6.517	-126.102	 -8.623	124.001
    6.800000000	 -7.991	125.036	 -6.414	-138.461	 -6.437	-138.384	 -9.007	116.746
    6.900000000	 -8.086	113.701	 -6.313	-150.784	 -6.334	-150.739	 -9.552	109.174
    7.000000000	 -8.338	101.851	 -6.184	-163.306	 -6.207	-163.233	-10.270	100.693
    7.100000000	 -8.731	 89.783	 -6.048	-175.939	 -6.070	-175.896	-11.186	 91.663
    7.200000000	 -9.214	 77.535	 -5.917	171.325	 -5.941	171.362	-12.275	 82.150
    7.300000000	 -9.751	 64.770	 -5.801	158.401	 -5.824	158.468	-13.468	 72.112
    7.400000000	-10.334	 51.642	 -5.690	145.492	 -5.716	145.533	-14.802	 61.354
    7.500000000	-10.948	 38.377	 -5.606	132.525	 -5.630	132.560	-16.241	 50.455
    7.600000000	-11.498	 25.088	 -5.537	119.572	 -5.561	119.633	-17.623	 39.729
    7.700000000	-12.058	 11.911	 -5.497	106.714	 -5.515	106.780	-18.888	 29.529
    7.800000000	-12.631	 -0.835	 -5.454	 93.907	 -5.478	 93.984	-20.126	 21.119
    7.900000000	-13.294	-12.989	 -5.429	 81.220	 -5.452	 81.278	-21.217	 16.810
    8.000000000	-14.004	-24.722	 -5.408	 68.566	 -5.439	 68.629	-21.870	 17.772
    8.100000000	-14.983	-36.053	 -5.404	 55.989	 -5.436	 56.036	-22.027	 22.235
    8.200000000	-16.238	-46.809	 -5.418	 43.463	 -5.441	 43.534	-21.390	 29.645
    8.300000000	-17.982	-56.774	 -5.435	 31.080	 -5.459	 31.135	-19.870	 35.906
    8.400000000	-20.311	-65.985	 -5.466	 18.757	 -5.494	 18.820	-18.159	 38.005
    8.500000000	-23.888	-75.789	 -5.515	  6.545	 -5.543	  6.579	-16.547	 37.257
    8.600000000	-30.014	-82.247	 -5.574	 -5.544	 -5.597	 -5.495	-15.092	 34.602
    8.700000000	-50.600	-40.132	 -5.635	-17.483	 -5.658	-17.434	-13.978	 30.105
    8.800000000	-32.570	 73.153	 -5.692	-29.311	 -5.722	-29.236	-13.197	 24.441
    8.900000000	-27.110	 69.321	 -5.754	-40.936	 -5.778	-40.869	-12.733	 18.837
    9.000000000	-24.696	 64.481	 -5.796	-52.507	 -5.821	-52.446	-12.536	 11.898
    9.100000000	-23.699	 60.187	 -5.828	-64.011	 -5.853	-63.965	-12.628	  4.975
    9.200000000	-23.677	 58.894	 -5.846	-75.468	 -5.869	-75.426	-13.146	 -2.424
    9.300000000	-24.075	 60.865	 -5.853	-86.984	 -5.881	-86.923	-13.849	-10.626
    9.400000000	-24.887	 66.379	 -5.854	-98.492	 -5.883	-98.428	-14.931	-19.274
    9.500000000	-25.726	 78.415	 -5.861	-110.030	 -5.888	-109.979	-16.384	-29.844
    9.600000000	-25.621	 91.674	 -5.871	-121.598	 -5.897	-121.490	-18.027	-42.030
    9.700000000	-25.383	104.622	 -5.892	-133.101	 -5.916	-133.051	-19.802	-56.459
    9.800000000	-24.735	115.877	 -5.914	-144.629	 -5.941	-144.546	-21.190	-76.307
    9.900000000	-24.218	125.901	 -5.940	-156.087	 -5.977	-156.006	-21.537	-96.983
   10.000000000	-25.075	118.923	 -5.986	-167.419	 -6.018	-167.341	-20.119	-106.295
   10.100000000	-24.951	129.336	 -6.026	-178.758	 -6.053	-178.706	-19.101	-116.393
   10.200000000	-23.476	142.970	 -6.073	169.947	 -6.100	170.004	-18.102	-122.617
   10.300000000	-21.783	153.154	 -6.127	158.722	 -6.153	158.780	-16.875	-127.897
   10.400000000	-19.594	157.756	 -6.190	147.496	 -6.219	147.578	-15.641	-131.611
   10.500000000	-17.593	159.450	 -6.258	136.365	 -6.293	136.458	-14.608	-135.681
   10.600000000	-15.817	157.771	 -6.354	125.299	 -6.380	125.386	-13.424	-139.551
   10.700000000	-14.415	154.605	 -6.454	114.428	 -6.471	114.383	-12.535	-143.600
   10.800000000	-13.162	150.218	 -6.563	103.484	 -6.578	103.452	-11.728	-148.573
   10.900000000	-12.303	145.332	 -6.669	 92.716	 -6.685	 92.680	-11.073	-153.429
   11.000000000	-11.557	139.860	 -6.778	 81.984	 -6.796	 81.939	-10.548	-159.036
   11.100000000	-11.120	134.269	 -6.887	 71.354	 -6.904	 71.320	-10.206	-164.868
   11.200000000	-10.768	128.602	 -6.989	 60.778	 -7.002	 60.772	 -9.941	-170.914
   11.300000000	-10.641	122.860	 -7.082	 50.277	 -7.100	 50.224	 -9.779	-177.468
   11.400000000	-10.657	116.924	 -7.168	 39.820	 -7.189	 39.756	 -9.706	175.714
   11.500000000	-10.822	111.253	 -7.248	 29.326	 -7.269	 29.284	 -9.686	168.724
   11.600000000	-11.158	105.180	 -7.321	 18.867	 -7.344	 18.844	 -9.703	161.570
   11.700000000	-11.712	 99.218	 -7.392	  8.418	 -7.405	  8.365	 -9.758	154.301
   11.800000000	-12.460	 93.289	 -7.452	 -2.080	 -7.467	 -2.105	 -9.782	147.067
   11.900000000	-13.405	 87.122	 -7.506	-12.528	 -7.526	-12.593	 -9.782	139.891
   12.000000000	-14.736	 80.359	 -7.566	-23.076	 -7.584	-23.120	 -9.741	132.835
   12.100000000	-16.604	 73.771	 -7.623	-33.674	 -7.639	-33.761	 -9.674	126.398
   12.200000000	-19.274	 67.260	 -7.684	-44.288	 -7.698	-44.370	 -9.566	120.111
   12.300000000	-23.214	 60.525	 -7.756	-54.969	 -7.774	-55.045	 -9.407	114.214
   12.400000000	-31.969	 55.418	 -7.832	-65.688	 -7.847	-65.732	 -9.225	108.661
   12.500000000	-34.916	-141.634	 -7.913	-76.385	 -7.926	-76.439	 -9.026	103.536
   12.600000000	-24.277	-147.014	 -8.001	-87.145	 -8.015	-87.180	 -8.814	 98.441
   12.700000000	-19.859	-153.911	 -8.091	-97.882	 -8.110	-97.909	 -8.620	 93.743
   12.800000000	-17.056	-162.892	 -8.189	-108.646	 -8.205	-108.690	 -8.455	 89.122
   12.900000000	-15.167	-172.490	 -8.286	-119.379	 -8.309	-119.433	 -8.317	 84.518
   13.000000000	-13.764	177.978	 -8.382	-130.089	 -8.405	-130.140	 -8.227	 79.994
   13.100000000	-12.671	168.011	 -8.479	-140.781	 -8.496	-140.852	 -8.178	 75.471
   13.200000000	-11.768	157.317	 -8.574	-151.456	 -8.594	-151.529	 -8.169	 70.821
   13.300000000	-11.101	146.461	 -8.664	-162.121	 -8.675	-162.203	 -8.229	 66.099
   13.400000000	-10.457	135.443	 -8.740	-172.784	 -8.752	-172.836	 -8.342	 61.343
   13.500000000	 -9.877	124.009	 -8.822	176.522	 -8.838	176.441	 -8.450	 56.078
   13.600000000	 -9.313	112.332	 -8.912	165.810	 -8.920	165.771	 -8.628	 50.814
   13.700000000	 -8.825	101.294	 -9.003	155.209	 -9.016	155.093	 -8.812	 44.895
   13.800000000	 -8.309	 90.499	 -9.103	144.585	 -9.110	144.478	 -8.986	 38.844
   13.900000000	 -7.786	 80.560	 -9.216	134.018	 -9.228	133.951	 -9.175	 32.242
   14.000000000	 -7.340	 70.829	 -9.329	123.594	 -9.343	123.500	 -9.338	 25.528
   14.100000000	 -6.926	 62.429	 -9.444	113.297	 -9.453	113.227	 -9.501	 18.322
   14.200000000	 -6.573	 54.471	 -9.549	103.088	 -9.557	103.047	 -9.702	 11.159
   14.300000000	 -6.291	 47.540	 -9.639	 93.073	 -9.652	 93.019	 -9.921	  4.371
   14.400000000	 -6.101	 41.390	 -9.712	 83.169	 -9.721	 83.103	-10.187	 -2.009
   14.500000000	 -5.934	 36.047	 -9.752	 73.297	 -9.766	 73.232	-10.536	 -8.623
   14.600000000	 -5.948	 31.388	 -9.761	 63.580	 -9.769	 63.482	-10.974	-14.008
   14.700000000	 -5.943	 27.878	 -9.741	 53.741	 -9.752	 53.693	-11.638	-18.857
   14.800000000	 -6.114	 24.952	 -9.673	 43.916	 -9.685	 43.862	-12.373	-22.880
   14.900000000	 -6.300	 22.446	 -9.590	 33.952	 -9.600	 33.872	-13.422	-24.849
   15.000000000	 -6.561	 21.645	 -9.475	 23.930	 -9.493	 23.840	-14.729	-24.944
   15.100000000	 -6.876	 20.734	 -9.352	 13.701	 -9.367	 13.633	-16.163	-21.820
   15.200000000	 -7.240	 21.080	 -9.228	  3.371	 -9.237	  3.326	-17.639	-14.211
   15.300000000	 -7.583	 21.740	 -9.111	 -7.076	 -9.122	 -7.158	-18.540	 -1.236
   15.400000000	 -7.915	 22.398	 -9.004	-17.614	 -9.020	-17.673	-18.542	 11.981
   15.500000000	 -8.306	 23.511	 -8.906	-28.209	 -8.923	-28.249	-17.804	 21.857
   15.600000000	 -8.664	 24.054	 -8.827	-38.826	 -8.849	-38.850	-16.928	 28.391
   15.700000000	 -9.095	 24.023	 -8.765	-49.493	 -8.779	-49.486	-16.196	 31.171
   15.800000000	 -9.649	 23.174	 -8.702	-60.160	 -8.715	-60.199	-15.823	 32.078
   15.900000000	-10.222	 21.940	 -8.651	-70.885	 -8.664	-70.914	-15.666	 31.878
   16.000000000	-10.954	 19.283	 -8.603	-81.685	 -8.621	-81.746	-15.871	 32.332
   16.100000000	-11.812	 15.223	 -8.560	-92.691	 -8.587	-92.659	-16.414	 30.878
   16.200000000	-12.702	 10.260	 -8.534	-103.739	 -8.564	-103.704	-17.016	 30.224
   16.300000000	-13.570	  3.295	 -8.515	-114.910	 -8.544	-114.892	-18.222	 29.370
   16.400000000	-14.287	 -5.911	 -8.511	-126.185	 -8.536	-126.164	-19.758	 27.117
   16.500000000	-14.850	-17.002	 -8.520	-137.530	 -8.548	-137.476	-21.879	 25.780
   16.600000000	-14.754	-28.618	 -8.544	-148.925	 -8.574	-148.857	-25.546	 21.164
   16.700000000	-14.493	-42.211	 -8.582	-160.304	 -8.612	-160.244	-31.707	 13.124
   16.800000000	-13.625	-50.978	 -8.635	-171.591	 -8.665	-171.540	-37.319	-163.363
   16.900000000	-12.931	-61.866	 -8.700	177.153	 -8.727	177.202	-27.044	-153.727
   17.000000000	-11.948	-68.564	 -8.776	166.098	 -8.804	166.141	-22.686	-167.053
   17.100000000	-11.510	-76.230	 -8.847	155.186	 -8.874	155.233	-19.544	-169.847
   17.200000000	-10.689	-82.388	 -8.924	144.360	 -8.950	144.396	-18.303	-176.513
   17.300000000	-10.484	-86.495	 -8.972	133.773	 -9.000	133.810	-17.089	175.409
   17.400000000	-10.218	-91.315	 -9.012	123.192	 -9.041	123.238	-16.560	169.024
   17.500000000	-10.330	-95.342	 -9.027	112.692	 -9.054	112.705	-16.452	159.992
   17.600000000	-10.621	-99.137	 -9.018	102.052	 -9.034	102.113	-16.726	149.799
   17.700000000	-11.178	-102.619	 -8.992	 91.315	 -9.018	 91.312	-17.251	136.569
   17.800000000	-11.957	-106.021	 -8.955	 80.349	 -8.975	 80.337	-17.622	120.472
   17.900000000	-13.089	-109.001	 -8.911	 69.164	 -8.941	 69.189	-17.584	102.083
   18.000000000	-14.799	-113.577	 -8.870	 57.801	 -8.889	 57.787	-17.034	 83.633
   18.100000000	-17.276	-117.446	 -8.832	 46.176	 -8.861	 46.215	-15.966	 68.117
   18.200000000	-21.423	-125.275	 -8.820	 34.413	 -8.845	 34.380	-14.659	 56.924
   18.300000000	-29.539	-148.902	 -8.817	 22.509	 -8.843	 22.491	-13.241	 48.032
   18.400000000	-27.933	 85.294	 -8.836	 10.523	 -8.865	 10.539	-12.011	 41.798
   18.500000000	-19.991	 66.289	 -8.879	 -1.373	 -8.905	 -1.373	-10.911	 36.996
   18.600000000	-15.699	 57.346	 -8.945	-13.215	 -8.972	-13.223	 -9.928	 33.060
   18.700000000	-13.027	 51.577	 -9.023	-24.788	 -9.040	-24.808	 -9.079	 29.903
   18.800000000	-11.181	 46.554	 -9.098	-36.232	 -9.123	-36.186	 -8.422	 26.383
   18.900000000	 -9.958	 41.623	 -9.162	-47.434	 -9.187	-47.403	 -7.956	 22.945
   19.000000000	 -9.155	 37.398	 -9.216	-58.384	 -9.239	-58.382	 -7.626	 20.414
   19.100000000	 -8.700	 32.498	 -9.235	-69.300	 -9.268	-69.181	 -7.466	 17.598
   19.200000000	 -8.615	 29.168	 -9.213	-79.982	 -9.246	-79.863	 -7.470	 14.338
   19.300000000	 -8.815	 23.752	 -9.142	-90.805	 -9.176	-90.691	 -7.622	 12.383
   19.400000000	 -9.315	 20.331	 -9.034	-101.968	 -9.066	-101.852	 -7.980	  9.474
   19.500000000	-10.420	 14.550	 -8.900	-113.509	 -8.931	-113.418	 -8.344	  7.594
   19.600000000	-11.546	  9.857	 -8.769	-125.391	 -8.806	-125.285	 -8.914	  6.079
   19.700000000	-13.386	  4.644	 -8.637	-137.665	 -8.671	-137.524	 -9.430	  4.470
   19.800000000	-15.672	 -1.886	 -8.514	-150.322	 -8.544	-150.256	 -9.981	  3.390
   19.900000000	-19.048	 -9.394	 -8.409	-163.459	 -8.438	-163.343	-10.504	  1.542
   20.000000000	-23.443	-17.230	 -8.326	-176.819	 -8.366	-176.756	-10.902	 -0.794
