! Date: Wednesday, June 05, 2013  1:52 PM
! Filename: C:\Data\Mike_Arnold\TGP2105-SM\Over_Temp\TGP2105-SM_EVB01_25C_Phase59.s2p 
! Comments: 
!^VDC(V):5.000
!^VDC(mA):0.077
!%Freq(GHz),S11(dB),S11(ang),S21(dB),S21(ang),S12(dB),S12(ang),S22(dB),S22(ang)
# GHz   S   DB   R   50
    5.000000000	-14.348	 99.389	 -6.890	114.612	 -6.905	114.597	 -9.086	-164.867
    5.100000000	-14.806	107.641	 -6.796	 96.625	 -6.812	 96.580	 -8.513	-170.410
    5.200000000	-14.563	113.201	 -6.762	 79.385	 -6.775	 79.376	 -8.060	-177.589
    5.300000000	-14.243	114.478	 -6.749	 62.850	 -6.765	 62.857	 -7.774	173.941
    5.400000000	-14.165	114.141	 -6.746	 46.952	 -6.761	 46.920	 -7.719	165.379
    5.500000000	-14.282	114.662	 -6.739	 31.687	 -6.753	 31.675	 -7.865	156.961
    5.600000000	-14.238	114.741	 -6.676	 16.941	 -6.687	 16.949	 -8.196	149.197
    5.700000000	-14.468	113.760	 -6.538	  2.081	 -6.550	  2.051	 -8.799	142.369
    5.800000000	-15.128	116.200	 -6.429	-13.079	 -6.436	-13.105	 -9.549	137.931
    5.900000000	-15.180	123.411	 -6.386	-28.185	 -6.398	-28.204	-10.299	135.973
    6.000000000	-14.392	129.405	 -6.392	-42.987	 -6.410	-43.015	-10.833	135.744
    6.100000000	-13.265	131.880	 -6.431	-57.422	 -6.444	-57.432	-11.117	136.446
    6.200000000	-12.010	130.713	 -6.486	-71.397	 -6.496	-71.466	-11.090	137.079
    6.300000000	-10.896	126.139	 -6.550	-85.065	 -6.563	-85.094	-10.876	136.125
    6.400000000	-10.135	119.751	 -6.595	-98.329	 -6.608	-98.351	-10.635	133.129
    6.500000000	 -9.594	112.482	 -6.613	-111.346	 -6.627	-111.357	-10.486	128.746
    6.600000000	 -9.203	104.436	 -6.623	-124.046	 -6.631	-124.083	-10.433	122.994
    6.700000000	 -9.052	 95.270	 -6.579	-136.709	 -6.592	-136.736	-10.575	115.624
    6.800000000	 -9.077	 85.764	 -6.494	-149.439	 -6.519	-149.362	-10.921	107.080
    6.900000000	 -9.240	 76.011	 -6.406	-162.112	 -6.425	-162.055	-11.454	 97.534
    7.000000000	 -9.501	 65.534	 -6.308	-174.893	 -6.331	-174.828	-12.172	 86.307
    7.100000000	 -9.885	 54.775	 -6.206	172.246	 -6.228	172.312	-13.088	 73.491
    7.200000000	-10.337	 44.018	 -6.111	159.301	 -6.132	159.389	-14.139	 58.876
    7.300000000	-10.803	 33.130	 -6.031	146.336	 -6.055	146.412	-15.151	 42.465
    7.400000000	-11.275	 22.283	 -5.965	133.368	 -5.984	133.438	-16.021	 23.959
    7.500000000	-11.760	 11.638	 -5.907	120.434	 -5.933	120.483	-16.677	  4.257
    7.600000000	-12.187	  1.627	 -5.871	107.585	 -5.892	107.632	-17.030	-14.566
    7.700000000	-12.601	 -8.019	 -5.846	 94.863	 -5.867	 94.908	-17.135	-32.022
    7.800000000	-13.028	-16.976	 -5.818	 82.228	 -5.843	 82.235	-17.272	-48.167
    7.900000000	-13.544	-25.493	 -5.801	 69.667	 -5.819	 69.713	-17.657	-62.263
    8.000000000	-14.065	-33.294	 -5.779	 57.219	 -5.802	 57.237	-18.415	-74.740
    8.100000000	-14.828	-40.871	 -5.761	 44.733	 -5.788	 44.828	-19.551	-87.400
    8.200000000	-15.722	-47.726	 -5.751	 32.342	 -5.778	 32.431	-21.480	-101.209
    8.300000000	-16.920	-53.473	 -5.749	 20.039	 -5.771	 20.113	-24.689	-118.845
    8.400000000	-18.318	-58.175	 -5.752	  7.784	 -5.775	  7.872	-29.394	-149.477
    8.500000000	-20.129	-62.318	 -5.761	 -4.418	 -5.790	 -4.331	-31.568	141.847
    8.600000000	-22.236	-63.794	 -5.791	-16.543	 -5.817	-16.474	-26.503	 94.642
    8.700000000	-24.625	-63.802	 -5.818	-28.592	 -5.840	-28.511	-22.970	 75.131
    8.800000000	-27.257	-65.054	 -5.850	-40.534	 -5.880	-40.487	-20.877	 62.936
    8.900000000	-30.763	-70.349	 -5.886	-52.383	 -5.913	-52.326	-19.592	 55.287
    9.000000000	-35.533	-91.939	 -5.916	-64.192	 -5.943	-64.133	-19.132	 48.071
    9.100000000	-36.299	-153.648	 -5.946	-75.931	 -5.972	-75.896	-19.146	 43.503
    9.200000000	-29.905	169.906	 -5.978	-87.654	 -6.002	-87.592	-19.855	 42.610
    9.300000000	-25.228	155.826	 -6.006	-99.343	 -6.031	-99.265	-20.792	 43.334
    9.400000000	-22.013	147.167	 -6.041	-110.989	 -6.068	-110.901	-21.903	 49.688
    9.500000000	-19.603	141.058	 -6.086	-122.551	 -6.108	-122.452	-22.955	 60.939
    9.600000000	-17.885	134.372	 -6.127	-133.984	 -6.156	-133.908	-23.180	 73.432
    9.700000000	-16.781	128.964	 -6.170	-145.354	 -6.200	-145.248	-22.721	 83.829
    9.800000000	-16.059	124.322	 -6.208	-156.605	 -6.237	-156.521	-22.388	 92.293
    9.900000000	-15.712	120.312	 -6.248	-167.802	 -6.276	-167.712	-22.368	 97.811
   10.000000000	-15.862	109.185	 -6.287	-179.141	 -6.311	-179.117	-24.101	 97.806
   10.100000000	-16.020	105.089	 -6.310	169.717	 -6.338	169.817	-25.852	102.401
   10.200000000	-16.140	104.093	 -6.338	158.652	 -6.364	158.744	-28.746	108.804
   10.300000000	-16.481	103.617	 -6.361	147.662	 -6.389	147.707	-32.210	139.204
   10.400000000	-16.596	105.651	 -6.390	136.624	 -6.416	136.711	-30.906	-167.413
   10.500000000	-16.658	109.053	 -6.413	125.641	 -6.446	125.749	-26.456	-148.101
   10.600000000	-16.382	112.335	 -6.455	114.740	 -6.483	114.813	-22.412	-142.957
   10.700000000	-15.994	114.752	 -6.503	103.933	 -6.520	103.914	-19.945	-143.210
   10.800000000	-15.379	116.407	 -6.555	 93.068	 -6.567	 93.047	-18.028	-146.870
   10.900000000	-14.931	116.328	 -6.607	 82.291	 -6.626	 82.255	-16.650	-150.459
   11.000000000	-14.393	115.425	 -6.664	 71.545	 -6.682	 71.505	-15.656	-155.533
   11.100000000	-14.117	113.328	 -6.717	 60.858	 -6.734	 60.822	-15.002	-160.896
   11.200000000	-13.879	111.031	 -6.769	 50.204	 -6.788	 50.160	-14.531	-166.515
   11.300000000	-13.836	108.277	 -6.817	 39.564	 -6.834	 39.532	-14.266	-172.770
   11.400000000	-13.923	105.163	 -6.860	 28.958	 -6.876	 28.935	-14.151	-179.143
   11.500000000	-14.139	102.456	 -6.906	 18.351	 -6.914	 18.339	-14.123	174.367
   11.600000000	-14.528	 99.270	 -6.939	  7.754	 -6.955	  7.729	-14.147	167.675
   11.700000000	-15.141	 96.562	 -6.972	 -2.823	 -6.991	 -2.861	-14.219	160.902
   11.800000000	-15.957	 94.608	 -7.013	-13.425	 -7.026	-13.454	-14.247	154.386
   11.900000000	-16.891	 93.239	 -7.046	-24.020	 -7.062	-24.067	-14.218	147.930
   12.000000000	-18.204	 93.140	 -7.086	-34.665	 -7.095	-34.709	-14.093	141.571
   12.100000000	-19.835	 96.302	 -7.122	-45.351	 -7.133	-45.377	-13.886	136.127
   12.200000000	-21.459	105.199	 -7.165	-56.038	 -7.175	-56.070	-13.610	130.674
   12.300000000	-22.455	119.184	 -7.215	-66.726	 -7.228	-66.805	-13.218	125.659
   12.400000000	-22.162	137.213	 -7.273	-77.514	 -7.289	-77.561	-12.790	120.927
   12.500000000	-20.602	148.870	 -7.338	-88.268	 -7.353	-88.316	-12.322	116.576
   12.600000000	-18.659	153.355	 -7.412	-99.062	 -7.425	-99.114	-11.845	112.045
   12.700000000	-17.045	152.933	 -7.486	-109.850	 -7.505	-109.903	-11.381	107.874
   12.800000000	-15.583	148.838	 -7.566	-120.665	 -7.586	-120.720	-10.979	103.709
   12.900000000	-14.399	142.243	 -7.653	-131.492	 -7.675	-131.519	-10.607	 99.403
   13.000000000	-13.442	134.487	 -7.747	-142.256	 -7.760	-142.290	-10.301	 95.280
   13.100000000	-12.621	125.867	 -7.837	-153.035	 -7.851	-153.068	-10.056	 91.045
   13.200000000	-11.846	116.439	 -7.930	-163.747	 -7.947	-163.806	 -9.876	 86.616
   13.300000000	-11.207	106.263	 -8.026	-174.434	 -8.040	-174.509	 -9.772	 82.079
   13.400000000	-10.571	 96.380	 -8.113	174.920	 -8.128	174.826	 -9.748	 77.478
   13.500000000	 -9.955	 86.159	 -8.216	164.216	 -8.227	164.167	 -9.749	 72.185
   13.600000000	 -9.335	 76.106	 -8.316	153.617	 -8.328	153.529	 -9.838	 66.854
   13.700000000	 -8.806	 66.618	 -8.428	143.053	 -8.435	142.988	 -9.982	 60.749
   13.800000000	 -8.279	 57.680	 -8.541	132.584	 -8.549	132.525	-10.137	 54.344
   13.900000000	 -7.784	 49.696	 -8.663	122.245	 -8.666	122.161	-10.348	 47.271
   14.000000000	 -7.350	 41.815	 -8.777	111.969	 -8.789	111.907	-10.559	 39.967
   14.100000000	 -7.000	 35.102	 -8.891	101.911	 -8.897	101.822	-10.801	 32.055
   14.200000000	 -6.710	 28.747	 -8.987	 91.893	 -9.005	 91.774	-11.117	 24.262
   14.300000000	 -6.498	 23.312	 -9.075	 82.019	 -9.087	 81.921	-11.440	 16.927
   14.400000000	 -6.380	 18.392	 -9.140	 72.223	 -9.150	 72.126	-11.838	 10.208
   14.500000000	 -6.300	 14.230	 -9.178	 62.429	 -9.193	 62.339	-12.342	  3.430
   14.600000000	 -6.383	 10.277	 -9.179	 52.678	 -9.190	 52.632	-12.946	 -1.499
   14.700000000	 -6.473	  7.695	 -9.164	 42.932	 -9.174	 42.860	-13.813	 -5.197
   14.800000000	 -6.721	  5.198	 -9.107	 33.069	 -9.119	 32.964	-14.735	 -7.090
   14.900000000	 -6.950	  3.113	 -9.035	 23.113	 -9.054	 23.053	-15.890	 -5.139
   15.000000000	 -7.305	  2.516	 -8.957	 13.025	 -8.966	 12.959	-17.078	  0.920
   15.100000000	 -7.662	  1.476	 -8.872	  2.885	 -8.880	  2.780	-17.822	 11.107
   15.200000000	 -8.097	  1.244	 -8.782	 -7.399	 -8.793	 -7.507	-17.813	 24.029
   15.300000000	 -8.498	  1.008	 -8.709	-17.794	 -8.720	-17.791	-16.871	 35.259
   15.400000000	 -8.911	  0.283	 -8.645	-28.128	 -8.654	-28.218	-15.676	 41.881
   15.500000000	 -9.450	 -0.764	 -8.587	-38.571	 -8.606	-38.570	-14.501	 44.717
   15.600000000	 -9.989	 -2.842	 -8.545	-48.940	 -8.563	-48.987	-13.500	 46.139
   15.700000000	-10.655	 -6.335	 -8.517	-59.369	 -8.531	-59.374	-12.740	 45.740
   15.800000000	-11.462	-11.656	 -8.492	-69.797	 -8.512	-69.825	-12.236	 44.737
   15.900000000	-12.371	-18.277	 -8.480	-80.274	 -8.498	-80.325	-11.872	 43.033
   16.000000000	-13.337	-27.911	 -8.469	-90.829	 -8.489	-90.885	-11.673	 41.692
   16.100000000	-14.194	-40.406	 -8.470	-101.488	 -8.491	-101.469	-11.692	 38.791
   16.200000000	-14.829	-54.498	 -8.483	-112.210	 -8.505	-112.174	-11.700	 35.805
   16.300000000	-14.986	-69.459	 -8.499	-122.961	 -8.521	-122.939	-12.007	 31.949
   16.400000000	-14.654	-83.124	 -8.525	-133.775	 -8.551	-133.779	-12.425	 26.503
   16.500000000	-14.094	-95.288	 -8.555	-144.635	 -8.579	-144.588	-12.994	 20.470
   16.600000000	-13.444	-103.348	 -8.588	-155.479	 -8.616	-155.421	-13.833	 11.930
   16.700000000	-12.652	-111.400	 -8.630	-166.313	 -8.655	-166.258	-14.730	  1.883
   16.800000000	-12.235	-114.957	 -8.655	-177.067	 -8.682	-177.049	-16.356	-11.010
   16.900000000	-11.647	-120.521	 -8.701	172.107	 -8.727	172.162	-16.997	-30.262
   17.000000000	-11.359	-122.640	 -8.729	161.540	 -8.751	161.611	-17.936	-47.731
   17.100000000	-11.219	-127.911	 -8.755	150.962	 -8.781	150.979	-17.784	-70.398
   17.200000000	-11.042	-129.971	 -8.779	140.427	 -8.801	140.495	-17.457	-84.701
   17.300000000	-11.495	-133.508	 -8.766	130.009	 -8.791	130.046	-17.221	-99.685
   17.400000000	-11.863	-136.740	 -8.743	119.553	 -8.769	119.608	-16.769	-110.071
   17.500000000	-12.726	-140.815	 -8.706	109.022	 -8.732	109.042	-16.772	-118.217
   17.600000000	-13.930	-145.304	 -8.649	 98.346	 -8.672	 98.375	-17.012	-123.648
   17.700000000	-15.732	-150.478	 -8.586	 87.462	 -8.605	 87.467	-17.700	-127.408
   17.800000000	-18.265	-156.693	 -8.509	 76.342	 -8.538	 76.386	-18.755	-130.677
   17.900000000	-22.351	-165.933	 -8.450	 65.032	 -8.482	 65.037	-20.325	-133.506
   18.000000000	-28.516	161.984	 -8.403	 53.505	 -8.425	 53.481	-22.604	-135.257
   18.100000000	-28.582	 75.844	 -8.357	 41.758	 -8.377	 41.754	-26.174	-140.219
   18.200000000	-22.068	 48.606	 -8.323	 29.889	 -8.352	 29.879	-32.905	-164.484
   18.300000000	-18.365	 39.221	 -8.315	 17.916	 -8.345	 17.944	-32.508	 87.410
   18.400000000	-15.553	 34.987	 -8.319	  5.909	 -8.347	  5.925	-24.329	 64.996
   18.500000000	-13.718	 31.899	 -8.342	 -6.070	 -8.371	 -6.098	-19.777	 58.044
   18.600000000	-12.178	 29.051	 -8.378	-18.011	 -8.406	-17.980	-16.619	 53.086
   18.700000000	-11.095	 26.522	 -8.415	-29.767	 -8.437	-29.742	-14.313	 49.195
   18.800000000	-10.323	 24.057	 -8.456	-41.412	 -8.484	-41.366	-12.697	 44.900
   18.900000000	 -9.863	 21.291	 -8.480	-52.898	 -8.505	-52.883	-11.575	 41.046
   19.000000000	 -9.694	 18.744	 -8.503	-64.255	 -8.525	-64.272	-10.716	 38.543
   19.100000000	 -9.760	 15.534	 -8.503	-75.663	 -8.540	-75.504	-10.190	 35.969
   19.200000000	-10.276	 13.734	 -8.475	-86.845	 -8.507	-86.729	 -9.943	 33.415
   19.300000000	-11.045	  9.917	 -8.412	-98.208	 -8.443	-98.134	 -9.806	 32.809
   19.400000000	-12.264	  9.272	 -8.333	-109.886	 -8.362	-109.773	 -9.959	 31.742
   19.500000000	-14.261	  6.588	 -8.258	-121.956	 -8.287	-121.828	 -9.985	 31.838
   19.600000000	-16.274	  8.900	 -8.196	-134.209	 -8.239	-134.063	-10.145	 32.956
   19.700000000	-19.199	 15.731	 -8.153	-146.658	 -8.185	-146.579	-10.147	 33.367
   19.800000000	-21.777	 28.976	 -8.114	-159.362	 -8.147	-159.308	-10.096	 33.889
   19.900000000	-23.445	 50.563	 -8.099	-172.354	 -8.136	-172.236	-10.042	 33.126
   20.000000000	-22.782	 65.042	 -8.104	174.602	 -8.132	174.680	 -9.924	 31.135
