! Date: Wednesday, June 05, 2013  1:51 PM
! Filename: C:\Data\Mike_Arnold\TGP2105-SM\Over_Temp\TGP2105-SM_EVB01_25C_Phase43.s2p 
! Comments: 
!^VDC(V):5.000
!^VDC(mA):0.066
!%Freq(GHz),S11(dB),S11(ang),S21(dB),S21(ang),S12(dB),S12(ang),S22(dB),S22(ang)
# GHz   S   DB   R   50
    5.000000000	 -8.966	 93.980	 -7.745	 22.588	 -7.758	 22.546	 -6.925	 95.045
    5.100000000	 -9.983	 84.035	 -7.545	  6.670	 -7.555	  6.625	 -6.977	 87.965
    5.200000000	-11.607	 74.028	 -7.320	 -9.293	 -7.336	 -9.317	 -7.290	 80.852
    5.300000000	-14.115	 64.266	 -7.113	-25.299	 -7.130	-25.340	 -7.809	 74.455
    5.400000000	-18.408	 57.401	 -6.943	-41.451	 -6.958	-41.506	 -8.573	 68.812
    5.500000000	-27.348	 77.211	 -6.821	-57.491	 -6.837	-57.523	 -9.524	 64.871
    5.600000000	-23.577	163.756	 -6.724	-73.311	 -6.738	-73.324	-10.602	 63.605
    5.700000000	-17.317	168.527	 -6.663	-89.179	 -6.677	-89.204	-11.401	 64.809
    5.800000000	-13.871	163.027	 -6.688	-104.870	 -6.702	-104.919	-11.761	 66.458
    5.900000000	-11.596	154.152	 -6.780	-119.984	 -6.788	-120.045	-11.898	 66.423
    6.000000000	-10.143	144.203	 -6.870	-134.540	 -6.887	-134.560	-11.918	 64.318
    6.100000000	 -9.282	134.576	 -6.952	-148.548	 -6.964	-148.577	-12.038	 59.781
    6.200000000	 -8.751	125.255	 -7.002	-162.141	 -7.014	-162.176	-12.393	 53.613
    6.300000000	 -8.446	115.960	 -7.017	-175.567	 -7.031	-175.617	-12.939	 45.840
    6.400000000	 -8.436	106.907	 -6.996	171.128	 -7.007	171.098	-13.758	 36.408
    6.500000000	 -8.606	 98.413	 -6.945	157.900	 -6.954	157.833	-14.927	 24.800
    6.600000000	 -8.867	 90.198	 -6.887	144.587	 -6.898	144.562	-16.476	 11.555
    6.700000000	 -9.278	 81.785	 -6.818	131.229	 -6.833	131.206	-18.318	 -4.565
    6.800000000	 -9.783	 73.622	 -6.744	117.753	 -6.768	117.827	-20.446	-25.579
    6.900000000	-10.344	 65.901	 -6.693	104.431	 -6.713	104.476	-22.592	-52.841
    7.000000000	-10.892	 57.715	 -6.652	 91.056	 -6.673	 91.129	-24.071	-84.127
    7.100000000	-11.463	 49.388	 -6.622	 77.776	 -6.643	 77.829	-24.436	-116.091
    7.200000000	-12.016	 41.136	 -6.599	 64.581	 -6.620	 64.598	-24.124	-144.698
    7.300000000	-12.499	 32.708	 -6.586	 51.403	 -6.612	 51.472	-23.751	-170.536
    7.400000000	-12.920	 24.106	 -6.586	 38.409	 -6.609	 38.429	-23.592	165.755
    7.500000000	-13.284	 15.591	 -6.588	 25.433	 -6.612	 25.501	-23.360	142.483
    7.600000000	-13.544	  7.585	 -6.598	 12.627	 -6.621	 12.663	-22.879	118.425
    7.700000000	-13.731	 -0.131	 -6.612	 -0.046	 -6.634	  0.001	-22.070	 94.557
    7.800000000	-13.859	 -7.505	 -6.623	-12.598	 -6.645	-12.530	-20.948	 74.059
    7.900000000	-14.013	-14.499	 -6.635	-25.048	 -6.654	-24.955	-19.610	 56.717
    8.000000000	-14.088	-21.149	 -6.638	-37.336	 -6.662	-37.269	-18.297	 42.768
    8.100000000	-14.258	-28.109	 -6.634	-49.528	 -6.666	-49.454	-17.338	 30.410
    8.200000000	-14.497	-35.325	 -6.626	-61.700	 -6.654	-61.603	-16.699	 20.440
    8.300000000	-14.890	-42.971	 -6.608	-73.771	 -6.640	-73.650	-16.315	 12.285
    8.400000000	-15.461	-51.481	 -6.586	-85.820	 -6.610	-85.767	-16.337	  4.895
    8.500000000	-16.421	-61.927	 -6.553	-97.941	 -6.582	-97.860	-16.804	 -1.179
    8.600000000	-17.717	-73.925	 -6.524	-110.090	 -6.554	-110.010	-17.740	 -4.689
    8.700000000	-19.497	-88.978	 -6.499	-122.297	 -6.524	-122.235	-19.238	 -5.880
    8.800000000	-21.626	-110.743	 -6.491	-134.554	 -6.517	-134.496	-21.319	 -2.059
    8.900000000	-23.566	-142.768	 -6.502	-146.834	 -6.531	-146.754	-23.734	 13.756
    9.000000000	-23.814	179.764	 -6.533	-159.046	 -6.558	-158.978	-24.507	 38.427
    9.100000000	-22.388	149.259	 -6.575	-171.178	 -6.608	-171.093	-22.847	 60.456
    9.200000000	-20.762	129.088	 -6.637	176.874	 -6.666	176.927	-20.765	 72.947
    9.300000000	-19.599	115.214	 -6.705	165.047	 -6.730	165.104	-19.075	 77.082
    9.400000000	-19.131	105.394	 -6.761	153.361	 -6.792	153.421	-17.877	 79.691
    9.500000000	-19.242	 99.814	 -6.820	141.805	 -6.846	141.876	-17.250	 82.072
    9.600000000	-19.762	 97.504	 -6.868	130.383	 -6.896	130.502	-16.817	 84.414
    9.700000000	-20.737	100.997	 -6.902	119.003	 -6.931	119.097	-16.422	 87.767
    9.800000000	-21.474	111.863	 -6.933	107.701	 -6.969	107.746	-16.090	 92.393
    9.900000000	-21.202	126.552	 -6.968	 96.372	 -7.006	 96.454	-15.682	 96.825
   10.000000000	-20.817	120.790	 -6.985	 84.837	 -7.022	 84.949	-15.953	 97.214
   10.100000000	-19.596	126.505	 -7.018	 73.585	 -7.054	 73.665	-15.615	 99.545
   10.200000000	-17.921	130.123	 -7.067	 62.399	 -7.096	 62.478	-15.184	100.065
   10.300000000	-16.610	129.910	 -7.100	 51.335	 -7.130	 51.452	-14.747	 99.978
   10.400000000	-15.387	127.829	 -7.147	 40.353	 -7.182	 40.453	-14.420	 98.329
   10.500000000	-14.467	125.389	 -7.195	 29.485	 -7.228	 29.590	-14.044	 94.796
   10.600000000	-13.734	121.437	 -7.243	 18.729	 -7.277	 18.843	-13.946	 91.194
   10.700000000	-13.278	117.371	 -7.297	  8.146	 -7.314	  8.110	-13.888	 85.710
   10.800000000	-12.905	113.388	 -7.344	 -2.435	 -7.362	 -2.487	-13.893	 79.982
   10.900000000	-12.813	109.052	 -7.379	-12.960	 -7.402	-12.989	-14.061	 73.217
   11.000000000	-12.777	104.905	 -7.418	-23.458	 -7.438	-23.504	-14.190	 66.162
   11.100000000	-13.010	100.448	 -7.449	-33.929	 -7.468	-33.951	-14.329	 58.669
   11.200000000	-13.318	 96.544	 -7.480	-44.349	 -7.496	-44.395	-14.496	 51.339
   11.300000000	-13.886	 92.712	 -7.501	-54.761	 -7.516	-54.804	-14.595	 44.505
   11.400000000	-14.638	 89.194	 -7.517	-65.184	 -7.537	-65.200	-14.649	 38.191
   11.500000000	-15.650	 87.003	 -7.535	-75.559	 -7.554	-75.603	-14.704	 32.490
   11.600000000	-16.910	 85.444	 -7.548	-85.976	 -7.566	-85.991	-14.691	 27.832
   11.700000000	-18.555	 86.695	 -7.567	-96.351	 -7.579	-96.414	-14.602	 24.000
   11.800000000	-20.449	 92.956	 -7.573	-106.776	 -7.594	-106.817	-14.488	 21.001
   11.900000000	-21.939	106.001	 -7.596	-117.160	 -7.612	-117.255	-14.311	 18.713
   12.000000000	-22.465	124.153	 -7.612	-127.590	 -7.627	-127.641	-14.063	 16.964
   12.100000000	-21.328	140.906	 -7.635	-138.028	 -7.650	-138.103	-13.831	 14.955
   12.200000000	-19.454	149.866	 -7.665	-148.418	 -7.683	-148.511	-13.531	 12.971
   12.300000000	-17.718	151.734	 -7.699	-158.840	 -7.715	-158.926	-13.266	 10.905
   12.400000000	-16.288	150.926	 -7.737	-169.258	 -7.750	-169.321	-13.003	  8.328
   12.500000000	-15.176	147.305	 -7.770	-179.667	 -7.786	-179.717	-12.822	  5.419
   12.600000000	-14.242	142.542	 -7.807	169.924	 -7.825	169.869	-12.664	  2.191
   12.700000000	-13.627	136.646	 -7.846	159.451	 -7.861	159.420	-12.628	 -1.597
   12.800000000	-13.086	130.087	 -7.878	149.006	 -7.891	148.980	-12.633	 -5.850
   12.900000000	-12.661	122.507	 -7.912	138.568	 -7.928	138.512	-12.718	-10.343
   13.000000000	-12.361	114.578	 -7.939	128.080	 -7.955	128.013	-12.865	-15.331
   13.100000000	-12.102	106.408	 -7.971	117.570	 -7.987	117.514	-13.065	-20.807
   13.200000000	-11.784	 98.075	 -8.005	107.169	 -8.018	107.068	-13.282	-26.736
   13.300000000	-11.513	 89.169	 -8.023	 96.653	 -8.038	 96.620	-13.535	-33.099
   13.400000000	-11.193	 80.776	 -8.040	 86.188	 -8.058	 86.099	-13.843	-40.074
   13.500000000	-10.837	 72.207	 -8.066	 75.697	 -8.081	 75.626	-14.086	-46.643
   13.600000000	-10.425	 63.907	 -8.094	 65.213	 -8.111	 65.136	-14.395	-53.839
   13.700000000	-10.076	 56.140	 -8.127	 54.788	 -8.137	 54.729	-14.676	-60.668
   13.800000000	 -9.692	 49.212	 -8.160	 44.393	 -8.166	 44.280	-15.120	-67.013
   13.900000000	 -9.309	 43.357	 -8.192	 33.995	 -8.201	 33.946	-15.639	-72.907
   14.000000000	 -8.945	 37.591	 -8.228	 23.613	 -8.238	 23.583	-16.441	-77.202
   14.100000000	 -8.630	 33.199	 -8.264	 13.308	 -8.277	 13.247	-17.440	-79.581
   14.200000000	 -8.297	 29.119	 -8.301	  2.974	 -8.315	  2.900	-18.733	-79.589
   14.300000000	 -7.977	 25.989	 -8.340	 -7.404	 -8.353	 -7.478	-20.421	-74.417
   14.400000000	 -7.690	 23.153	 -8.378	-17.722	 -8.399	-17.789	-21.959	-60.739
   14.500000000	 -7.358	 20.825	 -8.431	-28.031	 -8.447	-28.108	-22.005	-41.978
   14.600000000	 -7.142	 18.333	 -8.474	-38.225	 -8.492	-38.313	-20.622	-24.812
   14.700000000	 -6.861	 16.566	 -8.523	-48.374	 -8.543	-48.444	-18.672	-16.058
   14.800000000	 -6.726	 14.391	 -8.565	-58.412	 -8.582	-58.487	-16.776	-13.745
   14.900000000	 -6.583	 11.828	 -8.604	-68.331	 -8.617	-68.373	-15.428	-13.792
   15.000000000	 -6.574	 10.047	 -8.617	-78.054	 -8.629	-78.144	-14.438	-16.333
   15.100000000	 -6.647	  7.270	 -8.613	-87.720	 -8.627	-87.797	-13.813	-20.060
   15.200000000	 -6.878	  4.830	 -8.582	-97.350	 -8.599	-97.422	-13.541	-24.788
   15.300000000	 -7.187	  2.109	 -8.537	-106.955	 -8.553	-107.032	-13.561	-29.533
   15.400000000	 -7.630	 -1.070	 -8.469	-116.611	 -8.486	-116.696	-13.848	-35.383
   15.500000000	 -8.281	 -4.361	 -8.386	-126.384	 -8.407	-126.438	-14.398	-41.865
   15.600000000	 -9.028	 -8.207	 -8.296	-136.264	 -8.318	-136.325	-15.357	-49.120
   15.700000000	 -9.920	-12.947	 -8.216	-146.278	 -8.234	-146.304	-16.535	-57.870
   15.800000000	-10.960	-18.992	 -8.139	-156.472	 -8.158	-156.506	-17.971	-69.390
   15.900000000	-12.055	-25.860	 -8.082	-166.799	 -8.102	-166.831	-19.496	-84.492
   16.000000000	-13.146	-35.187	 -8.041	-177.242	 -8.062	-177.283	-20.858	-106.668
   16.100000000	-14.040	-47.364	 -8.027	172.189	 -8.051	172.207	-20.741	-131.197
   16.200000000	-14.654	-60.751	 -8.031	161.608	 -8.057	161.627	-19.916	-154.037
   16.300000000	-14.723	-74.841	 -8.051	151.004	 -8.083	151.015	-18.130	-171.311
   16.400000000	-14.344	-87.789	 -8.086	140.438	 -8.114	140.465	-16.585	176.397
   16.500000000	-13.769	-99.523	 -8.131	129.925	 -8.155	129.960	-15.234	165.852
   16.600000000	-13.170	-107.687	 -8.165	119.503	 -8.194	119.591	-14.168	157.726
   16.700000000	-12.458	-115.703	 -8.203	109.160	 -8.234	109.196	-13.471	149.725
   16.800000000	-12.172	-119.778	 -8.222	 98.951	 -8.253	 98.988	-12.713	143.177
   16.900000000	-11.801	-125.249	 -8.219	 88.775	 -8.251	 88.801	-12.851	136.794
   17.000000000	-11.721	-126.842	 -8.200	 78.625	 -8.229	 78.681	-12.864	128.172
   17.100000000	-11.796	-131.454	 -8.154	 68.432	 -8.194	 68.502	-13.432	122.003
   17.200000000	-11.775	-131.709	 -8.117	 58.146	 -8.146	 58.180	-14.300	110.693
   17.300000000	-12.347	-133.452	 -8.060	 47.842	 -8.079	 47.878	-15.230	100.303
   17.400000000	-12.696	-134.169	 -7.991	 37.430	 -8.021	 37.445	-16.664	 86.138
   17.500000000	-13.424	-135.863	 -7.937	 26.888	 -7.961	 26.908	-17.807	 67.991
   17.600000000	-14.327	-137.920	 -7.885	 16.194	 -7.909	 16.226	-18.431	 46.006
   17.700000000	-15.640	-140.976	 -7.844	  5.355	 -7.869	  5.394	-17.955	 24.203
   17.800000000	-17.464	-145.872	 -7.817	 -5.571	 -7.844	 -5.564	-16.893	  7.804
   17.900000000	-20.440	-153.553	 -7.800	-16.575	 -7.824	-16.593	-15.631	 -3.279
   18.000000000	-25.013	-176.824	 -7.797	-27.762	 -7.824	-27.751	-14.320	-10.947
   18.100000000	-28.769	113.623	 -7.806	-39.012	 -7.833	-38.991	-13.232	-15.958
   18.200000000	-22.455	 64.784	 -7.837	-50.291	 -7.865	-50.241	-12.345	-19.654
   18.300000000	-18.092	 48.417	 -7.871	-61.485	 -7.897	-61.503	-11.520	-22.164
   18.400000000	-14.988	 39.637	 -7.913	-72.685	 -7.931	-72.683	-10.925	-24.929
   18.500000000	-13.104	 33.317	 -7.949	-83.698	 -7.976	-83.678	-10.551	-27.871
   18.600000000	-11.692	 28.040	 -7.976	-94.669	 -8.001	-94.657	-10.375	-30.515
   18.700000000	-10.843	 24.003	 -7.976	-105.483	 -8.000	-105.450	-10.488	-32.907
   18.800000000	-10.362	 20.955	 -7.965	-116.232	 -7.989	-116.255	-10.798	-35.599
   18.900000000	-10.191	 18.469	 -7.920	-127.081	 -7.954	-127.062	-11.390	-38.095
   19.000000000	-10.301	 17.264	 -7.870	-137.965	 -7.895	-137.935	-12.375	-38.817
   19.100000000	-10.547	 16.063	 -7.811	-148.981	 -7.843	-148.896	-13.500	-38.775
   19.200000000	-11.108	 17.249	 -7.750	-159.959	 -7.788	-159.857	-14.722	-37.689
   19.300000000	-11.711	 16.749	 -7.669	-171.099	 -7.707	-171.012	-16.323	-33.039
   19.400000000	-12.447	 19.442	 -7.596	177.506	 -7.636	177.615	-17.588	-27.978
   19.500000000	-13.681	 19.886	 -7.532	165.843	 -7.567	165.941	-18.289	-20.133
   19.600000000	-14.472	 21.852	 -7.485	153.970	 -7.519	154.067	-18.944	-14.469
   19.700000000	-15.773	 23.880	 -7.453	141.960	 -7.485	142.026	-18.961	-13.453
   19.800000000	-17.114	 23.697	 -7.431	129.684	 -7.466	129.802	-19.300	-15.741
   19.900000000	-18.980	 23.855	 -7.422	117.267	 -7.455	117.350	-19.744	-24.548
   20.000000000	-20.719	 23.462	 -7.427	104.689	 -7.464	104.768	-20.059	-36.594
