! Date: Wednesday, June 05, 2013  1:52 PM
! Filename: C:\Data\Mike_Arnold\TGP2105-SM\Over_Temp\TGP2105-SM_EVB01_25C_Phase51.s2p 
! Comments: 
!^VDC(V):5.000
!^VDC(mA):0.044
!%Freq(GHz),S11(dB),S11(ang),S21(dB),S21(ang),S12(dB),S12(ang),S22(dB),S22(ang)
# GHz   S   DB   R   50
    5.000000000	-11.162	178.046	 -7.597	 58.231	 -7.608	 58.182	 -9.104	-177.764
    5.100000000	-10.433	170.543	 -7.618	 40.771	 -7.634	 40.741	 -9.676	176.402
    5.200000000	 -9.840	164.583	 -7.671	 23.923	 -7.686	 23.884	-10.306	172.691
    5.300000000	 -9.328	159.235	 -7.760	  7.545	 -7.777	  7.537	-10.758	170.759
    5.400000000	 -8.841	154.312	 -7.876	 -8.191	 -7.887	 -8.235	-10.934	170.527
    5.500000000	 -8.341	149.547	 -7.987	-23.117	 -8.001	-23.141	-10.773	170.361
    5.600000000	 -7.905	144.262	 -8.035	-37.431	 -8.050	-37.471	-10.388	169.709
    5.700000000	 -7.537	139.385	 -8.021	-51.965	 -8.030	-51.992	 -9.852	168.632
    5.800000000	 -7.113	134.598	 -8.071	-66.484	 -8.082	-66.534	 -9.045	166.127
    5.900000000	 -6.643	128.977	 -8.190	-80.356	 -8.192	-80.390	 -8.266	161.619
    6.000000000	 -6.263	122.407	 -8.271	-93.553	 -8.288	-93.603	 -7.638	155.277
    6.100000000	 -6.034	115.322	 -8.315	-106.292	 -8.327	-106.333	 -7.215	148.169
    6.200000000	 -5.893	108.063	 -8.299	-118.567	 -8.310	-118.619	 -6.952	140.625
    6.300000000	 -5.821	100.364	 -8.221	-130.728	 -8.233	-130.773	 -6.844	132.431
    6.400000000	 -5.891	 92.146	 -8.079	-142.855	 -8.089	-142.887	 -6.918	123.580
    6.500000000	 -6.085	 83.832	 -7.877	-155.063	 -7.886	-155.097	 -7.170	114.273
    6.600000000	 -6.333	 75.410	 -7.655	-167.370	 -7.670	-167.434	 -7.563	104.321
    6.700000000	 -6.703	 66.171	 -7.398	-179.988	 -7.405	179.977	 -8.140	 93.299
    6.800000000	 -7.186	 56.722	 -7.119	167.038	 -7.141	167.099	 -8.915	 81.190
    6.900000000	 -7.778	 47.318	 -6.860	153.885	 -6.882	153.947	 -9.893	 68.018
    7.000000000	 -8.403	 37.640	 -6.634	140.499	 -6.660	140.554	-10.993	 53.102
    7.100000000	 -9.102	 27.963	 -6.445	127.004	 -6.465	127.079	-12.213	 36.362
    7.200000000	 -9.831	 18.582	 -6.290	113.462	 -6.313	113.476	-13.448	 17.658
    7.300000000	-10.528	  9.489	 -6.176	 99.989	 -6.204	100.017	-14.499	 -2.233
    7.400000000	-11.161	  0.613	 -6.090	 86.591	 -6.117	 86.643	-15.254	-22.813
    7.500000000	-11.776	 -7.834	 -6.033	 73.338	 -6.061	 73.363	-15.765	-42.673
    7.600000000	-12.327	-15.698	 -5.994	 60.261	 -6.024	 60.301	-16.154	-60.638
    7.700000000	-12.850	-23.124	 -5.976	 47.340	 -5.998	 47.399	-16.574	-76.353
    7.800000000	-13.362	-29.906	 -5.955	 34.634	 -5.976	 34.684	-17.142	-91.023
    7.900000000	-13.957	-36.124	 -5.942	 22.024	 -5.964	 22.114	-18.170	-104.637
    8.000000000	-14.569	-41.393	 -5.926	  9.568	 -5.948	  9.623	-19.729	-118.172
    8.100000000	-15.276	-46.228	 -5.916	 -2.824	 -5.941	 -2.781	-21.851	-132.712
    8.200000000	-16.061	-50.227	 -5.912	-15.150	 -5.939	-15.096	-24.847	-152.381
    8.300000000	-16.918	-53.083	 -5.914	-27.333	 -5.943	-27.260	-28.691	173.279
    8.400000000	-17.717	-55.940	 -5.921	-39.463	 -5.949	-39.359	-29.746	121.327
    8.500000000	-18.733	-59.763	 -5.938	-51.480	 -5.965	-51.401	-27.180	 84.979
    8.600000000	-19.806	-64.153	 -5.952	-63.463	 -5.980	-63.368	-24.511	 66.633
    8.700000000	-21.101	-70.702	 -5.965	-75.345	 -5.997	-75.249	-22.984	 56.841
    8.800000000	-22.699	-82.647	 -5.983	-87.189	 -6.011	-87.123	-22.219	 51.753
    8.900000000	-24.695	-102.011	 -6.005	-98.994	 -6.038	-98.921	-21.795	 52.476
    9.000000000	-26.204	-132.157	 -6.037	-110.798	 -6.066	-110.739	-21.650	 54.517
    9.100000000	-25.612	-167.506	 -6.073	-122.538	 -6.104	-122.474	-21.148	 59.573
    9.200000000	-23.263	164.910	 -6.115	-134.204	 -6.141	-134.137	-20.526	 66.730
    9.300000000	-21.019	146.597	 -6.163	-145.814	 -6.195	-145.720	-19.679	 69.992
    9.400000000	-19.335	134.187	 -6.218	-157.304	 -6.242	-157.226	-18.798	 72.087
    9.500000000	-18.194	125.680	 -6.269	-168.659	 -6.297	-168.576	-18.358	 72.285
    9.600000000	-17.505	118.447	 -6.308	-179.891	 -6.339	-179.805	-18.185	 70.705
    9.700000000	-17.316	113.860	 -6.339	168.918	 -6.374	168.997	-18.343	 68.385
    9.800000000	-17.391	111.753	 -6.358	157.827	 -6.394	157.860	-19.226	 66.457
    9.900000000	-17.709	111.985	 -6.373	146.630	 -6.410	146.753	-20.752	 64.553
   10.000000000	-17.716	102.193	 -6.407	135.292	 -6.434	135.391	-23.030	 50.723
   10.100000000	-17.916	102.050	 -6.425	124.094	 -6.458	124.244	-26.861	 38.212
   10.200000000	-17.812	104.655	 -6.441	112.988	 -6.474	113.099	-32.762	  5.075
   10.300000000	-17.753	106.549	 -6.466	101.914	 -6.496	101.989	-33.036	-82.535
   10.400000000	-17.353	108.290	 -6.492	 90.838	 -6.531	 90.913	-26.381	-114.449
   10.500000000	-17.104	109.873	 -6.528	 79.857	 -6.559	 79.918	-22.878	-127.162
   10.600000000	-16.754	109.701	 -6.571	 68.857	 -6.602	 68.953	-20.083	-135.488
   10.700000000	-16.693	108.797	 -6.628	 58.050	 -6.643	 58.021	-18.477	-141.137
   10.800000000	-16.642	108.389	 -6.673	 47.148	 -6.686	 47.116	-17.271	-146.934
   10.900000000	-16.988	107.419	 -6.719	 36.311	 -6.737	 36.261	-16.410	-150.846
   11.000000000	-17.353	107.742	 -6.763	 25.427	 -6.782	 25.367	-15.824	-155.068
   11.100000000	-18.122	108.869	 -6.807	 14.552	 -6.827	 14.514	-15.432	-158.654
   11.200000000	-18.829	112.946	 -6.850	  3.646	 -6.867	  3.622	-15.093	-162.108
   11.300000000	-19.625	119.997	 -6.898	 -7.271	 -6.913	 -7.316	-14.818	-165.810
   11.400000000	-19.995	130.077	 -6.949	-18.230	 -6.968	-18.242	-14.563	-169.719
   11.500000000	-19.635	142.399	 -7.007	-29.207	 -7.022	-29.262	-14.252	-174.041
   11.600000000	-18.639	152.322	 -7.067	-40.206	 -7.084	-40.276	-13.916	-179.008
   11.700000000	-17.225	159.325	 -7.144	-51.235	 -7.160	-51.245	-13.554	175.210
   11.800000000	-15.672	162.842	 -7.225	-62.284	 -7.244	-62.272	-13.102	168.791
   11.900000000	-14.195	162.978	 -7.330	-73.254	 -7.343	-73.292	-12.610	161.649
   12.000000000	-12.941	161.528	 -7.439	-84.240	 -7.456	-84.286	-12.087	153.844
   12.100000000	-11.781	158.673	 -7.564	-95.165	 -7.582	-95.231	-11.545	146.128
   12.200000000	-10.788	154.698	 -7.706	-106.041	 -7.721	-106.102	-11.023	138.078
   12.300000000	 -9.972	149.522	 -7.855	-116.844	 -7.873	-116.920	-10.504	130.115
   12.400000000	 -9.297	143.980	 -8.014	-127.559	 -8.029	-127.607	-10.045	122.385
   12.500000000	 -8.739	137.594	 -8.173	-138.161	 -8.187	-138.228	 -9.627	115.051
   12.600000000	 -8.277	130.739	 -8.336	-148.680	 -8.354	-148.741	 -9.272	107.789
   12.700000000	 -7.969	123.264	 -8.484	-159.150	 -8.499	-159.191	 -8.995	101.145
   12.800000000	 -7.691	115.465	 -8.633	-169.533	 -8.649	-169.608	 -8.806	 94.628
   12.900000000	 -7.471	107.147	 -8.769	-179.855	 -8.786	-179.926	 -8.681	 88.381
   13.000000000	 -7.323	 98.503	 -8.894	169.845	 -8.912	169.777	 -8.650	 82.387
   13.100000000	 -7.200	 89.674	 -9.013	159.574	 -9.024	159.540	 -8.691	 76.521
   13.200000000	 -7.064	 80.889	 -9.117	149.438	 -9.132	149.359	 -8.827	 70.570
   13.300000000	 -6.942	 71.774	 -9.203	139.311	 -9.215	139.243	 -9.049	 64.665
   13.400000000	 -6.826	 63.021	 -9.281	129.217	 -9.293	129.102	 -9.383	 58.787
   13.500000000	 -6.681	 54.397	 -9.355	119.103	 -9.364	119.023	 -9.763	 52.364
   13.600000000	 -6.516	 46.077	 -9.408	109.046	 -9.423	108.968	-10.260	 45.879
   13.700000000	 -6.398	 38.152	 -9.472	 99.078	 -9.480	 99.007	-10.839	 38.756
   13.800000000	 -6.267	 30.808	 -9.519	 89.128	 -9.530	 89.076	-11.485	 31.625
   13.900000000	 -6.165	 24.364	 -9.549	 79.284	 -9.558	 79.187	-12.213	 23.997
   14.000000000	 -6.069	 18.048	 -9.573	 69.466	 -9.579	 69.349	-12.994	 16.451
   14.100000000	 -6.055	 12.658	 -9.575	 59.658	 -9.589	 59.561	-13.873	  8.779
   14.200000000	 -6.056	  7.665	 -9.568	 49.866	 -9.576	 49.779	-14.916	  1.686
   14.300000000	 -6.119	  3.483	 -9.534	 40.017	 -9.546	 39.919	-16.106	 -3.810
   14.400000000	 -6.241	 -0.214	 -9.479	 30.132	 -9.488	 30.000	-17.520	 -6.733
   14.500000000	 -6.380	 -3.072	 -9.411	 20.107	 -9.425	 20.027	-19.230	 -6.951
   14.600000000	 -6.621	 -5.896	 -9.323	  9.982	 -9.340	  9.926	-20.955	  1.275
   14.700000000	 -6.858	 -7.317	 -9.242	 -0.215	 -9.254	 -0.287	-21.995	 18.942
   14.800000000	 -7.174	 -8.979	 -9.147	-10.597	 -9.159	-10.679	-20.936	 36.670
   14.900000000	 -7.421	-10.355	 -9.065	-21.023	 -9.081	-21.122	-18.721	 48.913
   15.000000000	 -7.786	-10.885	 -8.990	-31.477	 -9.003	-31.560	-16.497	 53.274
   15.100000000	 -8.107	-12.478	 -8.929	-41.974	 -8.943	-42.050	-14.693	 53.346
   15.200000000	 -8.564	-14.100	 -8.866	-52.409	 -8.885	-52.493	-13.292	 51.585
   15.300000000	 -9.046	-16.408	 -8.830	-62.839	 -8.840	-62.901	-12.167	 48.923
   15.400000000	 -9.632	-19.855	 -8.785	-73.143	 -8.799	-73.261	-11.375	 45.754
   15.500000000	-10.475	-24.485	 -8.746	-83.538	 -8.766	-83.554	-10.801	 42.293
   15.600000000	-11.409	-30.633	 -8.719	-93.837	 -8.738	-93.829	-10.420	 39.403
   15.700000000	-12.532	-39.176	 -8.694	-104.142	 -8.711	-104.201	-10.188	 36.320
   15.800000000	-13.746	-50.947	 -8.673	-114.560	 -8.693	-114.606	-10.132	 33.319
   15.900000000	-14.922	-65.105	 -8.656	-124.979	 -8.682	-124.991	-10.165	 30.029
   16.000000000	-15.659	-82.804	 -8.653	-135.426	 -8.673	-135.461	-10.357	 27.128
   16.100000000	-15.684	-101.015	 -8.652	-146.049	 -8.680	-146.028	-10.704	 22.689
   16.200000000	-15.260	-117.220	 -8.660	-156.597	 -8.685	-156.619	-11.112	 18.346
   16.300000000	-14.553	-129.618	 -8.672	-167.287	 -8.699	-167.282	-11.832	 12.718
   16.400000000	-13.821	-138.731	 -8.684	-178.003	 -8.714	-177.937	-12.707	  5.665
   16.500000000	-13.136	-146.202	 -8.699	171.321	 -8.729	171.343	-13.807	 -2.142
   16.600000000	-12.767	-151.288	 -8.710	160.574	 -8.737	160.643	-15.175	-12.799
   16.700000000	-12.274	-155.937	 -8.725	149.857	 -8.754	149.919	-16.634	-25.339
   16.800000000	-12.407	-159.301	 -8.716	139.225	 -8.745	139.274	-18.752	-43.556
   16.900000000	-12.276	-163.685	 -8.716	128.547	 -8.745	128.596	-19.143	-64.740
   17.000000000	-12.804	-166.570	 -8.682	118.007	 -8.710	118.041	-20.017	-84.349
   17.100000000	-13.200	-172.931	 -8.654	107.362	 -8.685	107.401	-19.192	-103.875
   17.200000000	-14.203	-175.661	 -8.606	 96.756	 -8.635	 96.782	-19.064	-113.824
   17.300000000	-15.869	175.948	 -8.541	 86.067	 -8.569	 86.089	-18.837	-124.719
   17.400000000	-18.067	168.372	 -8.475	 75.273	 -8.497	 75.289	-18.568	-129.635
   17.500000000	-21.315	152.059	 -8.404	 64.358	 -8.427	 64.399	-18.713	-133.539
   17.600000000	-25.430	117.716	 -8.335	 53.300	 -8.364	 53.317	-19.070	-134.758
   17.700000000	-25.056	 59.452	 -8.278	 42.121	 -8.299	 42.133	-19.735	-134.938
   17.800000000	-20.943	 26.846	 -8.236	 30.758	 -8.253	 30.760	-20.679	-136.171
   17.900000000	-17.593	 12.145	 -8.204	 19.294	 -8.229	 19.311	-22.225	-138.518
   18.000000000	-15.466	  5.380	 -8.183	  7.833	 -8.209	  7.816	-24.914	-142.364
   18.100000000	-13.743	 -0.022	 -8.172	 -3.735	 -8.200	 -3.738	-29.833	-155.813
   18.200000000	-12.592	 -3.249	 -8.174	-15.315	 -8.196	-15.290	-35.854	126.274
   18.300000000	-11.781	 -6.311	 -8.167	-26.888	 -8.191	-26.890	-26.894	 64.877
   18.400000000	-11.121	 -7.833	 -8.164	-38.472	 -8.185	-38.462	-21.501	 52.994
   18.500000000	-10.786	 -9.975	 -8.154	-49.958	 -8.178	-50.003	-18.211	 46.807
   18.600000000	-10.570	-11.722	 -8.136	-61.468	 -8.165	-61.453	-15.885	 42.444
   18.700000000	-10.671	-13.639	 -8.112	-72.914	 -8.139	-72.879	-14.219	 39.643
   18.800000000	-11.091	-15.478	 -8.080	-84.318	 -8.103	-84.313	-13.138	 36.881
   18.900000000	-11.862	-17.394	 -8.038	-95.822	 -8.063	-95.847	-12.410	 35.327
   19.000000000	-13.183	-18.476	 -7.995	-107.381	 -8.023	-107.381	-11.824	 36.042
   19.100000000	-14.959	-18.417	 -7.963	-119.082	 -8.002	-118.972	-11.371	 36.924
   19.200000000	-18.109	-12.868	 -7.946	-130.719	 -7.982	-130.647	-10.984	 38.069
   19.300000000	-21.826	  1.705	 -7.940	-142.481	 -7.976	-142.373	-10.467	 40.509
   19.400000000	-23.279	 49.051	 -7.962	-154.398	 -7.996	-154.307	-10.050	 41.352
   19.500000000	-20.769	 80.706	 -8.013	-166.362	 -8.052	-166.267	 -9.449	 41.239
   19.600000000	-17.213	 85.989	 -8.093	-178.368	 -8.126	-178.267	 -9.009	 40.602
   19.700000000	-15.171	 86.818	 -8.193	169.697	 -8.227	169.794	 -8.604	 38.013
   19.800000000	-14.018	 82.283	 -8.290	157.818	 -8.321	157.847	 -8.338	 34.879
   19.900000000	-13.476	 76.765	 -8.380	145.777	 -8.403	145.856	 -8.251	 30.449
   20.000000000	-13.222	 68.451	 -8.461	133.709	 -8.499	133.730	 -8.237	 25.207
