! Date: Wednesday, June 05, 2013  1:50 PM
! Filename: C:\Data\Mike_Arnold\TGP2105-SM\Over_Temp\TGP2105-SM_EVB01_25C_Phase25.s2p 
! Comments: 
!^VDC(V):5.000
!^VDC(mA):0.070
!%Freq(GHz),S11(dB),S11(ang),S21(dB),S21(ang),S12(dB),S12(ang),S22(dB),S22(ang)
# GHz   S   DB   R   50
    5.000000000	 -9.164	101.389	 -6.677	-98.758	 -6.690	-98.791	 -7.414	-148.500
    5.100000000	 -9.758	 93.705	 -6.588	-114.757	 -6.606	-114.775	 -7.216	-159.119
    5.200000000	-10.682	 85.969	 -6.482	-130.372	 -6.501	-130.390	 -7.236	-169.032
    5.300000000	-12.017	 78.003	 -6.370	-145.835	 -6.387	-145.854	 -7.419	-178.478
    5.400000000	-14.030	 70.566	 -6.262	-161.202	 -6.280	-161.236	 -7.762	173.437
    5.500000000	-17.247	 66.453	 -6.174	-176.500	 -6.190	-176.533	 -8.219	166.815
    5.600000000	-22.210	 75.435	 -6.126	168.362	 -6.143	168.315	 -8.651	162.135
    5.700000000	-25.260	127.760	 -6.132	153.323	 -6.147	153.295	 -9.032	158.704
    5.800000000	-19.890	160.342	 -6.190	138.678	 -6.202	138.649	 -9.219	156.615
    5.900000000	-15.553	161.061	 -6.291	124.473	 -6.307	124.464	 -9.207	155.018
    6.000000000	-12.877	154.217	 -6.423	110.869	 -6.436	110.809	 -9.034	152.426
    6.100000000	-11.188	145.518	 -6.571	 97.909	 -6.584	 97.867	 -8.870	148.776
    6.200000000	-10.060	135.994	 -6.693	 85.775	 -6.709	 85.774	 -8.797	144.439
    6.300000000	 -9.423	126.231	 -6.682	 74.383	 -6.698	 74.339	 -8.904	140.077
    6.400000000	 -9.150	117.713	 -6.510	 62.432	 -6.521	 62.406	 -8.979	136.253
    6.500000000	 -8.916	109.506	 -6.378	 49.841	 -6.394	 49.830	 -8.967	131.208
    6.600000000	 -8.763	100.770	 -6.292	 37.376	 -6.303	 37.343	 -9.104	124.460
    6.700000000	 -8.821	 90.934	 -6.197	 24.996	 -6.211	 24.964	 -9.501	116.748
    6.800000000	 -9.068	 80.718	 -6.071	 12.576	 -6.098	 12.615	-10.139	108.455
    6.900000000	 -9.481	 70.500	 -5.952	  0.209	 -5.978	  0.258	-11.033	 99.730
    7.000000000	 -9.996	 59.669	 -5.836	-12.308	 -5.860	-12.269	-12.175	 90.079
    7.100000000	-10.658	 48.639	 -5.725	-24.957	 -5.747	-24.887	-13.641	 79.773
    7.200000000	-11.410	 37.755	 -5.627	-37.649	 -5.652	-37.585	-15.461	 68.593
    7.300000000	-12.193	 26.961	 -5.555	-50.371	 -5.579	-50.324	-17.589	 56.416
    7.400000000	-12.998	 16.289	 -5.500	-63.127	 -5.528	-63.033	-20.112	 42.091
    7.500000000	-13.843	  6.065	 -5.472	-75.811	 -5.494	-75.768	-23.194	 25.248
    7.600000000	-14.647	 -3.230	 -5.460	-88.413	 -5.481	-88.364	-26.751	  4.879
    7.700000000	-15.461	-11.801	 -5.464	-100.927	 -5.487	-100.869	-30.898	-21.278
    7.800000000	-16.352	-18.944	 -5.475	-113.335	 -5.500	-113.308	-36.796	-64.084
    7.900000000	-17.403	-24.830	 -5.501	-125.731	 -5.523	-125.681	-39.159	-164.640
    8.000000000	-18.538	-28.349	 -5.530	-138.019	 -5.560	-137.990	-31.506	137.231
    8.100000000	-19.874	-29.263	 -5.580	-150.225	 -5.606	-150.158	-26.215	114.151
    8.200000000	-21.200	-25.808	 -5.642	-162.347	 -5.667	-162.296	-22.313	 97.908
    8.300000000	-22.158	-16.576	 -5.711	-174.400	 -5.742	-174.326	-19.263	 84.516
    8.400000000	-22.175	 -5.859	 -5.796	173.701	 -5.823	173.762	-17.036	 73.036
    8.500000000	-21.646	  2.886	 -5.888	161.896	 -5.913	161.956	-15.334	 62.999
    8.600000000	-20.587	  7.148	 -5.978	150.270	 -6.004	150.320	-13.961	 54.142
    8.700000000	-19.676	  7.032	 -6.060	138.723	 -6.090	138.796	-13.012	 45.650
    8.800000000	-19.229	  3.608	 -6.135	127.271	 -6.161	127.326	-12.406	 37.779
    8.900000000	-19.233	 -1.264	 -6.192	115.896	 -6.220	115.954	-12.078	 31.003
    9.000000000	-19.718	 -7.969	 -6.231	104.494	 -6.259	104.573	-12.023	 23.850
    9.100000000	-20.735	-16.773	 -6.254	 93.091	 -6.283	 93.162	-12.193	 17.523
    9.200000000	-22.695	-28.763	 -6.267	 81.615	 -6.296	 81.723	-12.715	 11.804
    9.300000000	-25.548	-46.434	 -6.276	 70.054	 -6.305	 70.112	-13.338	  6.005
    9.400000000	-28.802	-80.747	 -6.282	 58.368	 -6.316	 58.452	-14.219	  0.854
    9.500000000	-28.393	-132.676	 -6.291	 46.619	 -6.325	 46.710	-15.338	 -5.021
    9.600000000	-25.093	-165.524	 -6.315	 34.889	 -6.347	 34.969	-16.510	-11.202
    9.700000000	-22.079	179.978	 -6.345	 23.154	 -6.375	 23.214	-17.694	-18.528
    9.800000000	-19.812	171.630	 -6.383	 11.366	 -6.414	 11.454	-18.883	-29.892
    9.900000000	-18.111	166.798	 -6.435	 -0.384	 -6.466	 -0.300	-19.697	-45.403
   10.000000000	-17.672	156.100	 -6.506	-12.144	 -6.535	-12.057	-18.698	-59.773
   10.100000000	-16.511	151.532	 -6.573	-23.878	 -6.601	-23.744	-17.832	-75.341
   10.200000000	-15.186	147.544	 -6.655	-35.510	 -6.686	-35.432	-16.666	-88.059
   10.300000000	-14.190	143.465	 -6.750	-47.085	 -6.775	-46.995	-15.386	-100.234
   10.400000000	-13.179	138.988	 -6.848	-58.537	 -6.882	-58.503	-14.052	-110.147
   10.500000000	-12.351	134.709	 -6.960	-69.955	 -6.997	-69.860	-13.021	-119.067
   10.600000000	-11.620	129.534	 -7.087	-81.253	 -7.117	-81.182	-11.941	-127.295
   10.700000000	-11.099	124.206	 -7.222	-92.289	 -7.239	-92.323	-11.181	-134.643
   10.800000000	-10.655	118.816	 -7.349	-103.344	 -7.365	-103.387	-10.533	-142.049
   10.900000000	-10.454	112.988	 -7.471	-114.285	 -7.488	-114.310	-10.039	-148.653
   11.000000000	-10.324	107.203	 -7.588	-125.151	 -7.607	-125.207	 -9.693	-155.506
   11.100000000	-10.418	101.073	 -7.687	-135.979	 -7.705	-136.009	 -9.502	-162.040
   11.200000000	-10.610	 95.237	 -7.774	-146.765	 -7.797	-146.784	 -9.381	-168.556
   11.300000000	-11.002	 89.177	 -7.853	-157.585	 -7.872	-157.600	 -9.346	-175.260
   11.400000000	-11.551	 82.986	 -7.918	-168.327	 -7.934	-168.366	 -9.377	178.055
   11.500000000	-12.306	 77.023	 -7.975	-179.182	 -7.994	-179.241	 -9.440	171.396
   11.600000000	-13.266	 70.626	 -8.026	169.955	 -8.045	169.911	 -9.511	164.642
   11.700000000	-14.598	 64.142	 -8.070	159.024	 -8.085	158.982	 -9.592	157.812
   11.800000000	-16.388	 57.725	 -8.107	148.073	 -8.126	148.025	 -9.618	151.061
   11.900000000	-18.723	 51.642	 -8.157	137.116	 -8.175	137.041	 -9.605	144.341
   12.000000000	-22.259	 44.796	 -8.208	126.117	 -8.225	126.057	 -9.511	137.654
   12.100000000	-28.973	 38.042	 -8.262	115.072	 -8.279	114.991	 -9.374	131.375
   12.200000000	-42.745	-161.453	 -8.327	104.007	 -8.347	103.955	 -9.182	125.080
   12.300000000	-26.445	-161.495	 -8.406	 93.017	 -8.419	 92.950	 -8.950	119.000
   12.400000000	-21.044	-168.011	 -8.488	 82.014	 -8.502	 81.945	 -8.710	113.084
   12.500000000	-17.943	-176.366	 -8.579	 71.014	 -8.592	 70.968	 -8.448	107.504
   12.600000000	-15.766	174.848	 -8.673	 60.137	 -8.687	 60.065	 -8.193	101.906
   12.700000000	-14.280	166.141	 -8.777	 49.278	 -8.787	 49.224	 -7.969	 96.664
   12.800000000	-13.088	156.548	 -8.874	 38.471	 -8.887	 38.404	 -7.788	 91.509
   12.900000000	-12.176	146.393	 -8.976	 27.714	 -8.990	 27.679	 -7.640	 86.420
   13.000000000	-11.486	136.104	 -9.068	 17.045	 -9.087	 16.983	 -7.547	 81.492
   13.100000000	-10.897	125.613	 -9.166	  6.423	 -9.182	  6.338	 -7.494	 76.533
   13.200000000	-10.355	114.831	 -9.261	 -4.153	 -9.281	 -4.247	 -7.488	 71.534
   13.300000000	 -9.909	103.742	 -9.357	-14.663	 -9.369	-14.726	 -7.527	 66.440
   13.400000000	 -9.464	 93.050	 -9.440	-25.081	 -9.457	-25.123	 -7.639	 61.283
   13.500000000	 -9.016	 82.342	 -9.535	-35.462	 -9.548	-35.550	 -7.750	 55.633
   13.600000000	 -8.551	 71.936	 -9.634	-45.799	 -9.639	-45.867	 -7.928	 49.912
   13.700000000	 -8.177	 62.115	 -9.726	-55.982	 -9.742	-56.074	 -8.134	 43.584
   13.800000000	 -7.781	 53.020	 -9.826	-66.094	 -9.842	-66.181	 -8.349	 37.205
   13.900000000	 -7.425	 44.989	 -9.929	-76.093	 -9.938	-76.174	 -8.596	 30.353
   14.000000000	 -7.113	 37.111	-10.028	-85.959	-10.039	-86.074	 -8.822	 23.516
   14.100000000	 -6.888	 30.492	-10.119	-95.742	-10.129	-95.858	 -9.067	 16.314
   14.200000000	 -6.704	 24.291	-10.187	-105.438	-10.201	-105.505	 -9.335	  9.307
   14.300000000	 -6.598	 19.032	-10.242	-115.003	-10.252	-115.091	 -9.631	  2.875
   14.400000000	 -6.585	 14.368	-10.263	-124.560	-10.276	-124.646	 -9.963	 -3.072
   14.500000000	 -6.597	 10.596	-10.269	-134.094	-10.280	-134.192	-10.354	 -8.974
   14.600000000	 -6.768	  7.063	-10.234	-143.645	-10.249	-143.741	-10.811	-13.455
   14.700000000	 -6.946	  4.996	-10.188	-153.307	-10.196	-153.361	-11.422	-17.291
   14.800000000	 -7.258	  3.058	-10.097	-163.054	-10.114	-163.160	-12.039	-20.126
   14.900000000	 -7.547	  1.632	-10.008	-172.916	-10.024	-172.978	-12.834	-21.064
   15.000000000	 -7.946	  1.755	 -9.900	177.080	 -9.916	177.035	-13.694	-20.562
   15.100000000	 -8.326	  1.437	 -9.790	166.981	 -9.804	166.899	-14.522	-18.551
   15.200000000	 -8.785	  1.956	 -9.676	156.745	 -9.692	156.677	-15.334	-15.079
   15.300000000	 -9.194	  2.453	 -9.574	146.432	 -9.590	146.374	-15.972	 -9.993
   15.400000000	 -9.616	  2.406	 -9.472	136.096	 -9.494	136.030	-16.480	 -5.080
   15.500000000	-10.170	  2.220	 -9.380	125.633	 -9.404	125.635	-16.838	 -0.559
   15.600000000	-10.733	  1.152	 -9.303	115.210	 -9.330	115.184	-17.289	  4.440
   15.700000000	-11.427	 -1.213	 -9.232	104.706	 -9.250	104.700	-17.757	  8.659
   15.800000000	-12.295	 -5.176	 -9.169	 94.060	 -9.187	 94.034	-18.409	 12.926
   15.900000000	-13.250	-10.044	 -9.114	 83.412	 -9.128	 83.389	-19.123	 17.625
   16.000000000	-14.313	-17.609	 -9.073	 72.633	 -9.092	 72.559	-20.058	 25.047
   16.100000000	-15.320	-28.257	 -9.041	 61.677	 -9.067	 61.696	-21.162	 30.930
   16.200000000	-16.126	-40.863	 -9.033	 50.725	 -9.053	 50.738	-21.968	 39.525
   16.300000000	-16.383	-55.270	 -9.023	 39.656	 -9.050	 39.670	-23.326	 49.867
   16.400000000	-16.033	-69.398	 -9.038	 28.555	 -9.065	 28.587	-24.775	 61.634
   16.500000000	-15.331	-82.267	 -9.067	 17.491	 -9.092	 17.535	-25.740	 79.751
   16.600000000	-14.384	-91.035	 -9.101	  6.423	 -9.120	  6.446	-26.213	103.898
   16.700000000	-13.321	-100.159	 -9.145	 -4.624	 -9.171	 -4.602	-25.002	124.156
   16.800000000	-12.580	-104.346	 -9.184	-15.494	 -9.215	-15.431	-21.980	142.016
   16.900000000	-11.797	-111.048	 -9.226	-26.357	 -9.257	-26.336	-20.742	150.779
   17.000000000	-11.296	-114.063	 -9.258	-36.993	 -9.289	-36.943	-18.823	149.475
   17.100000000	-11.064	-120.105	 -9.288	-47.583	 -9.312	-47.515	-17.649	151.734
   17.200000000	-10.770	-122.933	 -9.297	-58.131	 -9.324	-58.072	-17.160	146.424
   17.300000000	-11.119	-126.663	 -9.284	-68.543	 -9.311	-68.566	-16.541	141.023
   17.400000000	-11.398	-129.984	 -9.261	-79.120	 -9.289	-79.106	-16.580	135.092
   17.500000000	-12.155	-133.758	 -9.223	-89.706	 -9.254	-89.708	-16.719	125.888
   17.600000000	-13.186	-137.496	 -9.172	-100.552	 -9.203	-100.498	-17.118	114.494
   17.700000000	-14.708	-141.407	 -9.131	-111.520	 -9.160	-111.508	-17.450	100.078
   17.800000000	-16.776	-145.598	 -9.104	-122.773	 -9.129	-122.787	-17.398	 84.408
   17.900000000	-19.958	-150.368	 -9.087	-134.255	 -9.119	-134.254	-16.831	 69.179
   18.000000000	-24.989	-164.037	 -9.105	-145.837	 -9.132	-145.834	-15.907	 55.522
   18.100000000	-34.565	131.724	 -9.145	-157.657	 -9.175	-157.626	-14.771	 45.447
   18.200000000	-25.740	 54.391	 -9.224	-169.487	 -9.249	-169.474	-13.582	 38.239
   18.300000000	-20.364	 40.500	 -9.339	178.649	 -9.365	178.690	-12.300	 32.656
   18.400000000	-16.844	 34.549	 -9.489	166.892	 -9.522	166.921	-11.192	 28.379
   18.500000000	-14.817	 30.144	 -9.671	155.332	 -9.703	155.344	-10.216	 24.596
   18.600000000	-13.339	 26.384	 -9.900	144.091	 -9.924	144.105	 -9.341	 21.228
   18.700000000	-12.532	 23.940	-10.140	133.348	-10.174	133.360	 -8.605	 18.051
   18.800000000	-12.162	 23.231	-10.397	123.403	-10.419	123.446	 -8.076	 13.977
   18.900000000	-12.010	 24.630	-10.564	114.390	-10.592	114.409	 -7.788	  9.523
   19.000000000	-11.733	 27.928	-10.527	106.068	-10.555	106.056	 -7.793	  5.542
   19.100000000	-11.194	 28.948	-10.242	 97.187	-10.278	 97.302	 -8.135	  1.683
   19.200000000	-10.955	 28.875	 -9.831	 86.902	 -9.869	 87.024	 -8.752	 -1.740
   19.300000000	-11.211	 24.735	 -9.433	 75.240	 -9.469	 75.295	 -9.663	 -2.395
   19.400000000	-12.042	 23.584	 -9.123	 62.590	 -9.163	 62.708	-10.786	 -2.483
   19.500000000	-13.878	 22.255	 -8.911	 49.423	 -8.942	 49.523	-11.787	  1.051
   19.600000000	-15.533	 26.894	 -8.774	 35.946	 -8.812	 36.011	-12.729	  7.112
   19.700000000	-17.343	 38.226	 -8.688	 22.211	 -8.729	 22.339	-13.016	 13.329
   19.800000000	-18.085	 50.785	 -8.663	  8.280	 -8.704	  8.373	-12.933	 18.486
   19.900000000	-18.008	 61.640	 -8.684	 -5.824	 -8.716	 -5.749	-12.662	 20.110
   20.000000000	-17.249	 64.638	 -8.740	-19.910	 -8.781	-19.837	-12.318	 18.947
