! Date: Wednesday, June 05, 2013  1:52 PM
! Filename: C:\Data\Mike_Arnold\TGP2105-SM\Over_Temp\TGP2105-SM_EVB01_25C_Phase57.s2p 
! Comments: 
!^VDC(V):5.000
!^VDC(mA):0.068
!%Freq(GHz),S11(dB),S11(ang),S21(dB),S21(ang),S12(dB),S12(ang),S22(dB),S22(ang)
# GHz   S   DB   R   50
    5.000000000	 -9.282	 98.067	 -6.969	 94.443	 -6.987	 94.423	 -8.540	-139.552
    5.100000000	 -9.995	 90.822	 -6.879	 78.004	 -6.892	 77.962	 -8.017	-149.806
    5.200000000	-11.023	 83.293	 -6.782	 61.926	 -6.795	 61.913	 -7.764	-159.757
    5.300000000	-12.485	 75.544	 -6.688	 46.125	 -6.707	 46.101	 -7.723	-169.510
    5.400000000	-14.703	 68.395	 -6.607	 30.527	 -6.619	 30.457	 -7.882	-178.172
    5.500000000	-18.267	 65.636	 -6.533	 15.193	 -6.544	 15.146	 -8.192	174.346
    5.600000000	-23.327	 77.921	 -6.443	  0.104	 -6.452	  0.081	 -8.597	168.567
    5.700000000	-26.639	132.856	 -6.338	-15.287	 -6.353	-15.298	 -9.056	164.957
    5.800000000	-20.505	171.039	 -6.334	-30.802	 -6.346	-30.824	 -9.279	163.419
    5.900000000	-15.554	170.975	 -6.421	-45.919	 -6.441	-45.942	 -9.214	162.626
    6.000000000	-12.579	163.133	 -6.566	-60.432	 -6.579	-60.471	 -8.924	160.867
    6.100000000	-10.664	153.871	 -6.721	-74.325	 -6.735	-74.340	 -8.571	158.076
    6.200000000	 -9.304	144.224	 -6.870	-87.542	 -6.882	-87.556	 -8.196	154.355
    6.300000000	 -8.347	133.959	 -6.993	-100.335	 -7.005	-100.338	 -7.911	149.549
    6.400000000	 -7.765	123.838	 -7.063	-112.726	 -7.074	-112.784	 -7.758	143.749
    6.500000000	 -7.413	113.844	 -7.079	-124.895	 -7.089	-124.905	 -7.749	137.599
    6.600000000	 -7.180	103.818	 -7.066	-136.832	 -7.070	-136.847	 -7.842	130.881
    6.700000000	 -7.145	 93.152	 -6.974	-148.822	 -6.988	-148.844	 -8.105	123.484
    6.800000000	 -7.254	 82.268	 -6.833	-160.993	 -6.853	-160.939	 -8.534	115.562
    6.900000000	 -7.473	 71.240	 -6.677	-173.209	 -6.700	-173.172	 -9.122	107.351
    7.000000000	 -7.781	 59.560	 -6.511	174.282	 -6.532	174.351	 -9.881	 98.307
    7.100000000	 -8.186	 47.479	 -6.336	161.624	 -6.356	161.702	-10.837	 88.742
    7.200000000	 -8.659	 35.296	 -6.167	148.811	 -6.190	148.869	-11.977	 78.572
    7.300000000	 -9.158	 22.868	 -6.019	135.838	 -6.048	135.895	-13.239	 67.895
    7.400000000	 -9.685	 10.333	 -5.893	122.819	 -5.919	122.867	-14.636	 56.311
    7.500000000	-10.256	 -2.116	 -5.784	109.763	 -5.806	109.809	-16.190	 44.369
    7.600000000	-10.832	-14.122	 -5.702	 96.680	 -5.725	 96.754	-17.740	 32.718
    7.700000000	-11.463	-25.836	 -5.634	 83.695	 -5.657	 83.776	-19.283	 21.915
    7.800000000	-12.179	-37.062	 -5.579	 70.773	 -5.606	 70.855	-20.921	 13.425
    7.900000000	-13.081	-47.965	 -5.544	 57.933	 -5.566	 57.968	-22.509	 10.814
    8.000000000	-14.153	-58.284	 -5.520	 45.116	 -5.545	 45.173	-23.553	 16.591
    8.100000000	-15.556	-68.746	 -5.509	 32.348	 -5.541	 32.411	-23.495	 27.562
    8.200000000	-17.406	-78.903	 -5.522	 19.652	 -5.546	 19.727	-21.930	 38.160
    8.300000000	-20.006	-88.511	 -5.553	  7.103	 -5.577	  7.193	-19.610	 43.019
    8.400000000	-23.598	-97.590	 -5.596	 -5.307	 -5.621	 -5.211	-17.538	 42.069
    8.500000000	-29.620	-110.419	 -5.658	-17.594	 -5.680	-17.524	-15.852	 38.254
    8.600000000	-48.650	-172.412	 -5.725	-29.711	 -5.749	-29.626	-14.493	 33.423
    8.700000000	-32.517	 66.575	 -5.791	-41.629	 -5.814	-41.548	-13.553	 27.523
    8.800000000	-27.622	 57.396	 -5.852	-53.463	 -5.877	-53.381	-12.981	 21.027
    8.900000000	-25.561	 51.904	 -5.899	-65.109	 -5.922	-65.024	-12.744	 14.976
    9.000000000	-24.727	 47.984	 -5.937	-76.706	 -5.959	-76.632	-12.793	  8.066
    9.100000000	-24.995	 46.499	 -5.958	-88.266	 -5.990	-88.208	-13.112	  1.634
    9.200000000	-26.154	 51.539	 -5.971	-99.862	 -5.996	-99.784	-13.877	 -4.784
    9.300000000	-27.265	 63.687	 -5.977	-111.476	 -6.002	-111.387	-14.772	-11.354
    9.400000000	-27.588	 82.978	 -5.983	-123.066	 -6.009	-123.013	-16.038	-17.803
    9.500000000	-26.526	103.465	 -5.992	-134.763	 -6.020	-134.675	-17.606	-25.541
    9.600000000	-24.672	114.652	 -6.008	-146.349	 -6.033	-146.282	-19.285	-34.217
    9.700000000	-23.267	123.052	 -6.025	-157.961	 -6.057	-157.905	-21.006	-44.744
    9.800000000	-22.104	129.531	 -6.051	-169.515	 -6.081	-169.446	-22.360	-61.537
    9.900000000	-21.056	136.014	 -6.088	178.967	 -6.115	179.049	-22.536	-81.090
   10.000000000	-20.640	129.796	 -6.133	167.460	 -6.159	167.544	-20.769	-90.881
   10.100000000	-19.659	133.176	 -6.182	156.008	 -6.216	156.141	-19.280	-102.377
   10.200000000	-18.149	136.286	 -6.237	144.678	 -6.266	144.752	-17.764	-110.642
   10.300000000	-16.903	137.255	 -6.307	133.394	 -6.334	133.450	-16.228	-118.634
   10.400000000	-15.540	136.257	 -6.384	122.191	 -6.415	122.236	-14.779	-125.132
   10.500000000	-14.385	134.472	 -6.467	111.064	 -6.499	111.179	-13.657	-131.762
   10.600000000	-13.353	130.847	 -6.569	100.074	 -6.597	100.142	-12.514	-137.803
   10.700000000	-12.594	126.561	 -6.676	 89.302	 -6.695	 89.261	-11.717	-143.684
   10.800000000	-11.931	121.885	 -6.780	 78.509	 -6.799	 78.486	-11.034	-149.918
   10.900000000	-11.556	116.600	 -6.880	 67.869	 -6.898	 67.828	-10.529	-155.663
   11.000000000	-11.273	111.183	 -6.973	 57.273	 -6.991	 57.277	-10.160	-161.829
   11.100000000	-11.247	105.346	 -7.056	 46.772	 -7.076	 46.750	 -9.965	-167.905
   11.200000000	-11.318	 99.718	 -7.127	 36.326	 -7.149	 36.247	 -9.837	-174.078
   11.300000000	-11.615	 93.923	 -7.198	 25.800	 -7.211	 25.771	 -9.801	179.515
   11.400000000	-12.064	 87.878	 -7.250	 15.317	 -7.272	 15.267	 -9.835	173.026
   11.500000000	-12.738	 82.241	 -7.302	  4.820	 -7.318	  4.810	 -9.910	166.470
   11.600000000	-13.615	 76.008	 -7.346	 -5.659	 -7.363	 -5.736	 -9.985	159.789
   11.700000000	-14.849	 69.829	 -7.386	-16.261	 -7.404	-16.269	-10.087	153.075
   11.800000000	-16.511	 63.813	 -7.427	-26.850	 -7.444	-26.864	-10.135	146.482
   11.900000000	-18.717	 58.177	 -7.470	-37.453	 -7.487	-37.500	-10.137	139.892
   12.000000000	-22.042	 51.898	 -7.519	-48.113	 -7.537	-48.167	-10.066	133.413
   12.100000000	-28.182	 47.683	 -7.576	-58.838	 -7.591	-58.918	 -9.943	127.446
   12.200000000	-45.001	160.170	 -7.641	-69.584	 -7.657	-69.674	 -9.780	121.515
   12.300000000	-27.127	-160.700	 -7.717	-80.352	 -7.732	-80.433	 -9.550	115.867
   12.400000000	-21.334	-165.141	 -7.807	-91.123	 -7.822	-91.177	 -9.295	110.380
   12.500000000	-18.085	-172.675	 -7.905	-101.894	 -7.918	-101.938	 -9.032	105.223
   12.600000000	-15.768	178.874	 -8.008	-112.625	 -8.026	-112.689	 -8.769	100.009
   12.700000000	-14.188	170.223	 -8.116	-123.365	 -8.132	-123.415	 -8.521	 95.150
   12.800000000	-12.915	160.718	 -8.229	-134.082	 -8.245	-134.158	 -8.325	 90.334
   12.900000000	-11.939	150.506	 -8.343	-144.737	 -8.359	-144.799	 -8.157	 85.485
   13.000000000	-11.182	140.195	 -8.460	-155.391	 -8.468	-155.452	 -8.037	 80.812
   13.100000000	-10.551	129.592	 -8.569	-166.021	 -8.578	-166.059	 -7.965	 76.033
   13.200000000	 -9.963	118.662	 -8.690	-176.585	 -8.697	-176.621	 -7.942	 71.154
   13.300000000	 -9.484	107.447	 -8.791	172.941	 -8.799	172.828	 -7.978	 66.186
   13.400000000	 -9.003	 96.597	 -8.892	162.439	 -8.902	162.355	 -8.074	 61.137
   13.500000000	 -8.535	 85.658	 -8.999	151.910	 -9.015	151.830	 -8.181	 55.529
   13.600000000	 -8.059	 74.964	 -9.119	141.509	 -9.130	141.463	 -8.350	 49.873
   13.700000000	 -7.661	 64.867	 -9.225	131.194	 -9.240	131.143	 -8.544	 43.518
   13.800000000	 -7.258	 55.449	 -9.346	120.922	 -9.362	120.886	 -8.745	 37.048
   13.900000000	 -6.889	 47.007	 -9.458	110.837	 -9.473	110.779	 -8.977	 30.039
   14.000000000	 -6.569	 38.770	 -9.578	100.904	 -9.588	100.815	 -9.196	 23.034
   14.100000000	 -6.326	 31.697	 -9.673	 91.127	 -9.683	 91.025	 -9.422	 15.591
   14.200000000	 -6.140	 25.054	 -9.753	 81.399	 -9.762	 81.311	 -9.693	  8.240
   14.300000000	 -6.033	 19.330	 -9.803	 71.793	 -9.818	 71.706	-10.004	  1.460
   14.400000000	 -6.017	 14.158	 -9.827	 62.234	 -9.837	 62.171	-10.362	 -4.903
   14.500000000	 -6.041	  9.835	 -9.820	 52.700	 -9.831	 52.622	-10.808	-11.310
   14.600000000	 -6.224	  5.680	 -9.769	 43.157	 -9.780	 43.054	-11.354	-16.301
   14.700000000	 -6.433	  2.933	 -9.693	 33.519	 -9.706	 33.421	-12.121	-20.560
   14.800000000	 -6.802	  0.301	 -9.575	 23.704	 -9.587	 23.628	-12.953	-23.664
   14.900000000	 -7.169	 -1.775	 -9.445	 13.765	 -9.458	 13.719	-14.065	-24.263
   15.000000000	 -7.681	 -2.285	 -9.296	  3.703	 -9.313	  3.608	-15.347	-22.516
   15.100000000	 -8.201	 -3.007	 -9.151	 -6.602	 -9.163	 -6.667	-16.609	-17.419
   15.200000000	 -8.817	 -2.677	 -9.009	-17.029	 -9.016	-17.109	-17.664	 -8.629
   15.300000000	 -9.389	 -2.071	 -8.877	-27.568	 -8.892	-27.667	-18.064	  3.247
   15.400000000	 -9.955	 -1.733	 -8.761	-38.184	 -8.780	-38.229	-17.851	 13.554
   15.500000000	-10.642	 -1.478	 -8.657	-48.868	 -8.678	-48.890	-17.241	 20.741
   15.600000000	-11.299	 -2.025	 -8.582	-59.580	 -8.600	-59.566	-16.630	 26.148
   15.700000000	-12.073	 -3.811	 -8.516	-70.284	 -8.532	-70.315	-16.152	 29.057
   15.800000000	-13.010	 -7.380	 -8.458	-81.065	 -8.478	-81.110	-15.924	 30.693
   15.900000000	-14.026	-11.828	 -8.422	-91.872	 -8.437	-91.910	-15.845	 31.454
   16.000000000	-15.166	-19.322	 -8.391	-102.803	 -8.410	-102.820	-16.006	 32.782
   16.100000000	-16.232	-30.092	 -8.370	-113.874	 -8.396	-113.841	-16.438	 32.102
   16.200000000	-17.081	-42.838	 -8.367	-124.946	 -8.399	-124.935	-16.875	 31.471
   16.300000000	-17.302	-57.204	 -8.379	-136.125	 -8.406	-136.097	-17.897	 29.859
   16.400000000	-16.838	-71.024	 -8.402	-147.375	 -8.426	-147.355	-19.314	 26.275
   16.500000000	-16.032	-83.484	 -8.440	-158.638	 -8.464	-158.599	-21.399	 22.809
   16.600000000	-14.975	-91.305	 -8.485	-169.904	 -8.514	-169.838	-25.055	 14.579
   16.700000000	-13.788	-99.713	 -8.545	178.820	 -8.578	178.866	-31.344	 -2.443
   16.800000000	-12.919	-103.104	 -8.606	167.724	 -8.638	167.758	-34.714	-143.649
   16.900000000	-12.015	-109.400	 -8.685	156.607	 -8.715	156.686	-25.769	-150.742
   17.000000000	-11.372	-112.034	 -8.759	145.737	 -8.782	145.811	-21.869	-166.808
   17.100000000	-11.007	-117.912	 -8.817	134.983	 -8.843	135.049	-19.009	-171.004
   17.200000000	-10.565	-120.876	 -8.869	124.337	 -8.895	124.367	-17.944	-178.748
   17.300000000	-10.748	-124.801	 -8.885	113.749	 -8.916	113.827	-16.901	173.051
   17.400000000	-10.879	-128.696	 -8.894	103.181	 -8.924	103.198	-16.563	166.471
   17.500000000	-11.434	-133.264	 -8.873	 92.529	 -8.896	 92.565	-16.575	157.607
   17.600000000	-12.259	-138.232	 -8.832	 81.734	 -8.860	 81.751	-16.993	147.747
   17.700000000	-13.484	-144.052	 -8.784	 70.706	 -8.802	 70.710	-17.628	135.203
   17.800000000	-15.148	-151.205	 -8.729	 59.423	 -8.763	 59.438	-18.084	119.746
   17.900000000	-17.573	-161.312	 -8.687	 47.885	 -8.719	 47.917	-18.066	102.209
   18.000000000	-20.549	178.122	 -8.661	 36.167	 -8.683	 36.151	-17.492	 84.478
   18.100000000	-23.383	138.019	 -8.655	 24.220	 -8.675	 24.223	-16.310	 69.812
   18.200000000	-21.241	 91.913	 -8.672	 12.146	 -8.691	 12.235	-14.863	 58.983
   18.300000000	-17.698	 67.788	 -8.715	  0.059	 -8.742	  0.089	-13.297	 50.206
   18.400000000	-14.614	 54.433	 -8.790	-11.967	 -8.815	-11.960	-11.917	 43.652
   18.500000000	-12.506	 45.820	 -8.874	-23.798	 -8.900	-23.809	-10.720	 38.199
   18.600000000	-10.841	 38.639	 -8.975	-35.530	 -9.000	-35.472	 -9.689	 33.532
   18.700000000	 -9.701	 32.866	 -9.069	-46.904	 -9.091	-46.875	 -8.853	 29.572
   18.800000000	 -8.937	 27.777	 -9.130	-58.070	 -9.160	-58.081	 -8.249	 25.469
   18.900000000	 -8.506	 22.832	 -9.181	-69.080	 -9.208	-69.069	 -7.856	 21.632
   19.000000000	 -8.387	 18.514	 -9.190	-79.948	 -9.220	-79.947	 -7.627	 18.944
   19.100000000	 -8.514	 13.733	 -9.165	-90.832	 -9.202	-90.728	 -7.559	 16.205
   19.200000000	 -9.053	 10.165	 -9.104	-101.662	 -9.136	-101.552	 -7.646	 13.256
   19.300000000	 -9.837	  4.704	 -8.985	-112.722	 -9.023	-112.544	 -7.872	 11.835
   19.400000000	-11.103	  1.603	 -8.843	-124.146	 -8.879	-123.992	 -8.268	  9.647
   19.500000000	-13.088	 -4.528	 -8.703	-136.058	 -8.739	-135.938	 -8.616	  8.607
   19.600000000	-15.343	 -7.480	 -8.582	-148.268	 -8.617	-148.163	 -9.119	  7.940
   19.700000000	-18.926	 -9.857	 -8.472	-160.820	 -8.507	-160.691	 -9.489	  6.925
   19.800000000	-23.847	 -8.744	 -8.383	-173.706	 -8.419	-173.604	 -9.888	  5.990
   19.900000000	-32.883	 16.126	 -8.315	173.147	 -8.350	173.230	-10.249	  3.782
   20.000000000	-31.240	 94.931	 -8.277	159.777	 -8.312	159.889	-10.550	  0.744
