! Date: Wednesday, June 05, 2013  1:53 PM
! Filename: C:\Data\Mike_Arnold\TGP2105-SM\Over_Temp\TGP2105-SM_EVB01_25C_Phase62.s2p 
! Comments: 
!^VDC(V):5.000
!^VDC(mA):0.131
!%Freq(GHz),S11(dB),S11(ang),S21(dB),S21(ang),S12(dB),S12(ang),S22(dB),S22(ang)
# GHz   S   DB   R   50
    5.000000000	-10.081	106.679	 -6.856	134.157	 -6.875	134.098	-12.955	-158.250
    5.100000000	-11.093	101.812	 -6.675	116.284	 -6.691	116.244	-11.795	-159.273
    5.200000000	-12.041	 97.384	 -6.549	 99.056	 -6.562	 99.046	-10.744	-164.313
    5.300000000	-13.017	 92.057	 -6.454	 82.418	 -6.468	 82.394	 -9.944	-172.131
    5.400000000	-14.294	 85.830	 -6.374	 66.299	 -6.389	 66.283	 -9.487	179.330
    5.500000000	-16.178	 80.328	 -6.293	 50.764	 -6.309	 50.734	 -9.316	170.544
    5.600000000	-18.476	 77.683	 -6.177	 35.644	 -6.188	 35.606	 -9.396	162.422
    5.700000000	-21.410	 75.529	 -6.015	 20.348	 -6.031	 20.303	 -9.766	155.464
    5.800000000	-27.767	 76.265	 -5.907	  4.881	 -5.920	  4.860	-10.241	150.429
    5.900000000	-32.316	-179.512	 -5.856	-10.363	 -5.871	-10.389	-10.770	147.380
    6.000000000	-22.222	-160.454	 -5.854	-25.334	 -5.865	-25.371	-11.210	145.573
    6.100000000	-17.456	-165.939	 -5.885	-39.930	 -5.900	-39.941	-11.524	145.025
    6.200000000	-14.447	-175.074	 -5.937	-54.125	 -5.946	-54.150	-11.616	145.040
    6.300000000	-12.480	174.224	 -5.996	-67.957	 -6.008	-67.994	-11.547	144.045
    6.400000000	-11.209	163.989	 -6.049	-81.392	 -6.061	-81.417	-11.428	141.634
    6.500000000	-10.324	153.836	 -6.082	-94.520	 -6.093	-94.559	-11.395	138.101
    6.600000000	 -9.721	143.429	 -6.107	-107.368	 -6.118	-107.419	-11.449	133.466
    6.700000000	 -9.463	132.916	 -6.080	-120.106	 -6.091	-120.127	-11.710	127.334
    6.800000000	 -9.437	122.330	 -6.016	-132.853	 -6.039	-132.786	-12.210	120.259
    6.900000000	 -9.584	111.799	 -5.947	-145.520	 -5.967	-145.478	-12.983	112.678
    7.000000000	 -9.927	100.702	 -5.864	-158.307	 -5.889	-158.259	-14.055	103.710
    7.100000000	-10.440	 89.454	 -5.778	-171.186	 -5.796	-171.124	-15.544	 93.611
    7.200000000	-11.067	 78.206	 -5.697	175.913	 -5.715	175.968	-17.468	 82.226
    7.300000000	-11.768	 66.665	 -5.631	162.937	 -5.649	162.990	-19.816	 68.499
    7.400000000	-12.518	 54.892	 -5.575	149.949	 -5.595	150.017	-22.717	 49.677
    7.500000000	-13.305	 43.279	 -5.537	137.028	 -5.560	137.068	-26.038	 22.281
    7.600000000	-14.001	 31.901	 -5.519	124.167	 -5.539	124.213	-28.198	-15.779
    7.700000000	-14.660	 20.991	 -5.515	111.405	 -5.532	111.476	-27.943	-53.432
    7.800000000	-15.274	 10.955	 -5.509	 98.779	 -5.533	 98.822	-26.812	-83.126
    7.900000000	-15.918	  2.009	 -5.513	 86.248	 -5.538	 86.304	-26.204	-105.894
    8.000000000	-16.513	 -6.073	 -5.523	 73.805	 -5.546	 73.852	-26.344	-128.401
    8.100000000	-17.284	-12.778	 -5.538	 61.445	 -5.563	 61.516	-26.345	-153.627
    8.200000000	-18.168	-17.938	 -5.557	 49.128	 -5.585	 49.230	-25.785	175.877
    8.300000000	-19.248	-20.476	 -5.589	 36.986	 -5.613	 37.092	-24.149	145.138
    8.400000000	-20.305	-20.456	 -5.626	 24.906	 -5.653	 24.971	-21.894	121.640
    8.500000000	-21.543	-17.185	 -5.665	 12.920	 -5.692	 12.971	-19.655	103.955
    8.600000000	-22.286	-10.478	 -5.715	  1.038	 -5.739	  1.096	-17.653	 89.978
    8.700000000	-22.438	 -3.768	 -5.764	-10.785	 -5.787	-10.707	-16.165	 78.703
    8.800000000	-22.427	 -0.100	 -5.806	-22.446	 -5.834	-22.350	-15.118	 69.023
    8.900000000	-22.484	  0.938	 -5.851	-33.964	 -5.874	-33.900	-14.349	 61.213
    9.000000000	-22.830	 -1.533	 -5.878	-45.429	 -5.902	-45.369	-14.016	 53.571
    9.100000000	-23.794	 -7.667	 -5.900	-56.895	 -5.926	-56.828	-13.951	 47.171
    9.200000000	-26.069	-18.490	 -5.904	-68.294	 -5.933	-68.255	-14.317	 42.401
    9.300000000	-30.086	-38.790	 -5.906	-79.759	 -5.935	-79.704	-14.905	 38.001
    9.400000000	-34.244	-99.047	 -5.910	-91.238	 -5.933	-91.145	-15.791	 35.679
    9.500000000	-28.655	-160.581	 -5.914	-102.738	 -5.941	-102.646	-17.092	 35.298
    9.600000000	-23.930	177.530	 -5.925	-114.150	 -5.956	-114.083	-18.462	 37.292
    9.700000000	-20.834	166.695	 -5.955	-125.583	 -5.982	-125.506	-19.726	 42.004
    9.800000000	-18.758	158.390	 -5.978	-136.904	 -6.005	-136.818	-21.074	 48.737
    9.900000000	-17.382	151.946	 -6.011	-148.150	 -6.042	-148.082	-22.272	 55.060
   10.000000000	-17.507	139.288	 -6.049	-159.564	 -6.073	-159.455	-24.099	 49.591
   10.100000000	-17.079	133.452	 -6.084	-170.699	 -6.110	-170.626	-26.067	 46.086
   10.200000000	-16.548	129.985	 -6.114	178.236	 -6.143	178.299	-28.178	 35.102
   10.300000000	-16.434	127.281	 -6.148	167.218	 -6.173	167.299	-31.513	  9.802
   10.400000000	-16.204	126.291	 -6.183	156.223	 -6.208	156.300	-31.481	-43.828
   10.500000000	-16.033	126.951	 -6.218	145.303	 -6.244	145.386	-27.691	-76.608
   10.600000000	-15.697	127.501	 -6.261	134.428	 -6.287	134.516	-23.576	-96.288
   10.700000000	-15.391	128.219	 -6.316	123.650	 -6.332	123.629	-20.779	-106.628
   10.800000000	-14.878	128.783	 -6.369	112.805	 -6.387	112.786	-18.660	-115.960
   10.900000000	-14.485	128.401	 -6.424	102.053	 -6.440	102.023	-17.015	-123.228
   11.000000000	-14.014	127.401	 -6.486	 91.279	 -6.504	 91.266	-15.823	-130.767
   11.100000000	-13.751	125.603	 -6.541	 80.592	 -6.557	 80.556	-14.982	-137.725
   11.200000000	-13.470	123.568	 -6.600	 69.897	 -6.615	 69.868	-14.341	-144.708
   11.300000000	-13.372	121.255	 -6.653	 59.266	 -6.670	 59.213	-13.944	-152.010
   11.400000000	-13.378	118.450	 -6.706	 48.626	 -6.724	 48.592	-13.700	-159.254
   11.500000000	-13.475	116.022	 -6.755	 38.018	 -6.770	 37.966	-13.583	-166.686
   11.600000000	-13.728	113.006	 -6.802	 27.377	 -6.820	 27.373	-13.542	-174.220
   11.700000000	-14.164	110.448	 -6.846	 16.762	 -6.863	 16.739	-13.577	178.164
   11.800000000	-14.741	108.217	 -6.884	  6.127	 -6.904	  6.109	-13.591	170.613
   11.900000000	-15.424	106.089	 -6.922	 -4.491	 -6.947	 -4.532	-13.577	163.020
   12.000000000	-16.438	104.542	 -6.974	-15.167	 -6.988	-15.153	-13.509	155.528
   12.100000000	-17.736	104.657	 -7.013	-25.810	 -7.026	-25.886	-13.366	148.934
   12.200000000	-19.286	108.024	 -7.065	-36.522	 -7.077	-36.572	-13.155	142.464
   12.300000000	-20.917	114.627	 -7.120	-47.253	 -7.133	-47.298	-12.839	136.331
   12.400000000	-22.294	129.419	 -7.175	-58.044	 -7.193	-58.071	-12.482	130.699
   12.500000000	-22.316	147.314	 -7.240	-68.836	 -7.256	-68.896	-12.081	125.475
   12.600000000	-20.813	161.222	 -7.311	-79.654	 -7.326	-79.687	-11.656	120.357
   12.700000000	-19.070	167.739	 -7.388	-90.464	 -7.403	-90.518	-11.236	115.690
   12.800000000	-17.303	168.139	 -7.465	-101.285	 -7.479	-101.359	-10.872	111.105
   12.900000000	-15.885	164.597	 -7.545	-112.146	 -7.560	-112.184	-10.538	106.525
   13.000000000	-14.737	159.211	 -7.626	-122.966	 -7.640	-122.999	-10.268	102.171
   13.100000000	-13.799	152.368	 -7.701	-133.749	 -7.718	-133.792	-10.057	 97.824
   13.200000000	-12.959	144.119	 -7.787	-144.522	 -7.802	-144.603	 -9.915	 93.427
   13.300000000	-12.343	134.985	 -7.856	-155.307	 -7.869	-155.359	 -9.854	 89.069
   13.400000000	-11.709	125.586	 -7.921	-166.000	 -7.931	-166.087	 -9.870	 84.793
   13.500000000	-11.136	115.491	 -7.985	-176.844	 -7.996	-176.931	 -9.924	 79.918
   13.600000000	-10.575	105.069	 -8.055	172.366	 -8.070	172.290	-10.042	 75.177
   13.700000000	-10.070	 95.166	 -8.134	161.597	 -8.144	161.521	-10.231	 69.788
   13.800000000	 -9.530	 85.539	 -8.202	150.821	 -8.226	150.751	-10.412	 64.148
   13.900000000	 -8.985	 76.732	 -8.296	140.123	 -8.307	140.055	-10.656	 57.806
   14.000000000	 -8.503	 68.034	 -8.390	129.437	 -8.402	129.383	-10.892	 51.205
   14.100000000	 -8.051	 60.643	 -8.485	118.862	 -8.490	118.804	-11.178	 43.909
   14.200000000	 -7.661	 53.624	 -8.572	108.389	 -8.588	108.241	-11.522	 36.751
   14.300000000	 -7.328	 47.648	 -8.656	 97.935	 -8.666	 97.895	-11.888	 29.948
   14.400000000	 -7.096	 42.454	 -8.725	 87.623	 -8.738	 87.519	-12.301	 23.641
   14.500000000	 -6.877	 38.000	 -8.787	 77.249	 -8.799	 77.191	-12.859	 17.607
   14.600000000	 -6.834	 34.299	 -8.819	 66.997	 -8.829	 66.935	-13.455	 13.620
   14.700000000	 -6.745	 31.852	 -8.838	 56.751	 -8.852	 56.672	-14.257	 11.543
   14.800000000	 -6.812	 29.997	 -8.836	 46.445	 -8.842	 46.338	-15.056	 11.616
   14.900000000	 -6.852	 28.492	 -8.822	 36.010	 -8.836	 35.976	-15.795	 16.266
   15.000000000	 -6.905	 28.691	 -8.802	 25.606	 -8.819	 25.535	-16.190	 24.287
   15.100000000	 -6.972	 28.480	 -8.784	 15.205	 -8.798	 15.102	-15.894	 33.462
   15.200000000	 -7.033	 29.172	 -8.769	  4.723	 -8.785	  4.655	-15.020	 41.418
   15.300000000	 -7.047	 29.603	 -8.777	 -5.697	 -8.787	 -5.783	-13.771	 46.237
   15.400000000	 -7.077	 29.477	 -8.789	-16.061	 -8.797	-16.125	-12.615	 47.783
   15.500000000	 -7.174	 29.281	 -8.793	-26.356	 -8.810	-26.413	-11.614	 47.060
   15.600000000	 -7.300	 28.113	 -8.816	-36.542	 -8.831	-36.564	-10.813	 45.607
   15.700000000	 -7.545	 26.103	 -8.827	-46.669	 -8.845	-46.698	-10.247	 43.067
   15.800000000	 -7.945	 23.147	 -8.827	-56.757	 -8.848	-56.843	 -9.903	 40.097
   15.900000000	 -8.418	 19.529	 -8.833	-66.937	 -8.853	-66.976	 -9.725	 36.832
   16.000000000	 -9.071	 14.352	 -8.824	-77.131	 -8.837	-77.224	 -9.705	 33.876
   16.100000000	 -9.870	  7.613	 -8.805	-87.574	 -8.823	-87.589	 -9.878	 29.768
   16.200000000	-10.728	 -0.287	 -8.786	-98.087	 -8.814	-98.029	-10.082	 25.796
   16.300000000	-11.586	-10.073	 -8.777	-108.729	 -8.802	-108.698	-10.517	 21.163
   16.400000000	-12.296	-21.650	 -8.774	-119.498	 -8.803	-119.492	-11.023	 15.330
   16.500000000	-12.883	-34.636	 -8.782	-130.340	 -8.813	-130.319	-11.617	  9.083
   16.600000000	-12.965	-47.012	 -8.801	-141.261	 -8.826	-141.198	-12.358	  0.601
   16.700000000	-12.855	-60.504	 -8.832	-152.112	 -8.861	-152.131	-13.081	 -8.970
   16.800000000	-12.432	-68.867	 -8.861	-162.955	 -8.890	-162.912	-14.268	-21.292
   16.900000000	-12.033	-79.012	 -8.901	-173.766	 -8.932	-173.749	-14.575	-37.042
   17.000000000	-11.505	-84.707	 -8.939	175.647	 -8.971	175.689	-15.174	-51.179
   17.100000000	-11.391	-91.937	 -8.981	165.104	 -9.004	165.150	-15.075	-68.797
   17.200000000	-10.925	-96.747	 -9.008	154.664	 -9.037	154.711	-14.890	-80.593
   17.300000000	-11.121	-100.307	 -9.010	144.400	 -9.041	144.444	-14.863	-93.270
   17.400000000	-11.204	-104.065	 -9.003	134.127	 -9.027	134.131	-14.619	-102.732
   17.500000000	-11.725	-107.156	 -8.960	123.783	 -8.990	123.841	-14.745	-110.417
   17.600000000	-12.479	-109.805	 -8.908	113.391	 -8.930	113.405	-15.044	-115.903
   17.700000000	-13.597	-111.278	 -8.827	102.834	 -8.853	102.800	-15.698	-119.618
   17.800000000	-15.060	-111.410	 -8.745	 91.970	 -8.765	 91.985	-16.689	-122.218
   17.900000000	-17.049	-108.632	 -8.649	 80.921	 -8.674	 80.937	-18.110	-123.412
   18.000000000	-19.789	-103.501	 -8.553	 69.641	 -8.577	 69.623	-19.980	-122.130
   18.100000000	-23.123	-86.080	 -8.476	 58.094	 -8.495	 58.111	-22.502	-119.276
   18.200000000	-25.806	-50.245	 -8.397	 46.344	 -8.424	 46.411	-26.363	-114.172
   18.300000000	-24.263	-12.545	 -8.343	 34.529	 -8.365	 34.539	-34.386	-85.738
   18.400000000	-20.838	 10.712	 -8.292	 22.559	 -8.323	 22.576	-32.895	 19.089
   18.500000000	-18.178	 20.735	 -8.263	 10.563	 -8.287	 10.598	-25.036	 40.030
   18.600000000	-15.828	 25.872	 -8.248	 -1.416	 -8.277	 -1.381	-20.429	 43.865
   18.700000000	-14.091	 28.798	 -8.239	-13.337	 -8.271	-13.335	-17.307	 44.881
   18.800000000	-12.728	 29.931	 -8.256	-25.166	 -8.283	-25.152	-15.183	 43.023
   18.900000000	-11.750	 29.662	 -8.265	-36.913	 -8.294	-36.915	-13.680	 40.728
   19.000000000	-11.092	 29.161	 -8.281	-48.518	 -8.312	-48.511	-12.533	 39.367
   19.100000000	-10.728	 27.300	 -8.289	-60.093	 -8.319	-59.993	-11.794	 37.407
   19.200000000	-10.756	 26.981	 -8.266	-71.488	 -8.310	-71.416	-11.425	 35.063
   19.300000000	-11.059	 24.212	 -8.229	-83.045	 -8.268	-82.886	-11.231	 34.973
   19.400000000	-11.662	 24.347	 -8.178	-94.803	 -8.206	-94.643	-11.400	 34.270
   19.500000000	-12.977	 22.906	 -8.123	-106.807	 -8.157	-106.734	-11.447	 35.153
   19.600000000	-14.074	 24.194	 -8.080	-119.053	 -8.113	-118.978	-11.643	 37.589
   19.700000000	-15.719	 27.647	 -8.031	-131.582	 -8.073	-131.462	-11.650	 39.469
   19.800000000	-17.288	 32.052	 -8.015	-144.305	 -8.045	-144.182	-11.514	 41.789
   19.900000000	-18.914	 39.301	 -7.994	-157.286	 -8.026	-157.211	-11.331	 42.447
   20.000000000	-19.776	 45.830	 -7.996	-170.441	 -8.029	-170.330	-11.044	 41.520
