! Date: Wednesday, June 05, 2013  1:50 PM
! Filename: C:\Data\Mike_Arnold\TGP2105-SM\Over_Temp\TGP2105-SM_EVB01_25C_Phase22.s2p 
! Comments: 
!^VDC(V):5.000
!^VDC(mA):0.102
!%Freq(GHz),S11(dB),S11(ang),S21(dB),S21(ang),S12(dB),S12(ang),S22(dB),S22(ang)
# GHz   S   DB   R   50
    5.000000000	-22.814	142.450	 -6.441	-111.116	 -6.455	-111.146	 -9.644	-163.071
    5.100000000	-23.758	157.538	 -6.406	-128.626	 -6.422	-128.662	 -9.647	-170.290
    5.200000000	-23.090	179.368	 -6.396	-145.569	 -6.415	-145.581	 -9.768	-176.417
    5.300000000	-20.769	-164.972	 -6.415	-162.016	 -6.433	-162.044	 -9.872	178.113
    5.400000000	-17.920	-159.020	 -6.459	-178.036	 -6.481	-178.069	 -9.925	173.921
    5.500000000	-15.260	-159.783	 -6.527	166.452	 -6.544	166.416	 -9.858	170.379
    5.600000000	-13.135	-165.266	 -6.628	151.424	 -6.643	151.400	 -9.597	167.037
    5.700000000	-11.509	-172.502	 -6.737	136.900	 -6.753	136.836	 -9.277	162.830
    5.800000000	-10.258	179.780	 -6.855	122.916	 -6.867	122.903	 -8.907	158.088
    5.900000000	 -9.225	171.280	 -6.959	109.505	 -6.975	109.475	 -8.584	152.666
    6.000000000	 -8.514	162.348	 -7.050	 96.514	 -7.066	 96.494	 -8.342	146.154
    6.100000000	 -8.075	153.630	 -7.098	 84.028	 -7.116	 84.012	 -8.270	138.900
    6.200000000	 -7.828	145.061	 -7.093	 72.054	 -7.116	 72.024	 -8.380	131.318
    6.300000000	 -7.792	136.605	 -6.992	 60.304	 -7.005	 60.290	 -8.697	123.513
    6.400000000	 -7.931	129.116	 -6.760	 48.022	 -6.777	 48.002	 -9.126	115.515
    6.500000000	 -8.107	121.849	 -6.577	 35.217	 -6.591	 35.153	 -9.678	106.390
    6.600000000	 -8.361	114.467	 -6.417	 22.392	 -6.433	 22.348	-10.470	 95.628
    6.700000000	 -8.814	106.814	 -6.269	  9.441	 -6.287	  9.444	-11.630	 83.151
    6.800000000	 -9.412	 99.579	 -6.119	 -3.691	 -6.143	 -3.638	-13.151	 68.506
    6.900000000	-10.109	 93.060	 -6.009	-16.777	 -6.033	-16.760	-15.097	 50.786
    7.000000000	-10.841	 86.693	 -5.925	-29.996	 -5.954	-29.927	-17.211	 27.504
    7.100000000	-11.592	 80.892	 -5.883	-43.162	 -5.906	-43.098	-18.955	 -3.234
    7.200000000	-12.248	 75.636	 -5.871	-56.194	 -5.893	-56.146	-19.398	-38.094
    7.300000000	-12.774	 70.200	 -5.883	-69.090	 -5.906	-69.053	-18.556	-68.203
    7.400000000	-13.145	 64.277	 -5.908	-81.858	 -5.935	-81.811	-17.329	-90.569
    7.500000000	-13.394	 57.839	 -5.950	-94.474	 -5.977	-94.410	-16.267	-108.320
    7.600000000	-13.459	 50.851	 -5.998	-106.891	 -6.023	-106.837	-15.569	-123.186
    7.700000000	-13.459	 43.304	 -6.051	-119.163	 -6.076	-119.076	-15.219	-136.394
    7.800000000	-13.367	 35.601	 -6.094	-131.273	 -6.120	-131.233	-15.057	-149.425
    7.900000000	-13.280	 28.234	 -6.141	-143.322	 -6.164	-143.274	-15.124	-163.135
    8.000000000	-13.120	 20.915	 -6.185	-155.303	 -6.213	-155.234	-15.350	-178.082
    8.100000000	-13.013	 13.981	 -6.230	-167.148	 -6.260	-167.076	-15.555	166.255
    8.200000000	-12.885	  7.371	 -6.275	-178.954	 -6.304	-178.897	-15.631	149.622
    8.300000000	-12.791	  1.113	 -6.319	169.339	 -6.348	169.419	-15.486	132.060
    8.400000000	-12.725	 -5.488	 -6.356	157.677	 -6.386	157.771	-15.164	115.777
    8.500000000	-12.838	-12.241	 -6.391	146.079	 -6.425	146.177	-14.735	101.388
    8.600000000	-13.004	-19.370	 -6.421	134.514	 -6.449	134.624	-14.198	 88.972
    8.700000000	-13.335	-27.420	 -6.444	122.966	 -6.469	123.040	-13.801	 78.597
    8.800000000	-13.866	-36.940	 -6.453	111.344	 -6.484	111.448	-13.553	 70.309
    8.900000000	-14.683	-47.784	 -6.463	 99.775	 -6.495	 99.849	-13.382	 64.410
    9.000000000	-15.714	-60.661	 -6.467	 88.081	 -6.499	 88.162	-13.400	 59.420
    9.100000000	-16.926	-76.860	 -6.476	 76.344	 -6.508	 76.434	-13.425	 56.275
    9.200000000	-18.159	-97.681	 -6.491	 64.576	 -6.522	 64.677	-13.565	 55.097
    9.300000000	-18.997	-122.430	 -6.517	 52.794	 -6.545	 52.902	-13.618	 53.793
    9.400000000	-18.998	-148.009	 -6.549	 41.051	 -6.580	 41.121	-13.644	 53.191
    9.500000000	-18.206	-170.035	 -6.590	 29.391	 -6.625	 29.438	-13.753	 52.151
    9.600000000	-17.308	172.283	 -6.636	 17.782	 -6.664	 17.863	-13.882	 50.136
    9.700000000	-16.514	159.881	 -6.675	  6.283	 -6.710	  6.372	-14.076	 46.916
    9.800000000	-15.935	150.801	 -6.712	 -5.118	 -6.738	 -5.035	-14.633	 42.637
    9.900000000	-15.568	144.390	 -6.736	-16.492	 -6.765	-16.418	-15.454	 36.647
   10.000000000	-15.751	131.118	 -6.777	-28.239	 -6.809	-28.152	-16.057	 24.750
   10.100000000	-15.697	125.286	 -6.795	-39.685	 -6.831	-39.578	-17.092	 12.258
   10.200000000	-15.492	121.606	 -6.826	-51.088	 -6.861	-50.996	-17.956	 -3.249
   10.300000000	-15.514	118.224	 -6.848	-62.464	 -6.882	-62.360	-18.775	-22.295
   10.400000000	-15.410	115.784	 -6.880	-73.850	 -6.916	-73.726	-18.871	-43.997
   10.500000000	-15.473	114.163	 -6.913	-85.124	 -6.948	-85.027	-18.516	-63.527
   10.600000000	-15.504	112.127	 -6.960	-96.402	 -6.989	-96.324	-17.543	-82.150
   10.700000000	-15.728	110.130	 -7.011	-107.560	 -7.032	-107.588	-16.597	-95.567
   10.800000000	-15.953	108.732	 -7.062	-118.793	 -7.079	-118.806	-15.719	-107.411
   10.900000000	-16.535	107.108	 -7.105	-129.956	 -7.131	-130.013	-14.910	-116.321
   11.000000000	-17.154	106.596	 -7.157	-141.148	 -7.175	-141.153	-14.322	-124.291
   11.100000000	-18.193	106.875	 -7.201	-152.277	 -7.224	-152.332	-13.882	-130.920
   11.200000000	-19.299	110.180	 -7.245	-163.463	 -7.268	-163.500	-13.512	-137.153
   11.300000000	-20.681	117.006	 -7.292	-174.651	 -7.317	-174.698	-13.235	-143.225
   11.400000000	-21.823	129.230	 -7.338	174.148	 -7.354	174.122	-12.993	-148.988
   11.500000000	-21.946	146.665	 -7.386	162.947	 -7.405	162.896	-12.748	-155.010
   11.600000000	-20.955	162.376	 -7.436	151.704	 -7.457	151.670	-12.512	-161.391
   11.700000000	-19.189	173.481	 -7.498	140.515	 -7.517	140.517	-12.285	-168.254
   11.800000000	-17.243	178.989	 -7.565	129.271	 -7.586	129.259	-11.991	-175.616
   11.900000000	-15.497	-179.836	 -7.641	118.133	 -7.657	118.093	-11.662	176.415
   12.000000000	-14.021	179.393	 -7.726	106.998	 -7.746	106.937	-11.320	167.996
   12.100000000	-12.705	177.263	 -7.830	 95.928	 -7.845	 95.870	-10.923	159.582
   12.200000000	-11.582	173.855	 -7.935	 84.945	 -7.955	 84.879	-10.552	150.977
   12.300000000	-10.678	169.361	 -8.051	 74.036	 -8.070	 73.950	-10.156	142.516
   12.400000000	 -9.928	164.518	 -8.174	 63.240	 -8.190	 63.192	 -9.796	134.234
   12.500000000	 -9.317	158.874	 -8.294	 52.549	 -8.306	 52.475	 -9.451	126.482
   12.600000000	 -8.816	152.803	 -8.415	 41.935	 -8.433	 41.870	 -9.159	118.952
   12.700000000	 -8.486	146.306	 -8.525	 31.452	 -8.544	 31.389	 -8.928	112.002
   12.800000000	 -8.216	139.377	 -8.626	 21.016	 -8.647	 20.976	 -8.777	105.500
   12.900000000	 -8.025	131.858	 -8.722	 10.620	 -8.744	 10.597	 -8.678	 99.239
   13.000000000	 -7.921	124.097	 -8.807	  0.328	 -8.823	  0.285	 -8.658	 93.434
   13.100000000	 -7.860	116.092	 -8.874	 -9.978	 -8.888	-10.012	 -8.718	 87.909
   13.200000000	 -7.787	107.862	 -8.941	-20.220	 -8.954	-20.276	 -8.849	 82.523
   13.300000000	 -7.762	 99.198	 -8.993	-30.444	 -9.006	-30.526	 -9.056	 77.313
   13.400000000	 -7.719	 90.772	 -9.034	-40.635	 -9.048	-40.685	 -9.364	 72.300
   13.500000000	 -7.656	 82.158	 -9.069	-50.859	 -9.086	-50.944	 -9.727	 66.897
   13.600000000	 -7.541	 73.656	 -9.116	-61.073	 -9.127	-61.163	-10.190	 61.741
   13.700000000	 -7.462	 65.514	 -9.152	-71.280	 -9.161	-71.330	-10.743	 56.257
   13.800000000	 -7.338	 57.911	 -9.193	-81.341	 -9.200	-81.453	-11.340	 50.836
   13.900000000	 -7.197	 51.181	 -9.227	-91.516	 -9.242	-91.566	-12.025	 45.197
   14.000000000	 -7.059	 44.546	 -9.269	-101.618	 -9.279	-101.725	-12.724	 40.043
   14.100000000	 -6.943	 39.086	 -9.308	-111.726	 -9.318	-111.787	-13.466	 34.907
   14.200000000	 -6.839	 34.001	 -9.343	-121.823	 -9.355	-121.862	-14.274	 30.964
   14.300000000	 -6.749	 29.927	 -9.374	-131.874	 -9.392	-131.947	-14.990	 28.865
   14.400000000	 -6.702	 26.474	 -9.399	-141.955	 -9.408	-142.033	-15.581	 28.694
   14.500000000	 -6.615	 23.775	 -9.421	-152.078	 -9.440	-152.164	-16.030	 30.039
   14.600000000	 -6.634	 21.405	 -9.448	-162.177	 -9.455	-162.279	-15.970	 33.689
   14.700000000	 -6.560	 20.130	 -9.460	-172.333	 -9.475	-172.410	-15.566	 38.120
   14.800000000	 -6.583	 18.875	 -9.472	177.500	 -9.487	177.453	-14.758	 40.590
   14.900000000	 -6.541	 17.502	 -9.495	167.426	 -9.515	167.366	-13.743	 42.479
   15.000000000	 -6.547	 17.074	 -9.515	157.477	 -9.531	157.378	-12.740	 42.509
   15.100000000	 -6.588	 15.655	 -9.533	147.576	 -9.551	147.495	-11.855	 41.135
   15.200000000	 -6.717	 14.489	 -9.538	137.797	 -9.555	137.676	-11.138	 39.063
   15.300000000	 -6.892	 12.868	 -9.538	128.097	 -9.556	127.993	-10.534	 36.600
   15.400000000	 -7.170	 10.580	 -9.522	118.460	 -9.542	118.336	-10.154	 33.636
   15.500000000	 -7.637	  8.138	 -9.484	108.804	 -9.514	108.772	 -9.916	 30.453
   15.600000000	 -8.212	  4.877	 -9.446	 99.160	 -9.463	 99.132	 -9.848	 27.816
   15.700000000	 -8.980	  0.654	 -9.390	 89.460	 -9.407	 89.436	 -9.908	 25.058
   15.800000000	 -9.972	 -4.826	 -9.313	 79.603	 -9.337	 79.570	-10.136	 22.420
   15.900000000	-11.144	-11.000	 -9.241	 69.662	 -9.268	 69.634	-10.463	 19.787
   16.000000000	-12.527	-19.627	 -9.171	 59.541	 -9.192	 59.508	-10.949	 17.801
   16.100000000	-13.998	-31.150	 -9.108	 49.180	 -9.136	 49.178	-11.561	 14.639
   16.200000000	-15.438	-45.323	 -9.057	 38.745	 -9.088	 38.798	-12.203	 11.914
   16.300000000	-16.449	-62.396	 -9.019	 28.162	 -9.048	 28.216	-13.141	  8.183
   16.400000000	-16.767	-80.284	 -8.981	 17.550	 -9.014	 17.584	-14.178	  3.231
   16.500000000	-16.576	-97.282	 -8.958	  6.882	 -8.989	  6.970	-15.451	 -2.155
   16.600000000	-16.105	-108.904	 -8.936	 -3.786	 -8.966	 -3.760	-17.026	-10.358
   16.700000000	-15.367	-119.906	 -8.917	-14.489	 -8.949	-14.432	-18.751	-19.949
   16.800000000	-15.259	-125.175	 -8.883	-25.103	 -8.920	-25.028	-21.652	-35.612
   16.900000000	-14.918	-132.635	 -8.862	-35.762	 -8.890	-35.716	-22.527	-57.554
   17.000000000	-15.235	-134.910	 -8.813	-46.342	 -8.843	-46.285	-24.395	-78.246
   17.100000000	-15.726	-141.838	 -8.775	-56.971	 -8.797	-56.906	-23.595	-102.070
   17.200000000	-16.495	-141.794	 -8.713	-67.694	 -8.744	-67.627	-23.916	-110.751
   17.300000000	-18.578	-143.623	 -8.653	-78.384	 -8.676	-78.356	-24.155	-121.651
   17.400000000	-20.929	-139.463	 -8.588	-89.290	 -8.622	-89.226	-24.292	-121.666
   17.500000000	-25.110	-126.640	 -8.541	-100.273	 -8.566	-100.224	-25.072	-116.754
   17.600000000	-28.406	-80.332	 -8.502	-111.403	 -8.522	-111.384	-25.433	-103.573
   17.700000000	-24.354	-36.342	 -8.481	-122.691	 -8.509	-122.644	-24.903	-86.452
   17.800000000	-20.168	-24.929	 -8.482	-134.061	 -8.511	-134.042	-23.935	-73.742
   17.900000000	-17.267	-22.024	 -8.509	-145.559	 -8.537	-145.525	-22.916	-63.684
   18.000000000	-15.581	-21.015	 -8.544	-157.044	 -8.569	-157.045	-21.988	-54.857
   18.100000000	-14.221	-21.123	 -8.596	-168.641	 -8.625	-168.632	-21.459	-46.277
   18.200000000	-13.387	-20.951	 -8.663	179.708	 -8.690	179.712	-21.148	-35.595
   18.300000000	-12.867	-21.465	 -8.738	168.007	 -8.766	168.011	-20.280	-22.070
   18.400000000	-12.531	-20.403	 -8.823	156.277	 -8.848	156.308	-19.071	-10.456
   18.500000000	-12.479	-20.283	 -8.933	144.601	 -8.961	144.592	-17.589	 -1.913
   18.600000000	-12.529	-19.488	 -9.071	132.935	 -9.101	132.928	-16.036	  3.078
   18.700000000	-12.938	-19.087	 -9.248	121.483	 -9.265	121.474	-14.726	  5.232
   18.800000000	-13.811	-17.952	 -9.454	110.478	 -9.479	110.476	-13.834	  3.504
   18.900000000	-15.242	-15.080	 -9.653	100.254	 -9.681	100.223	-13.566	 -0.443
   19.000000000	-17.259	 -5.602	 -9.729	 90.744	 -9.760	 90.712	-14.231	 -3.468
   19.100000000	-18.636	 11.219	 -9.591	 80.998	 -9.625	 81.108	-15.991	 -3.504
   19.200000000	-18.912	 35.463	 -9.346	 70.078	 -9.384	 70.180	-18.518	  6.504
   19.300000000	-18.107	 50.682	 -9.148	 57.954	 -9.192	 58.082	-19.506	 36.255
   19.400000000	-16.459	 65.418	 -9.076	 45.199	 -9.117	 45.317	-17.604	 58.681
   19.500000000	-15.416	 74.785	 -9.114	 32.358	 -9.147	 32.453	-14.803	 66.211
   19.600000000	-13.758	 77.459	 -9.204	 19.630	 -9.244	 19.733	-12.754	 67.895
   19.700000000	-12.627	 78.278	 -9.326	  7.010	 -9.367	  7.118	-11.311	 64.648
   19.800000000	-11.915	 75.230	 -9.456	 -5.510	 -9.489	 -5.416	-10.304	 60.495
   19.900000000	-11.554	 71.221	 -9.562	-18.100	 -9.613	-17.992	 -9.748	 55.137
   20.000000000	-11.371	 64.755	 -9.684	-30.689	 -9.723	-30.596	 -9.428	 49.031
