! Date: Wednesday, June 05, 2013  1:52 PM
! Filename: C:\Data\Mike_Arnold\TGP2105-SM\Over_Temp\TGP2105-SM_EVB01_25C_Phase52.s2p 
! Comments: 
!^VDC(V):5.000
!^VDC(mA):0.089
!%Freq(GHz),S11(dB),S11(ang),S21(dB),S21(ang),S12(dB),S12(ang),S22(dB),S22(ang)
# GHz   S   DB   R   50
    5.000000000	-17.110	 22.878	 -7.285	 60.659	 -7.301	 60.652	 -9.147	-127.661
    5.100000000	-18.344	-21.622	 -7.267	 43.048	 -7.279	 43.023	 -8.847	-136.228
    5.200000000	-16.831	-66.583	 -7.309	 25.956	 -7.324	 25.901	 -8.591	-143.699
    5.300000000	-14.202	-97.817	 -7.408	  9.441	 -7.423	  9.404	 -8.320	-150.966
    5.400000000	-11.908	-120.011	 -7.555	 -6.305	 -7.567	 -6.350	 -8.030	-157.647
    5.500000000	-10.096	-137.556	 -7.703	-21.226	 -7.714	-21.270	 -7.734	-164.157
    5.600000000	 -8.796	-152.417	 -7.807	-35.526	 -7.819	-35.585	 -7.414	-170.279
    5.700000000	 -7.773	-165.081	 -7.880	-49.768	 -7.889	-49.775	 -7.055	-176.331
    5.800000000	 -6.930	-176.510	 -7.997	-63.540	 -8.015	-63.609	 -6.664	177.058
    5.900000000	 -6.249	172.237	 -8.120	-76.638	 -8.138	-76.699	 -6.368	170.199
    6.000000000	 -5.793	161.368	 -8.192	-89.179	 -8.206	-89.176	 -6.176	162.904
    6.100000000	 -5.526	151.213	 -8.195	-101.224	 -8.208	-101.277	 -6.119	155.655
    6.200000000	 -5.361	141.330	 -8.124	-112.968	 -8.138	-113.001	 -6.149	148.370
    6.300000000	 -5.305	131.371	 -7.984	-124.695	 -7.996	-124.720	 -6.316	140.918
    6.400000000	 -5.419	121.471	 -7.773	-136.466	 -7.788	-136.513	 -6.633	133.088
    6.500000000	 -5.657	111.642	 -7.501	-148.460	 -7.508	-148.472	 -7.132	125.200
    6.600000000	 -5.990	101.713	 -7.204	-160.666	 -7.222	-160.717	 -7.797	117.122
    6.700000000	 -6.510	 91.167	 -6.874	-173.273	 -6.890	-173.301	 -8.714	108.601
    6.800000000	 -7.202	 80.462	 -6.537	173.631	 -6.557	173.691	 -9.931	 99.993
    6.900000000	 -8.076	 69.814	 -6.232	160.284	 -6.255	160.344	-11.523	 91.795
    7.000000000	 -9.105	 58.808	 -5.972	146.656	 -5.996	146.705	-13.558	 83.764
    7.100000000	-10.327	 47.897	 -5.762	132.848	 -5.781	132.893	-16.199	 77.107
    7.200000000	-11.704	 37.528	 -5.603	118.974	 -5.625	119.028	-19.643	 74.184
    7.300000000	-13.169	 27.737	 -5.503	105.207	 -5.524	105.257	-23.877	 80.920
    7.400000000	-14.698	 18.730	 -5.443	 91.566	 -5.463	 91.609	-27.315	107.419
    7.500000000	-16.270	 11.221	 -5.418	 78.091	 -5.437	 78.100	-26.025	137.106
    7.600000000	-17.765	  5.889	 -5.421	 64.800	 -5.445	 64.831	-23.295	143.022
    7.700000000	-19.116	  3.243	 -5.448	 51.718	 -5.465	 51.805	-21.355	137.632
    7.800000000	-20.129	  4.015	 -5.480	 38.927	 -5.502	 38.960	-19.768	128.238
    7.900000000	-20.717	  7.603	 -5.524	 26.269	 -5.549	 26.343	-18.383	115.885
    8.000000000	-20.540	 12.192	 -5.583	 13.814	 -5.602	 13.848	-17.053	102.408
    8.100000000	-19.888	 15.910	 -5.642	  1.508	 -5.668	  1.585	-15.904	 89.346
    8.200000000	-18.900	 16.967	 -5.708	-10.634	 -5.736	-10.548	-14.779	 77.303
    8.300000000	-17.793	 15.986	 -5.778	-22.501	 -5.806	-22.409	-13.705	 66.210
    8.400000000	-16.833	 12.320	 -5.846	-34.160	 -5.872	-34.106	-12.867	 56.154
    8.500000000	-16.225	  7.467	 -5.902	-45.770	 -5.932	-45.685	-12.233	 47.035
    8.600000000	-15.770	  1.398	 -5.949	-57.188	 -5.977	-57.082	-11.745	 39.158
    8.700000000	-15.629	 -5.658	 -5.976	-68.550	 -6.004	-68.473	-11.486	 31.922
    8.800000000	-15.861	-14.088	 -5.989	-79.861	 -6.014	-79.821	-11.439	 25.367
    8.900000000	-16.494	-23.456	 -5.980	-91.199	 -6.013	-91.143	-11.617	 20.127
    9.000000000	-17.490	-34.061	 -5.970	-102.594	 -5.998	-102.505	-11.951	 14.913
    9.100000000	-18.903	-47.288	 -5.952	-114.042	 -5.974	-113.977	-12.417	 10.982
    9.200000000	-20.808	-65.008	 -5.933	-125.574	 -5.961	-125.501	-13.111	  8.004
    9.300000000	-22.796	-89.285	 -5.920	-137.185	 -5.952	-137.095	-13.772	  5.312
    9.400000000	-23.765	-120.924	 -5.920	-148.757	 -5.947	-148.688	-14.494	  3.267
    9.500000000	-22.819	-150.924	 -5.927	-160.378	 -5.957	-160.287	-15.270	 -0.069
    9.600000000	-21.243	-172.324	 -5.945	-171.925	 -5.974	-171.837	-15.952	 -4.583
    9.700000000	-19.624	175.069	 -5.965	176.567	 -5.997	176.633	-16.650	-11.019
    9.800000000	-18.172	167.280	 -5.998	165.051	 -6.027	165.123	-17.457	-21.932
    9.900000000	-16.974	162.023	 -6.035	153.575	 -6.070	153.654	-18.025	-36.951
   10.000000000	-16.670	148.970	 -6.107	142.062	 -6.133	142.151	-17.076	-51.153
   10.100000000	-15.862	142.860	 -6.167	130.634	 -6.196	130.747	-16.438	-67.308
   10.200000000	-14.911	137.608	 -6.243	119.330	 -6.270	119.464	-15.528	-81.641
   10.300000000	-14.297	132.383	 -6.320	108.127	 -6.355	108.247	-14.497	-95.254
   10.400000000	-13.680	126.795	 -6.409	 97.005	 -6.440	 97.111	-13.412	-106.678
   10.500000000	-13.318	121.710	 -6.504	 85.996	 -6.534	 86.107	-12.593	-116.741
   10.600000000	-13.073	115.844	 -6.604	 75.098	 -6.635	 75.162	-11.710	-125.743
   10.700000000	-13.098	109.848	 -6.709	 64.355	 -6.729	 64.323	-11.121	-133.418
   10.800000000	-13.255	104.244	 -6.804	 53.587	 -6.818	 53.565	-10.618	-140.934
   10.900000000	-13.778	 97.941	 -6.892	 42.883	 -6.908	 42.830	-10.245	-147.288
   11.000000000	-14.458	 92.158	 -6.970	 32.129	 -6.995	 32.111	 -9.983	-153.805
   11.100000000	-15.619	 85.773	 -7.047	 21.404	 -7.063	 21.364	 -9.842	-159.781
   11.200000000	-17.186	 80.279	 -7.118	 10.614	 -7.134	 10.583	 -9.743	-165.642
   11.300000000	-19.584	 74.688	 -7.184	 -0.197	 -7.200	 -0.241	 -9.694	-171.663
   11.400000000	-23.304	 70.165	 -7.255	-11.107	 -7.267	-11.149	 -9.679	-177.730
   11.500000000	-31.087	 73.849	 -7.328	-22.056	 -7.345	-22.065	 -9.655	176.100
   11.600000000	-35.174	-152.328	 -7.409	-33.049	 -7.424	-33.106	 -9.610	169.628
   11.700000000	-24.136	-141.127	 -7.499	-44.049	 -7.522	-44.100	 -9.552	162.859
   11.800000000	-19.226	-145.010	 -7.609	-55.104	 -7.623	-55.101	 -9.434	155.859
   11.900000000	-16.164	-151.055	 -7.731	-66.096	 -7.749	-66.152	 -9.276	148.557
   12.000000000	-13.936	-157.068	 -7.868	-77.079	 -7.882	-77.104	 -9.066	140.966
   12.100000000	-12.177	-163.492	 -8.021	-87.986	 -8.033	-88.036	 -8.839	133.551
   12.200000000	-10.793	-170.257	 -8.183	-98.810	 -8.195	-98.867	 -8.606	126.007
   12.300000000	 -9.749	-177.303	 -8.353	-109.539	 -8.368	-109.601	 -8.360	118.598
   12.400000000	 -8.896	175.753	 -8.524	-120.175	 -8.537	-120.237	 -8.143	111.323
   12.500000000	 -8.233	168.403	 -8.695	-130.699	 -8.710	-130.723	 -7.951	104.452
   12.600000000	 -7.706	160.914	 -8.861	-141.092	 -8.870	-141.145	 -7.793	 97.633
   12.700000000	 -7.352	153.286	 -9.005	-151.438	 -9.016	-151.455	 -7.700	 91.311
   12.800000000	 -7.065	145.383	 -9.136	-161.699	 -9.153	-161.763	 -7.675	 85.174
   12.900000000	 -6.876	137.041	 -9.251	-171.954	 -9.269	-172.012	 -7.700	 79.203
   13.000000000	 -6.770	128.553	 -9.348	177.811	 -9.362	177.706	 -7.805	 73.495
   13.100000000	 -6.713	119.845	 -9.423	167.562	 -9.439	167.486	 -7.975	 67.801
   13.200000000	 -6.655	110.994	 -9.490	157.335	 -9.501	157.254	 -8.213	 62.195
   13.300000000	 -6.651	101.796	 -9.528	147.116	 -9.546	147.057	 -8.538	 56.525
   13.400000000	 -6.624	 92.803	 -9.552	136.858	 -9.568	136.791	 -8.960	 50.959
   13.500000000	 -6.583	 83.642	 -9.569	126.554	 -9.583	126.449	 -9.405	 44.869
   13.600000000	 -6.517	 74.516	 -9.579	116.206	 -9.589	116.101	 -9.967	 38.863
   13.700000000	 -6.487	 65.877	 -9.589	105.875	 -9.600	105.792	-10.595	 32.179
   13.800000000	 -6.431	 57.690	 -9.591	 95.565	 -9.600	 95.478	-11.279	 25.639
   13.900000000	 -6.357	 50.375	 -9.587	 85.244	 -9.596	 85.134	-12.050	 18.651
   14.000000000	 -6.302	 43.223	 -9.581	 74.928	 -9.589	 74.819	-12.867	 12.086
   14.100000000	 -6.277	 37.251	 -9.558	 64.594	 -9.567	 64.535	-13.769	  5.478
   14.200000000	 -6.269	 31.790	 -9.523	 54.309	 -9.533	 54.215	-14.841	 -0.196
   14.300000000	 -6.289	 27.364	 -9.482	 43.904	 -9.491	 43.873	-16.042	 -3.690
   14.400000000	 -6.355	 23.682	 -9.424	 33.521	 -9.434	 33.412	-17.384	 -3.754
   14.500000000	 -6.388	 20.949	 -9.368	 22.973	 -9.379	 22.908	-18.774	 -0.382
   14.600000000	 -6.513	 18.667	 -9.298	 12.392	 -9.313	 12.305	-19.612	 10.468
   14.700000000	 -6.541	 17.690	 -9.242	  1.696	 -9.258	  1.655	-19.399	 24.837
   14.800000000	 -6.644	 16.847	 -9.183	 -9.028	 -9.197	 -9.119	-17.941	 34.723
   14.900000000	 -6.657	 15.957	 -9.149	-19.784	 -9.158	-19.818	-16.108	 40.483
   15.000000000	 -6.690	 16.048	 -9.121	-30.428	 -9.132	-30.492	-14.449	 41.459
   15.100000000	 -6.731	 15.092	 -9.105	-40.977	 -9.110	-41.042	-13.121	 39.743
   15.200000000	 -6.848	 14.351	 -9.085	-51.398	 -9.098	-51.474	-12.118	 36.862
   15.300000000	 -6.997	 13.059	 -9.067	-61.714	 -9.076	-61.787	-11.366	 33.417
   15.400000000	 -7.255	 11.068	 -9.040	-71.926	 -9.056	-72.012	-10.933	 29.477
   15.500000000	 -7.690	  8.896	 -9.000	-82.122	 -9.020	-82.125	-10.708	 25.299
   15.600000000	 -8.230	  5.991	 -8.954	-92.257	 -8.970	-92.252	-10.719	 21.782
   15.700000000	 -8.954	  2.271	 -8.895	-102.423	 -8.916	-102.482	-10.919	 18.182
   15.800000000	 -9.894	 -2.623	 -8.832	-112.771	 -8.849	-112.817	-11.343	 14.702
   15.900000000	-10.957	 -8.040	 -8.772	-123.236	 -8.789	-123.257	-11.914	 11.312
   16.000000000	-12.200	-15.482	 -8.719	-133.808	 -8.735	-133.859	-12.751	  8.506
   16.100000000	-13.487	-25.503	 -8.672	-144.676	 -8.696	-144.635	-13.805	  4.170
   16.200000000	-14.720	-37.559	 -8.648	-155.545	 -8.671	-155.464	-15.024	  0.432
   16.300000000	-15.562	-52.083	 -8.633	-166.528	 -8.655	-166.487	-16.828	 -5.307
   16.400000000	-15.817	-67.725	 -8.630	-177.572	 -8.660	-177.557	-19.045	-13.521
   16.500000000	-15.608	-83.233	 -8.649	171.363	 -8.674	171.439	-22.189	-24.672
   16.600000000	-15.014	-94.556	 -8.677	160.348	 -8.703	160.406	-26.393	-50.712
   16.700000000	-14.198	-105.917	 -8.713	149.350	 -8.740	149.422	-29.117	-101.012
   16.800000000	-13.732	-111.704	 -8.744	138.534	 -8.771	138.601	-24.937	-155.095
   16.900000000	-13.188	-119.838	 -8.765	127.811	 -8.795	127.867	-21.929	-166.368
   17.000000000	-13.008	-123.283	 -8.770	117.184	 -8.795	117.240	-19.947	177.581
   17.100000000	-13.070	-130.535	 -8.763	106.631	 -8.790	106.693	-18.439	171.998
   17.200000000	-13.162	-133.111	 -8.737	 96.079	 -8.765	 96.102	-18.275	162.212
   17.300000000	-14.103	-137.430	 -8.680	 85.531	 -8.700	 85.577	-17.939	153.273
   17.400000000	-15.022	-140.402	 -8.611	 74.866	 -8.640	 74.895	-18.440	145.477
   17.500000000	-16.738	-144.306	 -8.529	 64.055	 -8.551	 64.104	-19.146	134.531
   17.600000000	-19.192	-147.983	 -8.440	 53.069	 -8.466	 53.108	-20.273	120.943
   17.700000000	-23.304	-151.676	 -8.361	 41.856	 -8.384	 41.862	-21.296	102.471
   17.800000000	-32.012	-157.759	 -8.294	 30.476	 -8.325	 30.493	-21.419	 81.710
   17.900000000	-32.922	 28.267	 -8.249	 18.899	 -8.272	 18.898	-20.508	 62.385
   18.000000000	-23.178	 27.311	 -8.222	  7.213	 -8.245	  7.231	-18.914	 46.961
   18.100000000	-18.424	 23.127	 -8.222	 -4.598	 -8.240	 -4.567	-17.163	 37.336
   18.200000000	-15.432	 21.074	 -8.232	-16.404	 -8.260	-16.367	-15.496	 31.263
   18.300000000	-13.371	 18.004	 -8.265	-28.128	 -8.288	-28.138	-13.845	 26.420
   18.400000000	-11.676	 15.563	 -8.312	-39.777	 -8.333	-39.776	-12.516	 22.598
   18.500000000	-10.532	 12.358	 -8.352	-51.297	 -8.371	-51.259	-11.453	 19.106
   18.600000000	 -9.634	  9.111	 -8.388	-62.630	 -8.417	-62.626	-10.593	 16.019
   18.700000000	 -9.114	  5.706	 -8.406	-73.803	 -8.427	-73.799	 -9.974	 13.545
   18.800000000	 -8.911	  2.395	 -8.396	-84.910	 -8.418	-84.875	 -9.591	 10.653
   18.900000000	 -9.003	 -1.188	 -8.362	-95.989	 -8.390	-95.965	 -9.442	  8.247
   19.000000000	 -9.459	 -4.453	 -8.304	-107.069	 -8.328	-107.055	 -9.480	  7.354
   19.100000000	-10.186	 -7.960	 -8.231	-118.387	 -8.263	-118.288	 -9.645	  6.637
   19.200000000	-11.550	-10.100	 -8.143	-129.772	 -8.179	-129.671	 -9.917	  6.090
   19.300000000	-13.237	-13.326	 -8.062	-141.376	 -8.101	-141.301	-10.239	  7.610
   19.400000000	-15.878	-11.503	 -7.987	-153.378	 -8.019	-153.314	-10.584	  8.123
   19.500000000	-19.910	-10.713	 -7.939	-165.638	 -7.972	-165.531	-10.704	  9.158
   19.600000000	-24.354	 11.914	 -7.917	-178.116	 -7.957	-177.991	-10.962	  9.615
   19.700000000	-26.198	 64.387	 -7.936	169.318	 -7.970	169.416	-11.073	  8.059
   19.800000000	-22.752	 90.964	 -7.971	156.584	 -8.003	156.679	-11.345	  5.526
   19.900000000	-20.015	 99.606	 -8.022	143.671	 -8.053	143.748	-11.786	  0.561
   20.000000000	-18.237	 98.112	 -8.088	130.664	 -8.126	130.763	-12.364	 -5.637
