! Date: Wednesday, June 05, 2013  1:51 PM
! Filename: C:\Data\Mike_Arnold\TGP2105-SM\Over_Temp\TGP2105-SM_EVB01_25C_Phase31.s2p 
! Comments: 
!^VDC(V):5.000
!^VDC(mA):0.142
!%Freq(GHz),S11(dB),S11(ang),S21(dB),S21(ang),S12(dB),S12(ang),S22(dB),S22(ang)
# GHz   S   DB   R   50
    5.000000000	-13.345	118.597	 -6.727	-53.038	 -6.742	-53.077	 -8.719	-164.007
    5.100000000	-13.423	122.732	 -6.639	-71.039	 -6.653	-71.040	 -8.126	-169.144
    5.200000000	-13.013	123.039	 -6.603	-88.113	 -6.617	-88.104	 -7.604	-175.972
    5.300000000	-12.668	119.207	 -6.582	-104.407	 -6.597	-104.447	 -7.228	175.855
    5.400000000	-12.646	112.880	 -6.550	-120.089	 -6.565	-120.119	 -7.042	167.453
    5.500000000	-13.075	105.908	 -6.501	-135.294	 -6.516	-135.296	 -7.023	159.024
    5.600000000	-13.852	 98.510	 -6.439	-150.089	 -6.458	-150.111	 -7.139	151.226
    5.700000000	-15.206	 91.286	 -6.367	-164.752	 -6.379	-164.781	 -7.411	143.750
    5.800000000	-17.476	 86.102	 -6.294	-179.238	 -6.308	-179.281	 -7.790	137.276
    5.900000000	-20.766	 88.906	 -6.235	166.454	 -6.253	166.411	 -8.275	131.832
    6.000000000	-24.285	111.267	 -6.210	152.329	 -6.224	152.280	 -8.754	127.171
    6.100000000	-23.369	148.748	 -6.224	138.526	 -6.245	138.485	 -9.234	123.021
    6.200000000	-19.549	160.320	 -6.266	125.401	 -6.279	125.366	 -9.698	119.080
    6.300000000	-17.229	156.291	 -6.226	113.125	 -6.236	113.093	-10.301	114.702
    6.400000000	-16.299	153.296	 -6.012	100.475	 -6.032	100.436	-11.005	111.576
    6.500000000	-15.237	151.826	 -5.847	 86.951	 -5.866	 86.947	-11.480	109.315
    6.600000000	-14.136	146.946	 -5.780	 73.475	 -5.793	 73.442	-11.758	105.154
    6.700000000	-13.523	139.938	 -5.740	 60.297	 -5.755	 60.287	-12.148	 98.594
    6.800000000	-13.258	132.055	 -5.694	 47.243	 -5.719	 47.306	-12.700	 89.929
    6.900000000	-13.241	124.039	 -5.659	 34.423	 -5.686	 34.471	-13.459	 79.550
    7.000000000	-13.532	115.572	 -5.625	 21.653	 -5.650	 21.704	-14.369	 66.726
    7.100000000	-14.036	107.423	 -5.599	  8.914	 -5.620	  8.949	-15.440	 50.941
    7.200000000	-14.638	 99.569	 -5.576	 -3.780	 -5.600	 -3.746	-16.489	 32.492
    7.300000000	-15.294	 91.707	 -5.570	-16.423	 -5.594	-16.354	-17.256	 11.861
    7.400000000	-15.976	 83.831	 -5.576	-28.957	 -5.601	-28.912	-17.533	 -9.818
    7.500000000	-16.607	 76.197	 -5.587	-41.429	 -5.614	-41.390	-17.408	-30.556
    7.600000000	-17.027	 68.173	 -5.614	-53.776	 -5.640	-53.732	-17.092	-48.421
    7.700000000	-17.318	 59.967	 -5.644	-65.983	 -5.671	-65.913	-16.737	-63.645
    7.800000000	-17.463	 51.904	 -5.683	-78.062	 -5.704	-78.016	-16.517	-77.520
    7.900000000	-17.516	 44.525	 -5.714	-90.056	 -5.740	-90.005	-16.566	-90.201
    8.000000000	-17.430	 37.130	 -5.745	-101.949	 -5.771	-101.923	-16.956	-102.385
    8.100000000	-17.398	 30.956	 -5.777	-113.799	 -5.808	-113.709	-17.522	-115.550
    8.200000000	-17.345	 25.765	 -5.817	-125.562	 -5.844	-125.495	-18.379	-130.895
    8.300000000	-17.277	 21.885	 -5.857	-137.319	 -5.885	-137.211	-19.479	-150.061
    8.400000000	-17.179	 18.580	 -5.895	-148.988	 -5.927	-148.925	-20.383	-173.143
    8.500000000	-17.178	 16.483	 -5.945	-160.590	 -5.974	-160.533	-20.494	160.207
    8.600000000	-17.037	 14.653	 -5.996	-172.217	 -6.027	-172.118	-19.645	134.078
    8.700000000	-16.880	 12.273	 -6.054	176.301	 -6.083	176.374	-18.389	113.379
    8.800000000	-16.873	  8.833	 -6.106	164.853	 -6.134	164.938	-17.171	 97.451
    8.900000000	-17.005	  4.776	 -6.157	153.476	 -6.186	153.549	-16.104	 85.381
    9.000000000	-17.331	 -0.842	 -6.191	142.104	 -6.223	142.209	-15.498	 75.180
    9.100000000	-17.983	 -8.245	 -6.220	130.781	 -6.251	130.849	-15.138	 67.017
    9.200000000	-19.170	-18.104	 -6.240	119.438	 -6.269	119.495	-15.207	 61.417
    9.300000000	-20.885	-30.986	 -6.248	108.013	 -6.281	108.062	-15.522	 56.337
    9.400000000	-23.085	-50.947	 -6.266	 96.517	 -6.292	 96.591	-16.116	 53.768
    9.500000000	-25.126	-85.024	 -6.277	 85.000	 -6.305	 85.077	-17.075	 53.216
    9.600000000	-24.963	-125.388	 -6.300	 73.452	 -6.327	 73.518	-18.092	 54.748
    9.700000000	-22.539	-155.100	 -6.331	 61.928	 -6.361	 62.015	-18.993	 58.607
    9.800000000	-20.175	-173.505	 -6.369	 50.463	 -6.401	 50.578	-19.967	 64.253
    9.900000000	-18.469	174.583	 -6.414	 39.033	 -6.443	 39.114	-20.875	 69.613
   10.000000000	-18.732	160.922	 -6.448	 27.409	 -6.484	 27.490	-22.881	 66.056
   10.100000000	-18.021	152.938	 -6.494	 16.024	 -6.524	 16.127	-24.752	 65.643
   10.200000000	-17.163	147.687	 -6.539	  4.690	 -6.568	  4.754	-27.143	 61.268
   10.300000000	-16.761	144.167	 -6.585	 -6.585	 -6.616	 -6.506	-32.071	 51.525
   10.400000000	-16.226	142.024	 -6.627	-17.860	 -6.665	-17.768	-40.307	-19.439
   10.500000000	-15.749	141.595	 -6.680	-29.078	 -6.719	-29.006	-32.070	-89.474
   10.600000000	-15.188	140.980	 -6.740	-40.307	 -6.776	-40.236	-25.444	-106.936
   10.700000000	-14.642	140.529	 -6.815	-51.403	 -6.835	-51.440	-21.837	-114.765
   10.800000000	-13.940	139.635	 -6.886	-62.601	 -6.905	-62.652	-19.303	-122.576
   10.900000000	-13.413	138.094	 -6.965	-73.758	 -6.982	-73.767	-17.411	-128.867
   11.000000000	-12.823	135.772	 -7.045	-84.844	 -7.063	-84.908	-16.043	-135.751
   11.100000000	-12.447	132.896	 -7.122	-95.919	 -7.145	-95.970	-15.086	-142.386
   11.200000000	-12.080	129.759	 -7.209	-106.957	 -7.231	-106.998	-14.362	-149.275
   11.300000000	-11.886	126.271	 -7.288	-117.988	 -7.308	-118.024	-13.868	-156.634
   11.400000000	-11.803	122.462	 -7.363	-128.960	 -7.378	-129.022	-13.564	-164.014
   11.500000000	-11.824	118.806	 -7.439	-139.898	 -7.452	-139.926	-13.366	-171.463
   11.600000000	-11.980	114.643	 -7.499	-150.857	 -7.519	-150.879	-13.266	-179.109
   11.700000000	-12.307	110.737	 -7.561	-161.775	 -7.578	-161.819	-13.242	173.034
   11.800000000	-12.778	107.012	 -7.614	-172.717	 -7.632	-172.767	-13.189	165.380
   11.900000000	-13.357	103.047	 -7.665	176.397	 -7.690	176.335	-13.119	157.765
   12.000000000	-14.229	 99.221	 -7.715	165.412	 -7.732	165.388	-12.997	150.186
   12.100000000	-15.375	 96.142	 -7.758	154.468	 -7.780	154.414	-12.803	143.463
   12.200000000	-16.846	 94.391	 -7.807	143.490	 -7.823	143.421	-12.570	136.853
   12.300000000	-18.643	 94.192	 -7.859	132.498	 -7.874	132.425	-12.248	130.756
   12.400000000	-21.043	 99.236	 -7.907	121.458	 -7.926	121.374	-11.909	125.092
   12.500000000	-23.403	112.694	 -7.962	110.414	 -7.977	110.373	-11.518	119.941
   12.600000000	-24.141	137.229	 -8.018	 99.365	 -8.035	 99.295	-11.122	114.881
   12.700000000	-22.734	157.671	 -8.076	 88.292	 -8.095	 88.229	-10.728	110.201
   12.800000000	-20.308	165.614	 -8.141	 77.282	 -8.157	 77.191	-10.389	105.634
   12.900000000	-18.283	165.174	 -8.207	 66.231	 -8.224	 66.185	-10.076	101.094
   13.000000000	-16.693	161.432	 -8.272	 55.274	 -8.287	 55.199	 -9.820	 96.768
   13.100000000	-15.402	155.293	 -8.335	 44.279	 -8.354	 44.259	 -9.622	 92.371
   13.200000000	-14.296	147.280	 -8.404	 33.432	 -8.418	 33.361	 -9.488	 88.005
   13.300000000	-13.474	138.159	 -8.464	 22.545	 -8.476	 22.538	 -9.413	 83.560
   13.400000000	-12.684	128.657	 -8.514	 11.804	 -8.531	 11.741	 -9.412	 79.134
   13.500000000	-11.969	118.534	 -8.572	  1.036	 -8.590	  0.957	 -9.436	 74.105
   13.600000000	-11.281	107.918	 -8.634	 -9.728	 -8.646	 -9.836	 -9.515	 69.121
   13.700000000	-10.662	 97.871	 -8.706	-20.482	 -8.716	-20.570	 -9.656	 63.514
   13.800000000	-10.016	 88.072	 -8.782	-31.154	 -8.792	-31.231	 -9.781	 57.600
   13.900000000	 -9.375	 79.136	 -8.866	-41.747	 -8.880	-41.872	 -9.965	 51.134
   14.000000000	 -8.803	 70.234	 -8.965	-52.268	 -8.976	-52.372	-10.115	 44.414
   14.100000000	 -8.272	 62.761	 -9.062	-62.712	 -9.072	-62.779	-10.284	 37.099
   14.200000000	 -7.812	 55.630	 -9.169	-72.995	 -9.178	-73.098	-10.510	 29.866
   14.300000000	 -7.411	 49.465	 -9.268	-83.183	 -9.285	-83.266	-10.722	 22.969
   14.400000000	 -7.117	 44.071	 -9.357	-93.259	 -9.371	-93.341	-10.958	 16.476
   14.500000000	 -6.838	 39.433	 -9.441	-103.239	 -9.451	-103.356	-11.297	 10.028
   14.600000000	 -6.742	 35.476	 -9.482	-113.136	 -9.501	-113.216	-11.684	  5.014
   14.700000000	 -6.607	 32.653	 -9.527	-123.007	 -9.541	-123.068	-12.242	  0.931
   14.800000000	 -6.638	 30.397	 -9.535	-132.835	 -9.547	-132.931	-12.833	 -2.064
   14.900000000	 -6.661	 28.395	 -9.529	-142.743	 -9.546	-142.802	-13.573	 -2.417
   15.000000000	 -6.725	 27.985	 -9.515	-152.623	 -9.527	-152.687	-14.395	 -0.751
   15.100000000	 -6.832	 27.217	 -9.479	-162.560	 -9.493	-162.614	-15.090	  3.401
   15.200000000	 -6.969	 27.418	 -9.441	-172.509	 -9.455	-172.597	-15.590	  9.674
   15.300000000	 -7.082	 27.575	 -9.406	177.452	 -9.416	177.408	-15.608	 17.488
   15.400000000	 -7.224	 27.371	 -9.362	167.461	 -9.379	167.363	-15.312	 23.985
   15.500000000	 -7.433	 27.334	 -9.322	157.394	 -9.343	157.344	-14.764	 28.485
   15.600000000	 -7.662	 26.575	 -9.292	147.395	 -9.314	147.371	-14.224	 31.844
   15.700000000	 -7.992	 25.112	 -9.254	137.314	 -9.276	137.284	-13.758	 33.258
   15.800000000	 -8.462	 22.719	 -9.217	127.190	 -9.230	127.175	-13.518	 33.606
   15.900000000	 -9.000	 19.803	 -9.169	117.059	 -9.190	117.006	-13.411	 33.100
   16.000000000	 -9.704	 15.341	 -9.130	106.698	 -9.140	106.692	-13.514	 33.296
   16.100000000	-10.549	  9.374	 -9.074	 96.197	 -9.100	 96.229	-13.853	 31.867
   16.200000000	-11.460	  2.228	 -9.039	 85.616	 -9.072	 85.645	-14.173	 30.998
   16.300000000	-12.367	 -6.935	 -9.013	 74.859	 -9.041	 74.914	-14.838	 29.625
   16.400000000	-13.142	-18.089	 -8.991	 64.026	 -9.021	 64.016	-15.612	 27.115
   16.500000000	-13.766	-30.880	 -8.984	 53.107	 -9.016	 53.151	-16.520	 24.520
   16.600000000	-13.854	-43.229	 -8.984	 42.167	 -9.014	 42.212	-17.817	 19.503
   16.700000000	-13.714	-57.076	 -8.996	 31.190	 -9.024	 31.250	-19.250	 12.924
   16.800000000	-13.201	-65.517	 -9.012	 20.299	 -9.041	 20.331	-22.166	  4.090
   16.900000000	-12.759	-75.837	 -9.035	  9.410	 -9.059	  9.465	-23.922	-20.057
   17.000000000	-12.130	-81.575	 -9.056	 -1.244	 -9.085	 -1.219	-26.320	-44.099
   17.100000000	-11.978	-88.754	 -9.072	-11.910	 -9.106	-11.852	-25.401	-83.680
   17.200000000	-11.452	-93.522	 -9.094	-22.484	 -9.122	-22.474	-24.129	-101.007
   17.300000000	-11.614	-96.687	 -9.092	-32.931	 -9.116	-32.886	-23.036	-119.669
   17.400000000	-11.669	-100.089	 -9.081	-43.358	 -9.118	-43.300	-22.014	-128.736
   17.500000000	-12.162	-102.483	 -9.056	-53.815	 -9.082	-53.779	-22.078	-136.662
   17.600000000	-12.870	-104.152	 -9.018	-64.388	 -9.040	-64.382	-22.876	-140.911
   17.700000000	-13.936	-104.376	 -8.973	-75.116	 -8.994	-75.142	-24.870	-142.735
   17.800000000	-15.268	-102.472	 -8.932	-86.067	 -8.952	-86.039	-28.391	-142.129
   17.900000000	-16.889	-97.014	 -8.889	-97.180	 -8.920	-97.162	-36.043	-127.028
   18.000000000	-18.948	-88.301	 -8.863	-108.470	 -8.891	-108.485	-36.006	-15.712
   18.100000000	-20.571	-70.425	 -8.856	-119.990	 -8.885	-119.941	-28.021	  5.267
   18.200000000	-21.301	-47.379	 -8.864	-131.637	 -8.895	-131.614	-23.950	 12.619
   18.300000000	-20.557	-27.319	 -8.905	-143.305	 -8.928	-143.308	-20.804	 17.116
   18.400000000	-19.045	-10.032	 -8.968	-155.033	 -8.994	-155.006	-18.620	 20.951
   18.500000000	-17.622	 -0.106	 -9.061	-166.665	 -9.094	-166.636	-16.734	 24.192
   18.600000000	-16.190	  6.658	 -9.198	-178.120	 -9.225	-178.118	-14.975	 26.503
   18.700000000	-15.202	 11.162	 -9.359	170.731	 -9.397	170.766	-13.359	 27.645
   18.800000000	-14.624	 14.932	 -9.547	160.158	 -9.572	160.147	-12.057	 26.163
   18.900000000	-14.378	 19.030	 -9.682	150.358	 -9.702	150.405	-11.105	 23.041
   19.000000000	-14.192	 25.744	 -9.671	141.204	 -9.693	141.206	-10.575	 19.857
   19.100000000	-13.613	 31.189	 -9.456	131.538	 -9.494	131.662	-10.555	 16.425
   19.200000000	-13.013	 36.099	 -9.155	120.824	 -9.189	120.928	-10.923	 13.582
   19.300000000	-12.760	 34.786	 -8.877	109.027	 -8.920	109.076	-11.592	 14.122
   19.400000000	-12.958	 35.467	 -8.699	 96.509	 -8.735	 96.631	-12.532	 15.217
   19.500000000	-14.248	 34.992	 -8.569	 83.695	 -8.610	 83.751	-13.319	 20.209
   19.600000000	-15.352	 38.443	 -8.509	 70.580	 -8.551	 70.644	-14.007	 28.634
   19.700000000	-16.832	 47.354	 -8.488	 57.240	 -8.530	 57.357	-13.973	 36.951
   19.800000000	-17.689	 58.436	 -8.515	 43.716	 -8.546	 43.767	-13.434	 44.225
   19.900000000	-17.779	 70.664	 -8.582	 29.974	 -8.615	 30.107	-12.690	 47.718
   20.000000000	-17.094	 76.342	 -8.674	 16.269	 -8.713	 16.359	-11.866	 47.694
