! Date: Wednesday, June 05, 2013  1:49 PM
! Filename: C:\Data\Mike_Arnold\TGP2105-SM\Over_Temp\TGP2105-SM_EVB01_25C_Phase10.s2p 
! Comments: 
!^VDC(V):5.000
!^VDC(mA):0.062
!%Freq(GHz),S11(dB),S11(ang),S21(dB),S21(ang),S12(dB),S12(ang),S22(dB),S22(ang)
# GHz   S   DB   R   50
    5.000000000	 -8.695	 83.908	 -7.357	-179.288	 -7.375	-179.305	 -6.342	 93.928
    5.100000000	-10.297	 72.232	 -7.075	165.155	 -7.091	165.114	 -6.768	 86.910
    5.200000000	-12.771	 61.001	 -6.808	149.319	 -6.823	149.291	 -7.422	 80.671
    5.300000000	-16.741	 51.100	 -6.592	133.274	 -6.611	133.272	 -8.208	 76.182
    5.400000000	-24.770	 51.358	 -6.449	117.143	 -6.463	117.134	 -9.069	 73.376
    5.500000000	-27.144	167.449	 -6.396	101.191	 -6.411	101.167	 -9.839	 72.592
    5.600000000	-17.983	172.444	 -6.417	 85.591	 -6.433	 85.552	-10.415	 73.283
    5.700000000	-14.051	163.278	 -6.497	 70.503	 -6.511	 70.481	-10.679	 73.600
    5.800000000	-11.816	153.283	 -6.597	 55.976	 -6.610	 55.981	-10.769	 72.743
    5.900000000	-10.355	143.008	 -6.707	 42.051	 -6.717	 42.018	-10.896	 70.271
    6.000000000	 -9.465	132.717	 -6.802	 28.565	 -6.819	 28.511	-11.116	 66.397
    6.100000000	 -9.012	122.783	 -6.878	 15.453	 -6.897	 15.430	-11.592	 61.252
    6.200000000	 -8.815	113.287	 -6.934	  2.894	 -6.947	  2.854	-12.397	 56.208
    6.300000000	 -8.861	103.327	 -6.900	 -9.165	 -6.913	 -9.178	-13.290	 52.269
    6.400000000	 -9.350	 93.667	 -6.705	-21.519	 -6.719	-21.544	-14.048	 47.170
    6.500000000	-10.084	 85.752	 -6.525	-34.766	 -6.536	-34.821	-15.192	 38.903
    6.600000000	-10.863	 79.173	 -6.405	-48.186	 -6.419	-48.203	-17.075	 29.837
    6.700000000	-11.739	 72.602	 -6.332	-61.668	 -6.350	-61.697	-19.714	 22.288
    6.800000000	-12.717	 66.736	 -6.283	-75.125	 -6.307	-75.069	-23.295	 17.919
    6.900000000	-13.744	 62.168	 -6.268	-88.419	 -6.290	-88.362	-28.549	 25.318
    7.000000000	-14.680	 57.534	 -6.280	-101.615	 -6.304	-101.534	-31.801	 64.270
    7.100000000	-15.567	 53.428	 -6.305	-114.623	 -6.332	-114.579	-28.643	 93.049
    7.200000000	-16.316	 49.923	 -6.346	-127.537	 -6.366	-127.462	-25.240	 94.623
    7.300000000	-16.839	 46.374	 -6.396	-140.261	 -6.420	-140.209	-22.732	 86.742
    7.400000000	-17.144	 42.404	 -6.450	-152.897	 -6.477	-152.828	-20.909	 74.631
    7.500000000	-17.270	 38.063	 -6.514	-165.353	 -6.540	-165.303	-19.411	 61.913
    7.600000000	-17.092	 33.601	 -6.579	-177.701	 -6.605	-177.653	-18.037	 49.636
    7.700000000	-16.766	 28.399	 -6.642	170.128	 -6.672	170.199	-16.765	 37.609
    7.800000000	-16.337	 22.849	 -6.706	158.088	 -6.735	158.156	-15.712	 26.322
    7.900000000	-15.909	 17.223	 -6.764	146.186	 -6.796	146.242	-14.766	 16.520
    8.000000000	-15.385	 11.044	 -6.819	134.429	 -6.845	134.492	-13.953	  7.593
    8.100000000	-15.053	  4.611	 -6.856	122.781	 -6.888	122.876	-13.376	 -1.254
    8.200000000	-14.807	 -2.173	 -6.886	111.140	 -6.913	111.286	-13.040	 -9.346
    8.300000000	-14.733	 -8.764	 -6.899	 99.650	 -6.922	 99.763	-12.935	-16.783
    8.400000000	-14.830	-15.748	 -6.887	 88.145	 -6.916	 88.241	-13.050	-24.415
    8.500000000	-15.310	-22.870	 -6.866	 76.550	 -6.895	 76.654	-13.518	-32.310
    8.600000000	-16.060	-29.677	 -6.832	 64.865	 -6.860	 64.981	-14.366	-39.904
    8.700000000	-17.147	-36.318	 -6.794	 53.053	 -6.822	 53.164	-15.622	-48.182
    8.800000000	-18.693	-43.365	 -6.766	 41.096	 -6.796	 41.184	-17.429	-57.418
    8.900000000	-20.908	-49.721	 -6.752	 29.088	 -6.776	 29.143	-20.209	-69.059
    9.000000000	-23.729	-55.076	 -6.750	 16.965	 -6.777	 17.065	-23.851	-86.174
    9.100000000	-27.345	-59.640	 -6.770	  4.867	 -6.800	  4.949	-28.617	-122.928
    9.200000000	-32.388	-68.734	 -6.805	 -7.247	 -6.839	 -7.165	-27.675	176.130
    9.300000000	-38.868	-100.509	 -6.853	-19.284	 -6.890	-19.191	-23.959	147.877
    9.400000000	-36.976	-158.058	 -6.911	-31.264	 -6.945	-31.172	-20.850	135.648
    9.500000000	-30.522	-171.947	 -6.980	-43.123	 -7.012	-43.052	-18.736	131.241
    9.600000000	-25.939	-177.681	 -7.055	-55.019	 -7.085	-54.879	-17.119	128.696
    9.700000000	-22.327	-179.969	 -7.136	-66.781	 -7.165	-66.671	-15.723	126.729
    9.800000000	-19.287	176.468	 -7.225	-78.419	 -7.257	-78.329	-14.503	126.196
    9.900000000	-16.893	171.552	 -7.327	-90.009	 -7.360	-89.911	-13.466	125.163
   10.000000000	-16.368	158.829	 -7.387	-101.805	 -7.417	-101.702	-13.250	123.683
   10.100000000	-14.970	151.511	 -7.475	-113.221	 -7.510	-113.135	-12.635	121.428
   10.200000000	-13.653	144.654	 -7.573	-124.631	 -7.604	-124.536	-12.124	118.146
   10.300000000	-12.768	137.759	 -7.667	-135.791	 -7.698	-135.684	-11.701	114.651
   10.400000000	-12.019	130.951	 -7.760	-146.918	 -7.795	-146.807	-11.442	110.529
   10.500000000	-11.511	124.993	 -7.849	-157.891	 -7.885	-157.757	-11.213	105.345
   10.600000000	-11.161	118.591	 -7.934	-168.738	 -7.971	-168.643	-11.187	100.581
   10.700000000	-11.014	112.676	 -8.018	-179.390	 -8.037	-179.457	-11.232	 94.632
   10.800000000	-10.954	107.157	 -8.083	169.861	 -8.105	169.852	-11.330	 88.674
   10.900000000	-11.135	101.561	 -8.138	159.195	 -8.155	159.126	-11.548	 82.114
   11.000000000	-11.377	 96.399	 -8.184	148.523	 -8.203	148.503	-11.730	 75.498
   11.100000000	-11.854	 91.078	 -8.213	137.879	 -8.234	137.837	-11.924	 68.512
   11.200000000	-12.448	 86.442	 -8.240	127.240	 -8.256	127.148	-12.110	 61.667
   11.300000000	-13.294	 81.947	 -8.257	116.569	 -8.278	116.535	-12.235	 55.259
   11.400000000	-14.348	 77.947	 -8.266	105.892	 -8.286	105.867	-12.302	 49.083
   11.500000000	-15.723	 75.358	 -8.274	 95.235	 -8.290	 95.196	-12.325	 43.355
   11.600000000	-17.407	 74.089	 -8.280	 84.549	 -8.302	 84.515	-12.271	 38.271
   11.700000000	-19.630	 76.298	 -8.286	 73.878	 -8.306	 73.848	-12.142	 33.687
   11.800000000	-22.154	 86.284	 -8.294	 63.173	 -8.311	 63.196	-11.979	 29.666
   11.900000000	-23.825	107.025	 -8.305	 52.579	 -8.321	 52.560	-11.768	 25.939
   12.000000000	-23.350	131.183	 -8.326	 41.961	 -8.339	 41.934	-11.514	 22.600
   12.100000000	-21.216	146.470	 -8.341	 31.374	 -8.350	 31.348	-11.304	 19.147
   12.200000000	-18.980	151.767	 -8.362	 20.889	 -8.377	 20.802	-11.063	 15.660
   12.300000000	-17.243	150.990	 -8.385	 10.415	 -8.399	 10.330	-10.861	 12.190
   12.400000000	-15.910	148.478	 -8.415	 -0.067	 -8.427	 -0.133	-10.691	  8.442
   12.500000000	-14.908	143.800	 -8.440	-10.466	 -8.450	-10.525	-10.607	  4.575
   12.600000000	-14.115	138.297	 -8.462	-20.838	 -8.475	-20.904	-10.548	  0.527
   12.700000000	-13.634	131.916	 -8.479	-31.229	 -8.491	-31.297	-10.585	 -3.848
   12.800000000	-13.223	125.045	 -8.493	-41.617	 -8.508	-41.674	-10.657	 -8.476
   12.900000000	-12.905	117.391	 -8.504	-52.044	 -8.519	-52.082	-10.791	-13.285
   13.000000000	-12.713	109.467	 -8.507	-62.435	 -8.526	-62.488	-10.988	-18.475
   13.100000000	-12.547	101.334	 -8.516	-72.844	 -8.535	-72.924	-11.218	-23.934
   13.200000000	-12.322	 93.181	 -8.525	-83.245	 -8.538	-83.312	-11.450	-29.695
   13.300000000	-12.128	 84.418	 -8.534	-93.682	 -8.544	-93.752	-11.716	-35.686
   13.400000000	-11.889	 76.359	 -8.534	-104.142	 -8.554	-104.180	-12.017	-42.208
   13.500000000	-11.599	 68.358	 -8.545	-114.534	 -8.565	-114.568	-12.277	-48.226
   13.600000000	-11.236	 60.727	 -8.557	-124.944	 -8.570	-125.038	-12.602	-54.726
   13.700000000	-10.924	 53.724	 -8.571	-135.328	 -8.582	-135.417	-12.897	-60.664
   13.800000000	-10.552	 47.579	 -8.585	-145.723	 -8.597	-145.829	-13.332	-66.174
   13.900000000	-10.160	 42.656	 -8.604	-156.130	 -8.613	-156.209	-13.804	-70.805
   14.000000000	 -9.757	 37.757	 -8.624	-166.533	 -8.634	-166.639	-14.468	-74.056
   14.100000000	 -9.381	 34.309	 -8.651	-176.925	 -8.663	-177.039	-15.188	-75.539
   14.200000000	 -8.962	 30.978	 -8.676	172.601	 -8.689	172.587	-16.009	-75.153
   14.300000000	 -8.541	 28.443	 -8.705	162.196	 -8.725	162.109	-16.929	-71.443
   14.400000000	 -8.130	 26.059	 -8.752	151.753	 -8.763	151.687	-17.643	-64.440
   14.500000000	 -7.677	 23.915	 -8.802	141.383	 -8.819	141.317	-17.739	-55.840
   14.600000000	 -7.357	 21.473	 -8.850	131.090	 -8.866	131.001	-17.360	-47.026
   14.700000000	 -6.985	 19.609	 -8.903	120.899	 -8.925	120.851	-16.641	-41.105
   14.800000000	 -6.775	 17.328	 -8.944	110.854	 -8.961	110.768	-15.688	-38.308
   14.900000000	 -6.572	 14.545	 -8.981	100.901	 -8.996	100.863	-15.019	-37.338
   15.000000000	 -6.518	 12.635	 -8.991	 91.112	 -9.009	 91.046	-14.547	-38.875
   15.100000000	 -6.552	  9.762	 -8.983	 81.441	 -9.002	 81.343	-14.326	-41.623
   15.200000000	 -6.740	  7.307	 -8.949	 71.798	 -8.965	 71.708	-14.399	-45.819
   15.300000000	 -7.013	  4.577	 -8.895	 62.138	 -8.904	 62.026	-14.792	-50.329
   15.400000000	 -7.401	  1.434	 -8.825	 52.431	 -8.843	 52.375	-15.426	-56.272
   15.500000000	 -7.984	 -1.794	 -8.735	 42.659	 -8.762	 42.610	-16.344	-63.216
   15.600000000	 -8.641	 -5.570	 -8.659	 32.789	 -8.678	 32.743	-17.713	-72.130
   15.700000000	 -9.433	-10.275	 -8.569	 22.812	 -8.594	 22.772	-19.311	-83.531
   15.800000000	-10.342	-16.399	 -8.499	 12.671	 -8.517	 12.634	-20.964	-99.887
   15.900000000	-11.308	-23.375	 -8.441	  2.482	 -8.457	  2.457	-22.222	-121.481
   16.000000000	-12.261	-32.806	 -8.397	 -7.850	 -8.412	 -7.884	-22.247	-148.770
   16.100000000	-13.043	-45.013	 -8.366	-18.300	 -8.397	-18.240	-20.891	-168.646
   16.200000000	-13.583	-58.531	 -8.369	-28.697	 -8.393	-28.678	-19.417	174.996
   16.300000000	-13.649	-72.888	 -8.383	-39.114	 -8.405	-39.092	-17.710	164.726
   16.400000000	-13.334	-86.381	 -8.396	-49.478	 -8.430	-49.464	-16.434	156.807
   16.500000000	-12.821	-98.797	 -8.428	-59.832	 -8.456	-59.785	-15.352	149.497
   16.600000000	-12.289	-107.891	 -8.450	-70.037	 -8.483	-69.997	-14.610	143.804
   16.700000000	-11.671	-116.827	 -8.474	-80.225	 -8.501	-80.171	-14.175	137.548
   16.800000000	-11.474	-122.042	 -8.476	-90.247	 -8.505	-90.210	-13.708	133.151
   16.900000000	-11.227	-128.414	 -8.458	-100.309	 -8.488	-100.260	-14.224	127.990
   17.000000000	-11.309	-131.158	 -8.427	-110.313	 -8.460	-110.254	-14.522	120.804
   17.100000000	-11.555	-136.553	 -8.384	-120.364	 -8.414	-120.321	-15.578	116.460
   17.200000000	-11.805	-137.477	 -8.328	-130.509	 -8.359	-130.524	-16.996	105.948
   17.300000000	-12.673	-139.764	 -8.270	-140.739	 -8.299	-140.704	-18.658	 96.934
   17.400000000	-13.404	-140.400	 -8.217	-151.108	 -8.244	-151.094	-21.284	 82.141
   17.500000000	-14.579	-141.477	 -8.169	-161.580	 -8.195	-161.517	-23.726	 59.049
   17.600000000	-16.061	-142.072	 -8.136	-172.165	 -8.160	-172.136	-24.727	 24.552
   17.700000000	-18.150	-142.346	 -8.116	177.074	 -8.139	177.114	-23.063	 -3.786
   17.800000000	-21.115	-141.269	 -8.115	166.210	 -8.137	166.225	-21.022	-18.648
   17.900000000	-26.399	-133.966	 -8.132	155.204	 -8.155	155.185	-19.305	-25.639
   18.000000000	-38.764	-80.570	 -8.166	144.107	 -8.191	144.122	-17.698	-28.651
   18.100000000	-26.918	  7.283	 -8.220	132.867	 -8.246	132.869	-16.472	-30.014
   18.200000000	-20.990	 12.967	 -8.301	121.629	 -8.326	121.627	-15.491	-30.435
   18.300000000	-17.859	 11.409	 -8.392	110.385	 -8.423	110.407	-14.576	-30.148
   18.400000000	-15.725	 10.166	 -8.505	 99.194	 -8.533	 99.220	-13.955	-30.992
   18.500000000	-14.597	  7.772	 -8.635	 88.123	 -8.660	 88.152	-13.627	-32.641
   18.600000000	-13.925	  6.173	 -8.779	 77.213	 -8.809	 77.239	-13.639	-34.285
   18.700000000	-13.898	  6.017	 -8.928	 66.595	 -8.955	 66.639	-14.162	-35.715
   18.800000000	-14.303	  8.544	 -9.069	 56.389	 -9.098	 56.429	-15.251	-37.358
   18.900000000	-14.873	 14.845	 -9.152	 46.808	 -9.185	 46.795	-17.302	-36.038
   19.000000000	-15.062	 25.817	 -9.088	 37.433	 -9.125	 37.435	-20.515	-19.221
   19.100000000	-14.499	 34.690	 -8.878	 27.377	 -8.911	 27.497	-20.689	 15.590
   19.200000000	-13.835	 42.922	 -8.629	 16.226	 -8.665	 16.305	-17.734	 33.265
   19.300000000	-13.339	 45.776	 -8.458	  4.193	 -8.496	  4.310	-15.072	 38.509
   19.400000000	-12.804	 50.268	 -8.389	 -8.139	 -8.430	 -8.047	-13.499	 35.907
   19.500000000	-12.886	 52.670	 -8.387	-20.503	 -8.422	-20.388	-12.314	 31.216
   19.600000000	-12.499	 53.304	 -8.424	-32.773	 -8.467	-32.643	-11.748	 26.138
   19.700000000	-12.502	 53.554	 -8.458	-44.999	 -8.503	-44.880	-11.434	 18.718
   19.800000000	-12.680	 50.906	 -8.490	-57.411	 -8.530	-57.288	-11.449	 10.965
   19.900000000	-13.131	 47.733	 -8.515	-69.990	 -8.553	-69.898	-11.747	  1.362
   20.000000000	-13.548	 42.348	 -8.556	-82.771	 -8.590	-82.665	-12.135	 -9.238
