! Date: Wednesday, June 05, 2013  1:51 PM
! Filename: C:\Data\Mike_Arnold\TGP2105-SM\Over_Temp\TGP2105-SM_EVB01_25C_Phase28.s2p 
! Comments: 
!^VDC(V):5.000
!^VDC(mA):0.126
!%Freq(GHz),S11(dB),S11(ang),S21(dB),S21(ang),S12(dB),S12(ang),S22(dB),S22(ang)
# GHz   S   DB   R   50
    5.000000000	 -7.702	114.565	 -6.808	-79.370	 -6.828	-79.402	 -8.286	-133.779
    5.100000000	 -8.188	104.311	 -6.693	-95.308	 -6.710	-95.375	 -7.823	-144.954
    5.200000000	 -8.858	 93.527	 -6.558	-110.816	 -6.576	-110.846	 -7.596	-155.570
    5.300000000	 -9.794	 81.577	 -6.415	-126.146	 -6.431	-126.172	 -7.549	-165.913
    5.400000000	-11.100	 68.080	 -6.256	-141.311	 -6.270	-141.348	 -7.685	-175.155
    5.500000000	-13.030	 52.656	 -6.098	-156.389	 -6.117	-156.437	 -7.953	176.648
    5.600000000	-15.731	 33.691	 -5.981	-171.397	 -5.995	-171.442	 -8.277	169.886
    5.700000000	-19.518	  4.933	 -5.889	173.604	 -5.906	173.614	 -8.671	164.375
    5.800000000	-22.717	-51.711	 -5.851	158.846	 -5.864	158.797	 -9.007	160.335
    5.900000000	-19.949	-111.602	 -5.860	144.390	 -5.878	144.382	 -9.256	157.573
    6.000000000	-16.196	-142.720	 -5.920	130.302	 -5.936	130.278	 -9.374	154.849
    6.100000000	-13.581	-162.296	 -6.013	116.823	 -6.023	116.810	 -9.448	151.944
    6.200000000	-11.821	-178.241	 -6.106	104.101	 -6.124	104.066	 -9.542	148.779
    6.300000000	-10.780	167.492	 -6.115	 92.080	 -6.130	 92.045	 -9.755	146.007
    6.400000000	-10.242	156.050	 -5.979	 79.791	 -5.993	 79.781	 -9.827	143.677
    6.500000000	 -9.829	145.770	 -5.884	 67.012	 -5.895	 66.993	 -9.793	139.850
    6.600000000	 -9.554	135.317	 -5.823	 54.362	 -5.834	 54.303	 -9.941	134.349
    6.700000000	 -9.588	124.544	 -5.750	 41.847	 -5.765	 41.816	-10.381	128.111
    6.800000000	 -9.845	113.658	 -5.661	 29.320	 -5.682	 29.365	-11.068	121.754
    6.900000000	-10.300	102.857	 -5.568	 16.855	 -5.592	 16.895	-12.033	115.559
    7.000000000	-10.970	 91.519	 -5.474	  4.281	 -5.498	  4.327	-13.292	109.385
    7.100000000	-11.852	 80.039	 -5.389	 -8.358	 -5.413	 -8.320	-14.920	104.086
    7.200000000	-12.901	 68.643	 -5.320	-21.051	 -5.344	-21.043	-16.905	100.438
    7.300000000	-14.065	 56.945	 -5.272	-33.793	 -5.296	-33.722	-19.133	 99.640
    7.400000000	-15.322	 45.178	 -5.241	-46.472	 -5.267	-46.449	-21.527	102.575
    7.500000000	-16.696	 33.393	 -5.237	-59.151	 -5.264	-59.104	-23.543	112.079
    7.600000000	-18.046	 22.373	 -5.255	-71.706	 -5.278	-71.654	-24.143	124.363
    7.700000000	-19.404	 11.950	 -5.283	-84.158	 -5.303	-84.115	-23.538	130.813
    7.800000000	-20.838	  3.424	 -5.317	-96.515	 -5.343	-96.462	-22.355	131.570
    7.900000000	-22.571	 -2.156	 -5.370	-108.784	 -5.390	-108.724	-20.902	125.928
    8.000000000	-24.357	 -3.374	 -5.427	-120.984	 -5.454	-120.929	-19.384	116.359
    8.100000000	-26.347	  3.949	 -5.501	-133.046	 -5.526	-132.976	-17.952	106.168
    8.200000000	-27.183	 21.905	 -5.585	-145.016	 -5.613	-144.948	-16.482	 95.994
    8.300000000	-25.642	 41.514	 -5.681	-156.847	 -5.711	-156.768	-15.013	 85.727
    8.400000000	-23.151	 49.607	 -5.789	-168.609	 -5.816	-168.507	-13.742	 76.014
    8.500000000	-20.897	 51.713	 -5.894	179.840	 -5.924	179.910	-12.653	 67.068
    8.600000000	-18.976	 48.996	 -6.009	168.423	 -6.035	168.508	-11.689	 58.667
    8.700000000	-17.558	 43.913	 -6.109	157.161	 -6.141	157.227	-10.973	 50.677
    8.800000000	-16.696	 37.849	 -6.197	145.998	 -6.223	146.034	-10.475	 42.952
    8.900000000	-16.175	 31.355	 -6.265	134.947	 -6.293	135.020	-10.166	 36.083
    9.000000000	-16.017	 24.156	 -6.310	123.901	 -6.339	123.955	-10.075	 28.796
    9.100000000	-16.249	 16.139	 -6.331	112.836	 -6.360	112.898	-10.160	 22.011
    9.200000000	-16.983	  7.680	 -6.332	101.717	 -6.360	101.777	-10.547	 15.557
    9.300000000	-18.118	 -1.477	 -6.318	 90.429	 -6.346	 90.523	-11.058	  8.820
    9.400000000	-19.811	-12.805	 -6.292	 79.080	 -6.326	 79.146	-11.796	  2.357
    9.500000000	-22.239	-28.496	 -6.269	 67.521	 -6.300	 67.614	-12.799	 -4.590
    9.600000000	-25.159	-51.446	 -6.256	 55.946	 -6.287	 56.014	-13.917	-11.738
    9.700000000	-26.795	-89.921	 -6.252	 44.262	 -6.289	 44.287	-15.123	-19.246
    9.800000000	-25.263	-127.040	 -6.262	 32.546	 -6.295	 32.613	-16.424	-29.183
    9.900000000	-22.526	-148.244	 -6.289	 20.815	 -6.321	 20.873	-17.478	-41.587
   10.000000000	-22.106	-159.789	 -6.337	  9.105	 -6.373	  9.236	-17.151	-54.553
   10.100000000	-20.181	-169.910	 -6.391	 -2.552	 -6.421	 -2.486	-16.911	-67.954
   10.200000000	-18.106	-178.577	 -6.455	-14.176	 -6.487	-14.085	-16.288	-79.616
   10.300000000	-16.573	175.341	 -6.533	-25.791	 -6.562	-25.699	-15.382	-91.123
   10.400000000	-15.075	168.817	 -6.618	-37.344	 -6.655	-37.255	-14.289	-101.050
   10.500000000	-13.829	163.585	 -6.720	-48.787	 -6.751	-48.664	-13.347	-109.854
   10.600000000	-12.753	157.479	 -6.839	-60.167	 -6.872	-60.055	-12.299	-118.192
   10.700000000	-11.907	151.688	 -6.972	-71.319	 -6.988	-71.346	-11.507	-125.594
   10.800000000	-11.155	145.758	 -7.102	-82.482	 -7.123	-82.535	-10.798	-133.158
   10.900000000	-10.671	139.816	 -7.235	-93.522	 -7.253	-93.582	-10.226	-140.040
   11.000000000	-10.270	133.761	 -7.364	-104.511	 -7.380	-104.533	 -9.804	-147.134
   11.100000000	-10.103	127.836	 -7.481	-115.370	 -7.502	-115.431	 -9.542	-154.034
   11.200000000	-10.012	121.989	 -7.596	-126.214	 -7.612	-126.267	 -9.357	-160.949
   11.300000000	-10.111	116.246	 -7.693	-137.039	 -7.712	-137.090	 -9.280	-168.020
   11.400000000	-10.339	110.357	 -7.781	-147.839	 -7.799	-147.865	 -9.274	-175.146
   11.500000000	-10.705	104.841	 -7.857	-158.637	 -7.873	-158.682	 -9.318	177.645
   11.600000000	-11.243	 99.094	 -7.926	-169.418	 -7.946	-169.488	 -9.388	170.380
   11.700000000	-12.001	 93.546	 -7.983	179.729	 -8.007	179.680	 -9.485	163.019
   11.800000000	-12.992	 88.216	 -8.040	168.827	 -8.054	168.810	 -9.553	155.791
   11.900000000	-14.186	 82.965	 -8.093	157.955	 -8.109	157.939	 -9.575	148.524
   12.000000000	-15.862	 77.654	 -8.141	147.051	 -8.157	146.997	 -9.550	141.347
   12.100000000	-18.168	 73.383	 -8.197	136.077	 -8.210	135.971	 -9.477	134.721
   12.200000000	-21.495	 71.959	 -8.255	125.085	 -8.266	125.012	 -9.358	128.143
   12.300000000	-26.592	 78.310	 -8.316	114.116	 -8.333	114.041	 -9.185	121.851
   12.400000000	-32.760	137.227	 -8.383	103.095	 -8.399	103.005	 -8.987	115.859
   12.500000000	-26.210	-174.166	 -8.452	 92.089	 -8.465	 92.047	 -8.776	110.227
   12.600000000	-21.222	-170.128	 -8.536	 81.114	 -8.548	 81.042	 -8.555	104.650
   12.700000000	-18.302	-173.238	 -8.603	 70.155	 -8.624	 70.107	 -8.354	 99.456
   12.800000000	-16.200	-179.784	 -8.685	 59.268	 -8.705	 59.206	 -8.198	 94.366
   12.900000000	-14.726	172.123	 -8.763	 48.409	 -8.779	 48.360	 -8.066	 89.341
   13.000000000	-13.624	163.619	 -8.834	 37.621	 -8.855	 37.562	 -7.995	 84.474
   13.100000000	-12.769	154.566	 -8.901	 26.819	 -8.918	 26.743	 -7.966	 79.647
   13.200000000	-12.035	144.699	 -8.969	 16.114	 -8.990	 16.048	 -7.982	 74.823
   13.300000000	-11.504	134.390	 -9.035	  5.494	 -9.046	  5.351	 -8.055	 69.943
   13.400000000	-10.990	124.051	 -9.078	 -5.150	 -9.092	 -5.224	 -8.196	 65.083
   13.500000000	-10.506	113.314	 -9.131	-15.784	 -9.148	-15.885	 -8.343	 59.651
   13.600000000	-10.020	102.454	 -9.180	-26.407	 -9.195	-26.486	 -8.553	 54.267
   13.700000000	 -9.604	 92.153	 -9.239	-36.974	 -9.251	-37.087	 -8.792	 48.230
   13.800000000	 -9.146	 82.263	 -9.308	-47.469	 -9.313	-47.579	 -9.037	 42.079
   13.900000000	 -8.684	 73.309	 -9.371	-57.884	 -9.382	-58.046	 -9.307	 35.420
   14.000000000	 -8.281	 64.502	 -9.449	-68.286	 -9.455	-68.424	 -9.566	 28.655
   14.100000000	 -7.911	 57.082	 -9.512	-78.544	 -9.524	-78.665	 -9.838	 21.438
   14.200000000	 -7.598	 50.147	 -9.583	-88.761	 -9.593	-88.843	-10.148	 14.376
   14.300000000	 -7.341	 44.326	 -9.641	-98.881	 -9.652	-98.969	-10.473	  7.802
   14.400000000	 -7.176	 39.266	 -9.684	-108.875	 -9.691	-109.000	-10.857	  1.745
   14.500000000	 -7.019	 35.114	 -9.710	-118.967	 -9.722	-119.049	-11.322	 -4.325
   14.600000000	 -7.026	 31.648	 -9.708	-128.901	 -9.721	-128.981	-11.872	 -8.695
   14.700000000	 -6.974	 29.531	 -9.703	-138.940	 -9.719	-139.027	-12.616	-12.065
   14.800000000	 -7.077	 27.947	 -9.670	-148.991	 -9.676	-149.114	-13.375	-14.158
   14.900000000	 -7.136	 26.744	 -9.623	-159.173	 -9.634	-159.250	-14.308	-13.331
   15.000000000	 -7.210	 27.154	 -9.571	-169.350	 -9.583	-169.438	-15.273	-10.209
   15.100000000	 -7.296	 27.109	 -9.512	-179.604	 -9.528	-179.643	-16.019	 -4.412
   15.200000000	 -7.392	 27.900	 -9.453	170.149	 -9.475	170.042	-16.469	  3.219
   15.300000000	 -7.443	 28.452	 -9.411	159.852	 -9.422	159.757	-16.404	 11.299
   15.400000000	 -7.533	 28.510	 -9.366	149.567	 -9.376	149.451	-16.094	 17.382
   15.500000000	 -7.705	 28.623	 -9.317	139.286	 -9.337	139.243	-15.671	 21.309
   15.600000000	 -7.906	 27.876	 -9.276	129.062	 -9.295	129.009	-15.352	 24.385
   15.700000000	 -8.234	 26.523	 -9.229	118.794	 -9.248	118.741	-15.188	 25.927
   15.800000000	 -8.716	 24.293	 -9.181	108.433	 -9.196	108.438	-15.292	 26.828
   15.900000000	 -9.277	 21.670	 -9.128	 98.049	 -9.148	 98.043	-15.545	 27.667
   16.000000000	 -9.999	 17.753	 -9.076	 87.521	 -9.096	 87.480	-16.062	 29.949
   16.100000000	-10.863	 12.470	 -9.024	 76.745	 -9.052	 76.777	-16.839	 31.160
   16.200000000	-11.781	  6.133	 -8.993	 65.958	 -9.017	 65.990	-17.514	 34.000
   16.300000000	-12.683	 -2.219	 -8.957	 55.013	 -8.985	 55.022	-18.635	 37.609
   16.400000000	-13.451	-12.536	 -8.937	 43.955	 -8.970	 43.982	-19.875	 40.990
   16.500000000	-14.073	-24.690	 -8.933	 32.825	 -8.960	 32.861	-21.166	 47.107
   16.600000000	-14.118	-36.934	 -8.937	 21.724	 -8.965	 21.773	-23.055	 54.749
   16.700000000	-13.962	-50.928	 -8.956	 10.558	 -8.980	 10.603	-24.749	 65.957
   16.800000000	-13.331	-59.693	 -8.977	 -0.499	 -8.998	 -0.416	-25.884	 95.957
   16.900000000	-12.839	-70.613	 -9.004	-11.539	 -9.028	-11.460	-26.856	116.208
   17.000000000	-12.124	-76.781	 -9.024	-22.325	 -9.050	-22.344	-24.376	128.748
   17.100000000	-11.927	-84.300	 -9.047	-33.135	 -9.073	-33.097	-23.013	140.692
   17.200000000	-11.346	-89.377	 -9.068	-43.873	 -9.093	-43.853	-22.236	136.609
   17.300000000	-11.419	-92.562	 -9.064	-54.452	 -9.090	-54.445	-21.201	132.312
   17.400000000	-11.393	-95.968	 -9.059	-65.111	 -9.089	-65.114	-21.226	125.036
   17.500000000	-11.766	-98.338	 -9.041	-75.794	 -9.064	-75.767	-21.251	111.831
   17.600000000	-12.290	-99.914	 -9.011	-86.597	 -9.040	-86.576	-21.373	 94.092
   17.700000000	-13.074	-100.354	 -8.982	-97.563	 -9.008	-97.547	-20.883	 72.319
   17.800000000	-14.027	-99.740	 -8.965	-108.698	 -8.990	-108.660	-19.663	 53.036
   17.900000000	-15.243	-97.246	 -8.952	-120.008	 -8.982	-120.009	-18.041	 37.586
   18.000000000	-16.961	-94.178	 -8.959	-131.470	 -8.987	-131.479	-16.411	 25.917
   18.100000000	-18.954	-85.877	 -8.979	-143.084	 -9.012	-143.102	-15.031	 18.141
   18.200000000	-21.517	-70.761	 -9.022	-154.799	 -9.053	-154.768	-13.879	 13.271
   18.300000000	-23.271	-44.911	 -9.094	-166.523	 -9.121	-166.530	-12.761	 10.050
   18.400000000	-22.221	-10.024	 -9.190	-178.281	 -9.220	-178.266	-11.882	  7.916
   18.500000000	-19.711	  8.730	 -9.320	170.135	 -9.344	170.093	-11.091	  6.351
   18.600000000	-17.149	 17.072	 -9.485	158.663	 -9.515	158.665	-10.379	  4.784
   18.700000000	-15.492	 20.597	 -9.684	147.702	 -9.705	147.691	 -9.766	  3.136
   18.800000000	-14.477	 22.826	 -9.887	137.334	 -9.910	137.349	 -9.316	  0.135
   18.900000000	-13.995	 25.258	-10.025	127.857	-10.053	127.859	 -9.148	 -3.964
   19.000000000	-13.656	 30.536	 -9.978	118.989	-10.008	118.975	 -9.374	 -7.716
   19.100000000	-13.006	 34.706	 -9.709	109.490	 -9.746	109.607	-10.034	-11.475
   19.200000000	-12.356	 38.389	 -9.353	 98.779	 -9.395	 98.819	-11.034	-14.530
   19.300000000	-12.092	 36.570	 -9.034	 86.793	 -9.066	 86.902	-12.512	-14.044
   19.400000000	-12.210	 36.704	 -8.803	 74.124	 -8.838	 74.230	-14.299	-12.583
   19.500000000	-13.306	 35.846	 -8.639	 61.094	 -8.671	 61.195	-16.077	 -4.486
   19.600000000	-14.142	 37.723	 -8.547	 47.814	 -8.584	 47.941	-17.684	 10.109
   19.700000000	-15.354	 43.027	 -8.486	 34.368	 -8.523	 34.454	-17.722	 26.012
   19.800000000	-16.325	 48.411	 -8.467	 20.665	 -8.506	 20.708	-16.771	 37.979
   19.900000000	-17.186	 55.392	 -8.476	  6.727	 -8.510	  6.835	-15.727	 42.004
   20.000000000	-17.511	 59.740	 -8.511	 -7.187	 -8.554	 -7.104	-14.825	 41.219
