! Date: Wednesday, June 05, 2013  1:52 PM
! Filename: C:\Data\Mike_Arnold\TGP2105-SM\Over_Temp\TGP2105-SM_EVB01_25C_Phase48.s2p 
! Comments: 
!^VDC(V):5.000
!^VDC(mA):0.027
!%Freq(GHz),S11(dB),S11(ang),S21(dB),S21(ang),S12(dB),S12(ang),S22(dB),S22(ang)
# GHz   S   DB   R   50
    5.000000000	-16.254	-149.061	 -7.279	 27.935	 -7.293	 27.920	-10.549	-129.381
    5.100000000	-12.850	-157.319	 -7.480	 10.762	 -7.491	 10.730	-10.081	-134.185
    5.200000000	-10.473	-167.052	 -7.739	 -5.631	 -7.747	 -5.660	 -9.461	-139.144
    5.300000000	 -8.806	-177.344	 -8.025	-21.163	 -8.041	-21.189	 -8.788	-145.429
    5.400000000	 -7.607	172.616	 -8.326	-35.769	 -8.339	-35.802	 -8.147	-152.219
    5.500000000	 -6.717	163.156	 -8.579	-49.388	 -8.596	-49.411	 -7.593	-159.520
    5.600000000	 -6.059	153.971	 -8.745	-62.406	 -8.757	-62.425	 -7.085	-166.556
    5.700000000	 -5.558	145.268	 -8.844	-75.467	 -8.856	-75.528	 -6.617	-173.749
    5.800000000	 -5.165	136.877	 -8.959	-88.160	 -8.972	-88.220	 -6.195	178.542
    5.900000000	 -4.857	128.479	 -9.044	-100.164	 -9.062	-100.252	 -5.899	170.736
    6.000000000	 -4.652	119.854	 -9.059	-111.830	 -9.070	-111.864	 -5.732	162.736
    6.100000000	 -4.590	111.176	 -8.975	-123.237	 -8.991	-123.237	 -5.707	154.858
    6.200000000	 -4.610	102.594	 -8.812	-134.438	 -8.832	-134.488	 -5.785	147.077
    6.300000000	 -4.689	 93.658	 -8.577	-145.808	 -8.588	-145.842	 -5.991	139.126
    6.400000000	 -4.906	 84.257	 -8.268	-157.465	 -8.283	-157.499	 -6.357	130.858
    6.500000000	 -5.245	 74.646	 -7.900	-169.431	 -7.920	-169.442	 -6.919	122.490
    6.600000000	 -5.682	 64.871	 -7.526	178.250	 -7.540	178.202	 -7.661	113.914
    6.700000000	 -6.260	 54.266	 -7.128	165.413	 -7.140	165.372	 -8.674	104.916
    6.800000000	 -7.007	 43.318	 -6.736	152.007	 -6.760	152.079	-10.021	 95.840
    6.900000000	 -7.935	 32.454	 -6.390	138.339	 -6.416	138.400	-11.801	 87.071
    7.000000000	 -8.973	 21.523	 -6.109	124.360	 -6.133	124.397	-14.088	 78.588
    7.100000000	-10.167	 10.895	 -5.891	110.227	 -5.914	110.306	-17.147	 71.719
    7.200000000	-11.494	  1.093	 -5.736	 96.114	 -5.752	 96.169	-21.390	 69.779
    7.300000000	-12.860	 -7.514	 -5.630	 82.097	 -5.655	 82.141	-26.952	 84.933
    7.400000000	-14.219	-14.701	 -5.578	 68.267	 -5.600	 68.322	-28.712	132.642
    7.500000000	-15.573	-20.015	 -5.553	 54.614	 -5.582	 54.665	-24.726	153.453
    7.600000000	-16.784	-22.613	 -5.572	 41.214	 -5.596	 41.260	-21.767	151.157
    7.700000000	-17.746	-22.909	 -5.601	 28.062	 -5.622	 28.126	-19.909	141.632
    7.800000000	-18.335	-21.031	 -5.641	 15.141	 -5.662	 15.210	-18.528	129.602
    7.900000000	-18.554	-18.081	 -5.693	  2.454	 -5.720	  2.508	-17.328	115.552
    8.000000000	-18.258	-15.398	 -5.751	-10.070	 -5.775	-10.018	-16.198	100.951
    8.100000000	-17.806	-14.340	 -5.809	-22.419	 -5.840	-22.305	-15.207	 87.085
    8.200000000	-17.189	-15.223	 -5.874	-34.518	 -5.899	-34.469	-14.279	 74.455
    8.300000000	-16.628	-17.604	 -5.936	-46.467	 -5.966	-46.361	-13.398	 62.924
    8.400000000	-16.161	-22.152	 -5.989	-58.214	 -6.017	-58.143	-12.739	 52.740
    8.500000000	-16.085	-28.195	 -6.024	-69.883	 -6.055	-69.797	-12.288	 43.839
    8.600000000	-16.204	-35.546	 -6.056	-81.414	 -6.085	-81.359	-11.966	 36.395
    8.700000000	-16.638	-44.453	 -6.073	-92.939	 -6.098	-92.865	-11.857	 29.933
    8.800000000	-17.444	-55.910	 -6.077	-104.498	 -6.104	-104.412	-11.923	 24.429
    8.900000000	-18.676	-70.368	 -6.071	-116.061	 -6.103	-115.956	-12.144	 20.649
    9.000000000	-20.126	-88.648	 -6.066	-127.687	 -6.095	-127.617	-12.437	 17.064
    9.100000000	-21.399	-113.105	 -6.068	-139.320	 -6.102	-139.235	-12.749	 14.694
    9.200000000	-21.717	-142.472	 -6.075	-150.979	 -6.103	-150.908	-13.192	 12.802
    9.300000000	-20.837	-169.453	 -6.086	-162.662	 -6.116	-162.563	-13.500	 10.399
    9.400000000	-19.454	170.650	 -6.110	-174.293	 -6.141	-174.181	-13.868	  7.576
    9.500000000	-18.099	157.277	 -6.136	174.164	 -6.164	174.246	-14.339	  2.554
    9.600000000	-17.031	147.253	 -6.161	162.679	 -6.197	162.738	-14.853	 -4.235
    9.700000000	-16.213	141.073	 -6.191	151.204	 -6.220	151.291	-15.479	-13.174
    9.800000000	-15.519	136.896	 -6.213	139.761	 -6.244	139.863	-16.284	-26.209
    9.900000000	-14.930	133.822	 -6.252	128.304	 -6.288	128.416	-16.904	-42.972
   10.000000000	-14.642	121.086	 -6.326	116.824	 -6.356	116.929	-15.953	-57.351
   10.100000000	-14.227	115.669	 -6.380	105.485	 -6.417	105.592	-15.462	-73.750
   10.200000000	-13.764	111.375	 -6.451	 94.300	 -6.483	 94.368	-14.766	-88.257
   10.300000000	-13.573	106.168	 -6.523	 83.153	 -6.548	 83.248	-13.937	-101.656
   10.400000000	-13.402	101.020	 -6.587	 72.124	 -6.627	 72.175	-13.080	-112.701
   10.500000000	-13.531	 96.038	 -6.659	 61.154	 -6.691	 61.243	-12.457	-122.399
   10.600000000	-13.769	 90.596	 -6.736	 50.257	 -6.769	 50.356	-11.754	-130.756
   10.700000000	-14.333	 84.896	 -6.809	 39.546	 -6.832	 39.476	-11.312	-137.717
   10.800000000	-15.142	 79.942	 -6.876	 28.679	 -6.892	 28.665	-10.925	-144.383
   10.900000000	-16.465	 74.276	 -6.936	 17.897	 -6.955	 17.850	-10.623	-149.858
   11.000000000	-18.239	 70.300	 -6.995	  7.046	 -7.015	  7.029	-10.420	-155.401
   11.100000000	-21.030	 66.579	 -7.053	 -3.838	 -7.073	 -3.875	-10.283	-160.459
   11.200000000	-25.510	 70.631	 -7.109	-14.763	 -7.131	-14.780	-10.160	-165.487
   11.300000000	-33.309	110.291	 -7.177	-25.739	 -7.200	-25.766	-10.046	-170.772
   11.400000000	-27.805	-176.116	 -7.252	-36.758	 -7.274	-36.765	 -9.944	-176.262
   11.500000000	-21.558	-167.130	 -7.337	-47.788	 -7.357	-47.828	 -9.818	177.886
   11.600000000	-17.929	-168.879	 -7.433	-58.858	 -7.455	-58.876	 -9.669	171.534
   11.700000000	-15.335	-172.947	 -7.552	-69.905	 -7.572	-69.903	 -9.521	164.670
   11.800000000	-13.348	-178.268	 -7.679	-80.843	 -7.701	-80.887	 -9.324	157.397
   11.900000000	-11.813	175.484	 -7.826	-91.749	 -7.842	-91.787	 -9.103	149.743
   12.000000000	-10.616	169.172	 -7.983	-102.609	 -7.999	-102.638	 -8.862	141.705
   12.100000000	 -9.629	162.638	 -8.149	-113.318	 -8.165	-113.378	 -8.619	133.892
   12.200000000	 -8.838	155.960	 -8.328	-123.904	 -8.340	-123.972	 -8.384	125.944
   12.300000000	 -8.220	148.715	 -8.497	-134.418	 -8.519	-134.464	 -8.151	118.240
   12.400000000	 -7.747	141.660	 -8.676	-144.825	 -8.688	-144.833	 -7.955	110.734
   12.500000000	 -7.387	134.133	 -8.843	-155.058	 -8.854	-155.113	 -7.788	103.642
   12.600000000	 -7.106	126.436	 -8.997	-165.237	 -9.015	-165.281	 -7.655	 96.733
   12.700000000	 -6.954	118.339	 -9.134	-175.377	 -9.151	-175.400	 -7.588	 90.327
   12.800000000	 -6.834	110.136	 -9.257	174.588	 -9.279	174.488	 -7.585	 84.075
   12.900000000	 -6.756	101.507	 -9.364	164.543	 -9.380	164.442	 -7.627	 78.026
   13.000000000	 -6.726	 92.677	 -9.456	154.504	 -9.466	154.421	 -7.750	 72.254
   13.100000000	 -6.723	 83.769	 -9.524	144.444	 -9.547	144.386	 -7.941	 66.504
   13.200000000	 -6.702	 74.979	 -9.590	134.485	 -9.602	134.432	 -8.202	 60.789
   13.300000000	 -6.684	 65.880	 -9.632	124.499	 -9.641	124.398	 -8.547	 55.006
   13.400000000	 -6.663	 57.249	 -9.647	114.450	 -9.659	114.375	 -9.001	 49.315
   13.500000000	 -6.618	 48.778	 -9.667	104.431	 -9.678	104.394	 -9.485	 43.064
   13.600000000	 -6.544	 40.709	 -9.677	 94.414	 -9.683	 94.362	-10.106	 36.863
   13.700000000	 -6.518	 33.022	 -9.668	 84.470	 -9.683	 84.356	-10.794	 30.115
   13.800000000	 -6.478	 26.013	 -9.653	 74.464	 -9.662	 74.369	-11.561	 23.525
   13.900000000	 -6.468	 19.932	 -9.627	 64.510	 -9.639	 64.380	-12.445	 16.633
   14.000000000	 -6.465	 14.085	 -9.597	 54.415	 -9.606	 54.366	-13.385	 10.249
   14.100000000	 -6.535	  9.242	 -9.539	 44.424	 -9.550	 44.359	-14.426	  4.266
   14.200000000	 -6.620	  4.890	 -9.475	 34.308	 -9.488	 34.219	-15.637	 -0.407
   14.300000000	 -6.749	  1.483	 -9.399	 24.094	 -9.408	 24.011	-16.979	 -1.991
   14.400000000	 -6.919	 -1.312	 -9.309	 13.746	 -9.326	 13.713	-18.308	  0.646
   14.500000000	 -7.073	 -3.120	 -9.229	  3.309	 -9.244	  3.275	-19.408	  7.497
   14.600000000	 -7.302	 -4.864	 -9.136	 -7.226	 -9.157	 -7.272	-19.474	 20.010
   14.700000000	 -7.468	 -5.213	 -9.064	-17.889	 -9.079	-17.926	-18.533	 31.806
   14.800000000	 -7.683	 -5.963	 -8.988	-28.616	 -9.003	-28.702	-16.893	 37.369
   14.900000000	 -7.789	 -6.738	 -8.942	-39.302	 -8.953	-39.387	-15.209	 39.864
   15.000000000	 -7.999	 -6.974	 -8.890	-49.956	 -8.905	-50.038	-13.796	 39.141
   15.100000000	 -8.183	 -8.584	 -8.855	-60.535	 -8.873	-60.618	-12.711	 36.714
   15.200000000	 -8.526	-10.395	 -8.823	-71.042	 -8.835	-71.123	-11.936	 33.685
   15.300000000	 -8.926	-12.965	 -8.791	-81.477	 -8.805	-81.573	-11.349	 30.531
   15.400000000	 -9.465	-16.688	 -8.752	-91.843	 -8.768	-91.924	-11.027	 27.061
   15.500000000	-10.283	-21.351	 -8.705	-102.261	 -8.727	-102.283	-10.892	 23.525
   15.600000000	-11.223	-27.349	 -8.664	-112.640	 -8.685	-112.654	-10.940	 20.716
   15.700000000	-12.370	-35.407	 -8.626	-123.092	 -8.645	-123.089	-11.133	 17.758
   15.800000000	-13.629	-46.432	 -8.582	-133.624	 -8.606	-133.688	-11.518	 14.799
   15.900000000	-14.888	-59.539	 -8.557	-144.264	 -8.579	-144.288	-12.022	 11.695
   16.000000000	-15.786	-76.240	 -8.539	-154.977	 -8.560	-155.050	-12.773	  8.940
   16.100000000	-15.948	-94.107	 -8.535	-165.877	 -8.561	-165.835	-13.756	  4.224
   16.200000000	-15.624	-110.228	 -8.540	-176.750	 -8.571	-176.713	-14.943	 -0.175
   16.300000000	-14.891	-122.852	 -8.558	172.322	 -8.586	172.326	-16.768	 -6.756
   16.400000000	-14.065	-132.215	 -8.586	161.327	 -8.611	161.338	-19.090	-16.239
   16.500000000	-13.249	-139.989	 -8.620	150.348	 -8.645	150.383	-22.436	-29.246
   16.600000000	-12.737	-145.304	 -8.646	139.436	 -8.679	139.502	-26.815	-59.117
   16.700000000	-12.113	-150.457	 -8.685	128.571	 -8.709	128.635	-28.818	-113.925
   16.800000000	-12.108	-154.206	 -8.695	117.801	 -8.730	117.866	-24.212	-161.830
   16.900000000	-11.899	-159.135	 -8.705	107.060	 -8.734	107.161	-21.584	-172.402
   17.000000000	-12.303	-162.232	 -8.678	 96.457	 -8.707	 96.504	-19.806	172.471
   17.100000000	-12.640	-168.767	 -8.646	 85.785	 -8.675	 85.844	-18.554	167.792
   17.200000000	-13.494	-171.558	 -8.590	 75.066	 -8.615	 75.082	-18.590	158.338
   17.300000000	-14.960	-179.267	 -8.514	 64.243	 -8.538	 64.307	-18.396	150.607
   17.400000000	-16.801	174.374	 -8.431	 53.312	 -8.455	 53.347	-19.048	143.877
   17.500000000	-19.492	161.675	 -8.347	 42.215	 -8.373	 42.248	-19.840	134.382
   17.600000000	-23.073	139.050	 -8.264	 30.907	 -8.296	 30.966	-21.017	122.666
   17.700000000	-25.349	 91.440	 -8.201	 19.469	 -8.235	 19.465	-22.034	105.574
   17.800000000	-22.516	 47.808	 -8.167	  7.811	 -8.188	  7.822	-22.026	 85.575
   17.900000000	-18.746	 27.067	 -8.147	 -3.951	 -8.169	 -3.929	-20.900	 66.758
   18.000000000	-16.051	 18.242	 -8.148	-15.724	 -8.170	-15.676	-19.018	 50.985
   18.100000000	-13.903	 11.170	 -8.170	-27.559	 -8.191	-27.495	-17.025	 40.521
   18.200000000	-12.356	  6.557	 -8.206	-39.271	 -8.232	-39.277	-15.185	 33.281
   18.300000000	-11.227	  1.949	 -8.249	-50.943	 -8.270	-50.894	-13.490	 27.190
   18.400000000	-10.330	 -1.522	 -8.289	-62.450	 -8.313	-62.415	-12.183	 22.123
   18.500000000	 -9.830	 -5.481	 -8.318	-73.841	 -8.344	-73.808	-11.215	 17.771
   18.600000000	 -9.534	 -9.132	 -8.325	-85.105	 -8.354	-85.070	-10.477	 14.089
   18.700000000	 -9.607	-12.842	 -8.306	-96.265	 -8.335	-96.224	-10.010	 11.495
   18.800000000	-10.028	-16.276	 -8.262	-107.477	 -8.291	-107.439	 -9.761	  8.940
   18.900000000	-10.828	-19.817	 -8.190	-118.758	 -8.223	-118.739	 -9.733	  7.148
   19.000000000	-12.176	-22.551	 -8.111	-130.174	 -8.140	-130.151	 -9.839	  7.317
   19.100000000	-13.987	-24.395	 -8.035	-141.809	 -8.074	-141.729	 -9.987	  7.817
   19.200000000	-17.152	-22.731	 -7.973	-153.522	 -8.013	-153.449	-10.139	  8.413
   19.300000000	-21.216	-15.019	 -7.922	-165.380	 -7.960	-165.271	-10.254	 10.665
   19.400000000	-25.631	 30.655	 -7.897	-177.484	 -7.928	-177.366	-10.367	 11.044
   19.500000000	-23.618	 79.868	 -7.899	170.346	 -7.937	170.470	-10.293	 11.030
   19.600000000	-19.138	 88.728	 -7.925	158.061	 -7.965	158.121	-10.437	 10.165
   19.700000000	-16.661	 91.175	 -7.971	145.667	 -8.008	145.777	-10.548	  7.131
   19.800000000	-15.364	 87.808	 -8.026	133.221	 -8.062	133.294	-10.902	  3.355
   19.900000000	-14.670	 83.992	 -8.090	120.565	 -8.122	120.702	-11.452	 -2.378
   20.000000000	-14.305	 77.095	 -8.155	107.899	 -8.198	108.000	-12.147	 -9.175
