! Date: Wednesday, June 05, 2013  1:53 PM
! Filename: C:\Data\Mike_Arnold\TGP2105-SM\Over_Temp\TGP2105-SM_EVB01_25C_Phase60.s2p 
! Comments: 
!^VDC(V):5.000
!^VDC(mA):0.122
!%Freq(GHz),S11(dB),S11(ang),S21(dB),S21(ang),S12(dB),S12(ang),S22(dB),S22(ang)
# GHz   S   DB   R   50
    5.000000000	 -7.380	115.279	 -7.281	113.072	 -7.300	113.066	 -9.212	-123.434
    5.100000000	 -7.830	104.899	 -7.175	 96.916	 -7.182	 96.900	 -8.464	-134.423
    5.200000000	 -8.461	 93.811	 -7.046	 81.238	 -7.055	 81.200	 -7.981	-145.038
    5.300000000	 -9.318	 81.406	 -6.909	 65.778	 -6.921	 65.755	 -7.728	-155.577
    5.400000000	-10.538	 67.338	 -6.755	 50.593	 -6.770	 50.546	 -7.669	-165.189
    5.500000000	-12.318	 51.426	 -6.589	 35.514	 -6.604	 35.522	 -7.785	-173.898
    5.600000000	-14.624	 32.906	 -6.398	 20.598	 -6.415	 20.546	 -8.008	178.812
    5.700000000	-17.276	  6.182	 -6.217	  5.223	 -6.230	  5.222	 -8.310	173.181
    5.800000000	-19.233	-38.506	 -6.120	-10.268	 -6.133	-10.291	 -8.522	169.098
    5.900000000	-17.998	-89.461	 -6.111	-25.490	 -6.122	-25.483	 -8.641	166.130
    6.000000000	-15.114	-123.928	 -6.158	-40.311	 -6.170	-40.305	 -8.624	163.262
    6.100000000	-12.633	-146.594	 -6.243	-54.597	 -6.253	-54.595	 -8.521	160.426
    6.200000000	-10.787	-164.260	 -6.343	-68.316	 -6.354	-68.348	 -8.342	157.171
    6.300000000	 -9.499	-179.728	 -6.439	-81.606	 -6.449	-81.647	 -8.185	153.146
    6.400000000	 -8.656	166.936	 -6.510	-94.455	 -6.520	-94.467	 -8.108	148.205
    6.500000000	 -8.087	154.625	 -6.542	-106.984	 -6.554	-106.988	 -8.147	142.919
    6.600000000	 -7.711	142.663	 -6.549	-119.241	 -6.557	-119.263	 -8.272	137.160
    6.700000000	 -7.601	130.923	 -6.491	-131.458	 -6.499	-131.496	 -8.567	130.702
    6.800000000	 -7.667	119.292	 -6.379	-143.755	 -6.404	-143.714	 -9.032	123.961
    6.900000000	 -7.865	107.707	 -6.254	-156.083	 -6.278	-156.032	 -9.658	117.089
    7.000000000	 -8.225	 95.589	 -6.112	-168.621	 -6.133	-168.556	-10.470	109.658
    7.100000000	 -8.724	 83.181	 -5.965	178.718	 -5.989	178.773	-11.521	102.236
    7.200000000	 -9.318	 70.519	 -5.823	165.878	 -5.848	165.911	-12.781	 94.945
    7.300000000	 -9.984	 57.426	 -5.705	152.910	 -5.725	152.973	-14.167	 87.825
    7.400000000	-10.692	 43.996	 -5.600	139.908	 -5.619	139.958	-15.734	 80.913
    7.500000000	-11.447	 30.416	 -5.517	126.858	 -5.541	126.912	-17.450	 74.842
    7.600000000	-12.159	 16.914	 -5.465	113.842	 -5.487	113.920	-19.062	 70.353
    7.700000000	-12.880	  3.663	 -5.427	100.944	 -5.446	100.999	-20.452	 66.918
    7.800000000	-13.635	 -8.982	 -5.399	 88.132	 -5.422	 88.175	-21.495	 66.145
    7.900000000	-14.539	-21.051	 -5.395	 75.379	 -5.415	 75.431	-21.636	 66.997
    8.000000000	-15.523	-32.302	 -5.396	 62.691	 -5.418	 62.762	-20.871	 67.612
    8.100000000	-16.858	-43.120	 -5.408	 50.144	 -5.439	 50.196	-19.724	 66.735
    8.200000000	-18.625	-52.887	 -5.441	 37.629	 -5.468	 37.715	-18.219	 64.521
    8.300000000	-21.129	-61.024	 -5.483	 25.314	 -5.516	 25.382	-16.590	 60.833
    8.400000000	-24.719	-65.963	 -5.541	 13.114	 -5.570	 13.209	-15.147	 55.770
    8.500000000	-31.305	-62.815	 -5.608	  1.046	 -5.633	  1.097	-13.911	 50.050
    8.600000000	-37.476	 20.098	 -5.680	-10.851	 -5.704	-10.783	-12.831	 44.140
    8.700000000	-28.998	 53.809	 -5.755	-22.596	 -5.774	-22.540	-12.030	 37.697
    8.800000000	-25.025	 53.747	 -5.811	-34.195	 -5.834	-34.125	-11.484	 31.024
    8.900000000	-22.947	 50.019	 -5.866	-45.682	 -5.891	-45.583	-11.196	 24.767
    9.000000000	-21.921	 44.670	 -5.900	-57.058	 -5.925	-56.973	-11.139	 17.757
    9.100000000	-21.772	 39.191	 -5.915	-68.391	 -5.943	-68.307	-11.318	 11.009
    9.200000000	-22.576	 35.159	 -5.914	-79.769	 -5.940	-79.660	-11.852	  4.245
    9.300000000	-24.018	 33.962	 -5.905	-91.162	 -5.932	-91.067	-12.555	 -2.882
    9.400000000	-26.515	 36.652	 -5.893	-102.646	 -5.919	-102.531	-13.573	 -9.923
    9.500000000	-30.354	 52.590	 -5.877	-114.146	 -5.904	-114.070	-14.923	-17.856
    9.600000000	-31.980	 92.130	 -5.874	-125.633	 -5.899	-125.599	-16.452	-26.322
    9.700000000	-29.716	126.629	 -5.874	-137.219	 -5.901	-137.142	-18.162	-35.583
    9.800000000	-26.574	142.528	 -5.888	-148.725	 -5.915	-148.635	-19.926	-48.620
    9.900000000	-24.201	150.795	 -5.911	-160.225	 -5.935	-160.137	-21.140	-65.317
   10.000000000	-24.258	144.776	 -5.950	-171.610	 -5.976	-171.514	-20.259	-77.921
   10.100000000	-22.902	148.898	 -5.986	177.000	 -6.017	177.084	-19.557	-90.852
   10.200000000	-20.865	153.120	 -6.028	165.662	 -6.061	165.763	-18.574	-100.286
   10.300000000	-19.301	155.557	 -6.083	154.410	 -6.112	154.473	-17.287	-108.850
   10.400000000	-17.560	155.674	 -6.147	143.219	 -6.177	143.297	-15.920	-115.592
   10.500000000	-16.057	154.887	 -6.217	132.107	 -6.254	132.161	-14.794	-121.982
   10.600000000	-14.702	151.782	 -6.310	121.059	 -6.334	121.136	-13.543	-128.106
   10.700000000	-13.636	148.162	 -6.412	110.186	 -6.430	110.160	-12.621	-133.868
   10.800000000	-12.662	143.754	 -6.513	 99.299	 -6.529	 99.278	-11.803	-140.090
   10.900000000	-12.005	138.940	 -6.617	 88.556	 -6.636	 88.527	-11.153	-145.910
   11.000000000	-11.441	133.702	 -6.719	 77.884	 -6.739	 77.844	-10.654	-152.258
   11.100000000	-11.163	128.274	 -6.815	 67.304	 -6.832	 67.264	-10.341	-158.604
   11.200000000	-10.958	122.938	 -6.906	 56.744	 -6.924	 56.729	-10.107	-165.055
   11.300000000	-10.955	117.509	 -6.988	 46.232	 -7.008	 46.202	 -9.990	-171.880
   11.400000000	-11.106	111.931	 -7.062	 35.751	 -7.079	 35.714	 -9.952	-178.825
   11.500000000	-11.396	106.621	 -7.129	 25.253	 -7.146	 25.213	 -9.971	174.120
   11.600000000	-11.865	100.925	 -7.192	 14.784	 -7.207	 14.746	-10.029	166.908
   11.700000000	-12.561	 95.396	 -7.246	  4.265	 -7.262	  4.259	-10.123	159.568
   11.800000000	-13.496	 90.058	 -7.294	 -6.242	 -7.311	 -6.296	-10.186	152.302
   11.900000000	-14.656	 84.655	 -7.349	-16.782	 -7.366	-16.794	-10.210	145.169
   12.000000000	-16.299	 78.848	 -7.391	-27.432	 -7.410	-27.429	-10.190	138.053
   12.100000000	-18.639	 73.868	 -7.447	-38.048	 -7.458	-38.062	-10.130	131.595
   12.200000000	-22.111	 70.830	 -7.506	-48.708	 -7.522	-48.760	-10.022	125.216
   12.300000000	-27.929	 74.060	 -7.573	-59.425	 -7.588	-59.462	 -9.840	119.240
   12.400000000	-36.431	156.557	 -7.644	-70.180	 -7.660	-70.206	 -9.651	113.564
   12.500000000	-26.272	-158.667	 -7.726	-80.919	 -7.740	-80.959	 -9.428	108.243
   12.600000000	-20.994	-159.485	 -7.812	-91.697	 -7.824	-91.716	 -9.197	103.018
   12.700000000	-17.968	-164.416	 -7.899	-102.445	 -7.919	-102.508	 -8.982	 98.148
   12.800000000	-15.813	-172.039	 -7.994	-113.200	 -8.012	-113.257	 -8.812	 93.372
   12.900000000	-14.298	179.337	 -8.085	-123.901	 -8.103	-123.972	 -8.666	 88.622
   13.000000000	-13.160	170.320	 -8.174	-134.636	 -8.193	-134.708	 -8.570	 83.996
   13.100000000	-12.260	160.854	 -8.261	-145.380	 -8.277	-145.439	 -8.523	 79.368
   13.200000000	-11.496	150.716	 -8.349	-156.036	 -8.366	-156.073	 -8.542	 74.685
   13.300000000	-10.943	140.219	 -8.423	-166.661	 -8.436	-166.721	 -8.614	 69.892
   13.400000000	-10.393	129.554	 -8.489	-177.344	 -8.501	-177.383	 -8.757	 65.197
   13.500000000	 -9.891	118.613	 -8.557	171.970	 -8.571	171.880	 -8.905	 59.901
   13.600000000	 -9.401	107.311	 -8.623	161.263	 -8.641	161.173	 -9.122	 54.620
   13.700000000	 -8.970	 96.684	 -8.704	150.554	 -8.714	150.513	 -9.365	 48.670
   13.800000000	 -8.512	 86.333	 -8.786	139.877	 -8.791	139.824	 -9.612	 42.605
   13.900000000	 -8.044	 76.854	 -8.873	129.366	 -8.888	129.249	 -9.885	 35.864
   14.000000000	 -7.641	 67.564	 -8.968	118.820	 -8.973	118.732	-10.138	 29.020
   14.100000000	 -7.265	 59.609	 -9.050	108.437	 -9.065	108.363	-10.412	 21.639
   14.200000000	 -6.956	 52.120	 -9.131	 98.156	 -9.140	 98.070	-10.743	 14.315
   14.300000000	 -6.704	 45.695	 -9.199	 87.911	 -9.208	 87.846	-11.092	  7.479
   14.400000000	 -6.544	 40.043	 -9.240	 77.814	 -9.255	 77.760	-11.516	  1.148
   14.500000000	 -6.399	 35.263	 -9.271	 67.689	 -9.286	 67.588	-12.053	 -5.275
   14.600000000	 -6.439	 31.177	 -9.263	 57.651	 -9.275	 57.564	-12.714	 -9.890
   14.700000000	 -6.438	 28.425	 -9.244	 47.520	 -9.254	 47.479	-13.652	-13.375
   14.800000000	 -6.597	 26.247	 -9.185	 37.325	 -9.197	 37.274	-14.687	-14.916
   14.900000000	 -6.734	 24.556	 -9.119	 27.047	 -9.132	 26.956	-15.974	-12.496
   15.000000000	 -6.909	 24.574	 -9.036	 16.676	 -9.055	 16.601	-17.264	 -5.659
   15.100000000	 -7.101	 24.360	 -8.958	  6.208	 -8.974	  6.130	-18.015	  5.899
   15.200000000	 -7.300	 25.145	 -8.885	 -4.315	 -8.903	 -4.372	-17.884	 19.377
   15.300000000	 -7.446	 25.918	 -8.826	-14.887	 -8.838	-14.929	-16.805	 30.143
   15.400000000	 -7.593	 26.264	 -8.778	-25.398	 -8.788	-25.477	-15.581	 35.632
   15.500000000	 -7.807	 26.686	 -8.726	-35.960	 -8.748	-35.950	-14.476	 37.302
   15.600000000	 -8.037	 26.255	 -8.698	-46.407	 -8.714	-46.413	-13.640	 37.531
   15.700000000	 -8.374	 25.083	 -8.659	-56.864	 -8.675	-56.889	-13.092	 36.166
   15.800000000	 -8.873	 23.002	 -8.624	-67.360	 -8.639	-67.392	-12.873	 34.258
   15.900000000	 -9.435	 20.541	 -8.589	-77.910	 -8.608	-77.915	-12.845	 31.935
   16.000000000	-10.179	 16.650	 -8.557	-88.522	 -8.572	-88.578	-13.085	 30.356
   16.100000000	-11.058	 11.411	 -8.515	-99.334	 -8.544	-99.303	-13.605	 27.397
   16.200000000	-11.994	  5.150	 -8.493	-110.215	 -8.517	-110.225	-14.166	 25.086
   16.300000000	-12.912	 -2.982	 -8.470	-121.269	 -8.501	-121.224	-15.164	 22.068
   16.400000000	-13.683	-13.212	 -8.461	-132.430	 -8.491	-132.396	-16.389	 17.758
   16.500000000	-14.300	-25.002	 -8.469	-143.644	 -8.497	-143.607	-17.949	 13.348
   16.600000000	-14.307	-36.905	 -8.483	-154.905	 -8.512	-154.849	-20.180	  5.424
   16.700000000	-14.118	-50.251	 -8.514	-166.152	 -8.547	-166.121	-23.016	 -5.951
   16.800000000	-13.422	-58.489	 -8.557	-177.346	 -8.584	-177.269	-29.154	-33.623
   16.900000000	-12.857	-68.985	 -8.604	171.499	 -8.634	171.569	-28.771	-90.748
   17.000000000	-12.050	-74.868	 -8.653	160.541	 -8.685	160.608	-26.408	-135.314
   17.100000000	-11.741	-82.118	 -8.697	149.718	 -8.726	149.752	-22.322	-151.558
   17.200000000	-11.058	-87.297	 -8.744	138.851	 -8.770	138.951	-21.091	-163.111
   17.300000000	-10.997	-90.674	 -8.756	128.270	 -8.787	128.352	-19.834	-175.690
   17.400000000	-10.829	-94.589	 -8.773	117.663	 -8.793	117.674	-19.444	175.692
   17.500000000	-11.062	-97.669	 -8.754	107.008	 -8.779	107.045	-19.663	164.169
   17.600000000	-11.435	-100.333	 -8.721	 96.259	 -8.749	 96.290	-20.460	150.364
   17.700000000	-12.055	-102.430	 -8.682	 85.371	 -8.699	 85.365	-21.617	131.212
   17.800000000	-12.882	-104.261	 -8.629	 74.242	 -8.657	 74.262	-22.091	106.069
   17.900000000	-14.036	-105.244	 -8.584	 62.945	 -8.606	 62.950	-21.315	 79.301
   18.000000000	-15.748	-107.397	 -8.534	 51.408	 -8.558	 51.443	-19.586	 57.120
   18.100000000	-18.142	-107.663	 -8.497	 39.728	 -8.516	 39.751	-17.650	 43.057
   18.200000000	-22.229	-107.861	 -8.475	 27.883	 -8.497	 27.932	-15.897	 34.597
   18.300000000	-30.655	-101.075	 -8.462	 15.970	 -8.488	 15.971	-14.248	 28.649
   18.400000000	-30.023	 46.226	 -8.467	  3.975	 -8.491	  3.993	-12.943	 24.779
   18.500000000	-21.133	 52.788	 -8.490	 -7.995	 -8.517	 -7.977	-11.835	 21.789
   18.600000000	-16.583	 50.306	 -8.532	-19.891	 -8.556	-19.876	-10.867	 19.389
   18.700000000	-13.820	 47.341	 -8.575	-31.618	 -8.599	-31.574	-10.066	 17.314
   18.800000000	-11.924	 43.928	 -8.627	-43.147	 -8.657	-43.113	 -9.462	 14.550
   18.900000000	-10.652	 40.149	 -8.663	-54.575	 -8.693	-54.519	 -9.090	 11.622
   19.000000000	 -9.833	 36.833	 -8.685	-65.719	 -8.713	-65.769	 -8.903	  9.522
   19.100000000	 -9.374	 32.817	 -8.681	-76.953	 -8.722	-76.837	 -8.917	  6.992
   19.200000000	 -9.287	 30.481	 -8.644	-87.991	 -8.680	-87.896	 -9.128	  3.961
   19.300000000	 -9.493	 26.118	 -8.566	-99.191	 -8.607	-99.095	 -9.579	  2.593
   19.400000000	 -9.953	 24.075	 -8.464	-110.705	 -8.500	-110.574	-10.278	  0.257
   19.500000000	-11.021	 20.069	 -8.346	-122.590	 -8.378	-122.514	-11.011	 -0.254
   19.600000000	-11.988	 17.544	 -8.236	-134.810	 -8.274	-134.734	-12.045	  0.316
   19.700000000	-13.541	 15.265	 -8.132	-147.353	 -8.170	-147.250	-12.924	  1.630
   19.800000000	-15.292	 12.061	 -8.046	-160.284	 -8.080	-160.174	-13.796	  4.330
   19.900000000	-17.696	  8.776	 -7.965	-173.476	 -7.998	-173.376	-14.512	  6.103
   20.000000000	-20.245	  5.942	 -7.912	173.030	 -7.947	173.147	-14.999	  6.990
