! Date: Wednesday, June 05, 2013  1:49 PM
! Filename: C:\Data\Mike_Arnold\TGP2105-SM\Over_Temp\TGP2105-SM_EVB01_25C_Phase1.s2p 
! Comments: 
!^VDC(V):5.000
!^VDC(mA):0.020
!%Freq(GHz),S11(dB),S11(ang),S21(dB),S21(ang),S12(dB),S12(ang),S22(dB),S22(ang)
# GHz   S   DB   R   50
    5.000000000	-14.778	-130.536	 -8.038	116.673	 -8.050	116.623	 -5.906	 98.088
    5.100000000	-11.381	-149.376	 -8.175	101.128	 -8.193	101.104	 -5.909	 94.159
    5.200000000	 -9.200	-164.826	 -8.346	 86.332	 -8.358	 86.262	 -5.883	 89.699
    5.300000000	 -7.769	-178.384	 -8.520	 72.223	 -8.539	 72.195	 -5.822	 84.854
    5.400000000	 -6.804	169.462	 -8.656	 58.757	 -8.671	 58.689	 -5.810	 79.152
    5.500000000	 -6.139	158.674	 -8.750	 45.834	 -8.766	 45.814	 -5.861	 72.842
    5.600000000	 -5.683	148.334	 -8.778	 33.240	 -8.790	 33.232	 -6.033	 66.121
    5.700000000	 -5.420	138.564	 -8.748	 20.891	 -8.760	 20.839	 -6.299	 58.659
    5.800000000	 -5.329	129.530	 -8.642	  8.607	 -8.657	  8.604	 -6.713	 50.541
    5.900000000	 -5.324	120.990	 -8.489	 -3.696	 -8.504	 -3.708	 -7.315	 41.515
    6.000000000	 -5.436	112.563	 -8.298	-16.144	 -8.313	-16.173	 -8.131	 31.735
    6.100000000	 -5.699	104.382	 -8.086	-28.748	 -8.097	-28.799	 -9.212	 20.883
    6.200000000	 -6.081	 96.703	 -7.848	-41.462	 -7.865	-41.503	-10.667	  9.140
    6.300000000	 -6.569	 89.428	 -7.582	-54.252	 -7.596	-54.275	-12.431	 -3.224
    6.400000000	 -7.190	 82.734	 -7.271	-67.683	 -7.287	-67.720	-14.412	-17.403
    6.500000000	 -7.813	 76.874	 -7.042	-81.712	 -7.062	-81.740	-16.790	-36.092
    6.600000000	 -8.388	 71.614	 -6.908	-95.552	 -6.923	-95.569	-19.739	-61.368
    6.700000000	 -8.951	 65.754	 -6.809	-109.359	 -6.827	-109.395	-22.743	-95.580
    6.800000000	 -9.522	 59.773	 -6.732	-123.105	 -6.753	-123.045	-24.262	-138.857
    6.900000000	-10.086	 53.977	 -6.685	-136.619	 -6.717	-136.564	-23.729	-178.554
    7.000000000	-10.579	 47.446	 -6.665	-149.981	 -6.693	-149.923	-22.775	149.891
    7.100000000	-11.080	 40.531	 -6.657	-163.229	 -6.678	-163.192	-21.997	123.759
    7.200000000	-11.550	 33.542	 -6.649	-176.372	 -6.677	-176.297	-21.327	 99.949
    7.300000000	-11.948	 26.277	 -6.649	170.603	 -6.682	170.672	-20.572	 76.981
    7.400000000	-12.292	 18.848	 -6.671	157.698	 -6.693	157.769	-19.741	 54.655
    7.500000000	-12.606	 11.398	 -6.685	144.872	 -6.709	144.947	-18.859	 34.377
    7.600000000	-12.822	  4.312	 -6.708	132.175	 -6.738	132.208	-17.862	 16.805
    7.700000000	-12.983	 -2.669	 -6.728	119.611	 -6.759	119.652	-16.889	  1.374
    7.800000000	-13.150	 -9.324	 -6.752	107.091	 -6.779	107.165	-16.144	-12.612
    7.900000000	-13.361	-15.624	 -6.768	 94.691	 -6.794	 94.774	-15.642	-24.685
    8.000000000	-13.542	-21.630	 -6.781	 82.415	 -6.809	 82.469	-15.401	-35.303
    8.100000000	-13.878	-27.458	 -6.789	 70.074	 -6.819	 70.173	-15.434	-46.024
    8.200000000	-14.321	-32.740	 -6.787	 57.761	 -6.820	 57.864	-15.880	-56.513
    8.300000000	-14.903	-37.202	 -6.791	 45.519	 -6.819	 45.625	-16.771	-67.049
    8.400000000	-15.561	-41.078	 -6.791	 33.215	 -6.821	 33.275	-18.050	-78.791
    8.500000000	-16.460	-44.463	 -6.794	 20.873	 -6.825	 20.966	-19.907	-93.399
    8.600000000	-17.352	-46.657	 -6.807	  8.470	 -6.838	  8.571	-22.488	-113.430
    8.700000000	-18.207	-48.363	 -6.832	 -3.917	 -6.863	 -3.844	-24.780	-144.879
    8.800000000	-18.990	-51.568	 -6.869	-16.342	 -6.898	-16.243	-24.765	176.582
    8.900000000	-19.756	-56.866	 -6.915	-28.691	 -6.944	-28.605	-22.405	147.273
    9.000000000	-20.417	-65.674	 -6.968	-41.039	 -6.999	-40.959	-20.214	131.867
    9.100000000	-20.904	-80.017	 -7.032	-53.352	 -7.060	-53.306	-18.300	122.446
    9.200000000	-20.975	-101.154	 -7.106	-65.694	 -7.137	-65.600	-16.625	118.122
    9.300000000	-20.260	-125.430	 -7.188	-77.978	 -7.220	-77.894	-15.328	114.724
    9.400000000	-18.734	-148.051	 -7.281	-90.204	 -7.318	-90.097	-14.080	112.629
    9.500000000	-16.804	-166.753	 -7.407	-102.312	 -7.435	-102.221	-12.984	111.307
    9.600000000	-15.104	177.512	 -7.530	-114.282	 -7.561	-114.189	-12.012	109.219
    9.700000000	-13.657	165.124	 -7.666	-126.092	 -7.700	-125.991	-11.130	106.635
    9.800000000	-12.496	154.177	 -7.811	-137.660	 -7.845	-137.550	-10.435	104.207
    9.900000000	-11.674	144.519	 -7.954	-149.013	 -7.984	-148.916	 -9.934	101.191
   10.000000000	-11.571	129.828	 -8.053	-160.905	 -8.076	-160.790	 -9.802	 97.318
   10.100000000	-11.256	119.722	 -8.151	-172.069	 -8.184	-172.017	 -9.635	 93.334
   10.200000000	-11.032	110.940	 -8.245	176.824	 -8.276	176.977	 -9.546	 88.685
   10.300000000	-11.113	102.229	 -8.318	165.908	 -8.358	166.001	 -9.572	 84.264
   10.400000000	-11.306	 94.118	 -8.370	155.071	 -8.410	155.176	 -9.710	 79.361
   10.500000000	-11.813	 86.623	 -8.418	144.253	 -8.444	144.357	 -9.827	 74.167
   10.600000000	-12.491	 79.098	 -8.438	133.468	 -8.471	133.588	-10.129	 69.192
   10.700000000	-13.512	 71.654	 -8.462	122.789	 -8.478	122.726	-10.389	 63.699
   10.800000000	-14.891	 65.076	 -8.469	111.926	 -8.485	111.888	-10.663	 58.356
   10.900000000	-16.864	 57.617	 -8.473	101.078	 -8.490	101.000	-10.929	 52.512
   11.000000000	-19.690	 51.734	 -8.474	 90.144	 -8.496	 90.102	-11.120	 46.825
   11.100000000	-24.436	 44.529	 -8.488	 79.201	 -8.508	 79.139	-11.205	 40.924
   11.200000000	-37.071	 49.543	 -8.509	 68.257	 -8.525	 68.210	-11.234	 35.008
   11.300000000	-29.219	-156.463	 -8.530	 57.312	 -8.551	 57.292	-11.172	 29.378
   11.400000000	-21.702	-160.993	 -8.570	 46.409	 -8.585	 46.345	-11.021	 23.705
   11.500000000	-17.695	-167.548	 -8.616	 35.567	 -8.632	 35.518	-10.843	 17.973
   11.600000000	-15.138	-174.495	 -8.675	 24.825	 -8.693	 24.804	-10.632	 12.459
   11.700000000	-13.241	178.915	 -8.741	 14.218	 -8.761	 14.164	-10.397	  6.941
   11.800000000	-11.785	172.099	 -8.818	  3.678	 -8.840	  3.647	-10.213	  1.472
   11.900000000	-10.683	164.993	 -8.889	 -6.665	 -8.912	 -6.694	-10.066	 -3.867
   12.000000000	 -9.857	158.217	 -8.967	-16.880	 -8.984	-16.914	 -9.969	 -9.122
   12.100000000	 -9.208	151.553	 -9.036	-26.965	 -9.055	-27.051	 -9.970	-14.696
   12.200000000	 -8.709	145.003	 -9.102	-36.975	 -9.114	-37.037	-10.006	-20.158
   12.300000000	 -8.361	138.144	 -9.152	-46.873	 -9.169	-47.004	-10.163	-25.694
   12.400000000	 -8.119	131.608	 -9.199	-56.805	 -9.216	-56.871	-10.378	-31.371
   12.500000000	 -7.964	124.750	 -9.236	-66.694	 -9.248	-66.748	-10.699	-37.404
   12.600000000	 -7.864	117.924	 -9.260	-76.522	 -9.280	-76.578	-11.100	-43.485
   12.700000000	 -7.861	110.672	 -9.279	-86.425	 -9.292	-86.513	-11.592	-50.099
   12.800000000	 -7.855	103.418	 -9.287	-96.367	 -9.305	-96.431	-12.141	-57.027
   12.900000000	 -7.861	 95.814	 -9.297	-106.344	 -9.312	-106.402	-12.762	-64.419
   13.000000000	 -7.898	 87.978	 -9.301	-116.363	 -9.323	-116.417	-13.433	-72.401
   13.100000000	 -7.929	 80.067	 -9.306	-126.421	 -9.318	-126.466	-14.146	-80.866
   13.200000000	 -7.908	 72.273	 -9.312	-136.426	 -9.321	-136.510	-14.881	-89.698
   13.300000000	 -7.876	 64.124	 -9.311	-146.539	 -9.325	-146.595	-15.602	-98.889
   13.400000000	 -7.825	 56.430	 -9.326	-156.591	 -9.333	-156.649	-16.316	-108.629
   13.500000000	 -7.729	 48.872	 -9.326	-166.627	 -9.338	-166.703	-17.155	-117.462
   13.600000000	 -7.583	 41.670	 -9.345	-176.643	 -9.356	-176.686	-18.060	-126.875
   13.700000000	 -7.467	 34.814	 -9.350	173.435	 -9.367	173.296	-19.171	-134.893
   13.800000000	 -7.316	 28.638	 -9.360	163.403	 -9.373	163.343	-20.684	-143.542
   13.900000000	 -7.176	 23.325	 -9.366	153.501	 -9.378	153.413	-22.744	-150.786
   14.000000000	 -7.002	 18.052	 -9.375	143.541	 -9.392	143.493	-26.155	-159.180
   14.100000000	 -6.899	 13.631	 -9.385	133.677	 -9.396	133.557	-32.596	-164.432
   14.200000000	 -6.784	  9.437	 -9.389	123.730	 -9.407	123.655	-51.451	 -2.057
   14.300000000	 -6.694	  5.853	 -9.395	113.888	 -9.407	113.815	-30.524	  3.825
   14.400000000	 -6.662	  2.422	 -9.390	104.028	 -9.403	103.983	-25.090	 -1.324
   14.500000000	 -6.639	 -0.434	 -9.377	 94.232	 -9.396	 94.155	-22.050	 -8.431
   14.600000000	 -6.737	 -3.671	 -9.349	 84.471	 -9.361	 84.374	-20.141	-12.676
   14.700000000	 -6.870	 -5.878	 -9.304	 74.713	 -9.321	 74.643	-19.115	-17.318
   14.800000000	 -7.149	 -8.541	 -9.238	 64.938	 -9.252	 64.854	-18.416	-21.843
   14.900000000	 -7.440	-11.085	 -9.161	 55.157	 -9.180	 55.095	-18.398	-24.344
   15.000000000	 -7.950	-12.662	 -9.063	 45.347	 -9.081	 45.258	-18.891	-26.551
   15.100000000	 -8.514	-14.883	 -8.952	 35.454	 -8.971	 35.391	-19.798	-26.801
   15.200000000	 -9.294	-16.477	 -8.843	 25.490	 -8.856	 25.371	-21.311	-24.217
   15.300000000	-10.144	-17.857	 -8.731	 15.384	 -8.743	 15.312	-23.173	-14.600
   15.400000000	-11.082	-19.387	 -8.628	  5.275	 -8.646	  5.199	-24.817	  3.033
   15.500000000	-12.285	-21.026	 -8.530	 -5.009	 -8.553	 -5.022	-24.741	 26.904
   15.600000000	-13.517	-23.035	 -8.461	-15.256	 -8.482	-15.264	-23.033	 47.170
   15.700000000	-14.881	-26.835	 -8.401	-25.492	 -8.425	-25.548	-20.997	 57.502
   15.800000000	-16.358	-33.608	 -8.367	-35.863	 -8.384	-35.888	-19.344	 62.928
   15.900000000	-17.881	-42.861	 -8.342	-46.193	 -8.363	-46.210	-17.949	 65.121
   16.000000000	-19.066	-58.279	 -8.332	-56.572	 -8.354	-56.571	-16.834	 67.173
   16.100000000	-19.409	-78.272	 -8.332	-66.983	 -8.358	-66.956	-16.155	 67.108
   16.200000000	-18.895	-97.378	 -8.353	-77.413	 -8.380	-77.339	-15.375	 65.921
   16.300000000	-17.698	-112.725	 -8.376	-87.802	 -8.403	-87.744	-14.966	 64.494
   16.400000000	-16.395	-123.627	 -8.404	-98.213	 -8.433	-98.191	-14.653	 61.019
   16.500000000	-15.218	-132.500	 -8.432	-108.630	 -8.467	-108.571	-14.399	 56.678
   16.600000000	-14.457	-137.981	 -8.460	-118.997	 -8.486	-118.950	-14.450	 50.164
   16.700000000	-13.627	-143.198	 -8.482	-129.378	 -8.508	-129.382	-14.518	 41.875
   16.800000000	-13.554	-146.125	 -8.487	-139.738	 -8.517	-139.698	-15.086	 33.702
   16.900000000	-13.224	-149.976	 -8.497	-150.193	 -8.528	-150.162	-15.353	 18.117
   17.000000000	-13.507	-151.214	 -8.502	-160.593	 -8.529	-160.537	-15.428	  5.328
   17.100000000	-13.746	-156.067	 -8.507	-171.073	 -8.536	-170.988	-15.465	-12.482
   17.200000000	-14.244	-156.255	 -8.524	178.455	 -8.550	178.489	-14.692	-26.381
   17.300000000	-15.532	-160.610	 -8.531	168.007	 -8.553	168.040	-14.215	-38.842
   17.400000000	-16.919	-163.270	 -8.552	157.420	 -8.577	157.460	-13.372	-49.711
   17.500000000	-19.398	-169.578	 -8.576	146.820	 -8.605	146.845	-12.682	-57.363
   17.600000000	-23.416	-179.839	 -8.610	136.077	 -8.642	136.118	-11.997	-62.856
   17.700000000	-31.413	141.638	 -8.665	125.259	 -8.688	125.275	-11.422	-66.403
   17.800000000	-27.939	 40.046	 -8.734	114.365	 -8.748	114.377	-10.977	-69.004
   17.900000000	-20.818	 16.689	 -8.816	103.324	 -8.845	103.385	-10.608	-70.732
   18.000000000	-17.115	  8.634	 -8.925	 92.305	 -8.946	 92.347	-10.239	-71.916
   18.100000000	-14.577	  1.195	 -9.038	 81.266	 -9.070	 81.279	-10.003	-73.402
   18.200000000	-12.999	 -4.581	 -9.165	 70.278	 -9.191	 70.288	 -9.904	-75.318
   18.300000000	-12.077	-10.455	 -9.288	 59.284	 -9.312	 59.294	 -9.949	-77.108
   18.400000000	-11.600	-14.605	 -9.401	 48.294	 -9.435	 48.269	-10.162	-80.046
   18.500000000	-11.680	-19.021	 -9.528	 37.334	 -9.556	 37.343	-10.603	-83.878
   18.600000000	-12.167	-21.907	 -9.673	 26.414	 -9.693	 26.425	-11.347	-88.674
   18.700000000	-13.294	-23.303	 -9.829	 15.717	 -9.853	 15.734	-12.551	-94.969
   18.800000000	-15.125	-20.478	-10.016	  5.524	-10.044	  5.561	-14.267	-103.579
   18.900000000	-17.321	 -9.426	-10.171	 -3.766	-10.202	 -3.728	-16.973	-116.053
   19.000000000	-18.453	 13.850	-10.148	-12.268	-10.183	-12.262	-22.136	-138.216
   19.100000000	-17.313	 31.672	 -9.856	-21.281	 -9.897	-21.185	-30.866	159.213
   19.200000000	-16.078	 43.762	 -9.443	-31.834	 -9.488	-31.689	-27.004	 67.911
   19.300000000	-15.350	 48.067	 -9.096	-43.856	 -9.132	-43.732	-22.483	 46.557
   19.400000000	-14.615	 55.401	 -8.885	-56.673	 -8.927	-56.524	-21.605	 31.424
   19.500000000	-14.489	 61.091	 -8.789	-69.659	 -8.822	-69.561	-21.764	 21.498
   19.600000000	-13.680	 64.109	 -8.772	-82.763	 -8.816	-82.619	-23.939	 16.411
   19.700000000	-13.132	 66.570	 -8.816	-95.720	 -8.851	-95.579	-27.836	 11.161
   19.800000000	-12.693	 65.243	 -8.887	-108.696	 -8.924	-108.611	-37.902	 41.836
   19.900000000	-12.449	 62.453	 -8.995	-121.677	 -9.032	-121.604	-31.475	148.782
   20.000000000	-12.204	 56.328	 -9.132	-134.652	 -9.162	-134.535	-24.903	152.124
