! Date: Wednesday, June 05, 2013  1:52 PM
! Filename: C:\Data\Mike_Arnold\TGP2105-SM\Over_Temp\TGP2105-SM_EVB01_25C_Phase46.s2p 
! Comments: 
!^VDC(V):5.000
!^VDC(mA):0.121
!%Freq(GHz),S11(dB),S11(ang),S21(dB),S21(ang),S12(dB),S12(ang),S22(dB),S22(ang)
# GHz   S   DB   R   50
    5.000000000	 -6.651	111.947	 -8.393	 38.120	 -8.405	 38.096	 -6.416	106.944
    5.100000000	 -7.209	 99.013	 -8.181	 23.122	 -8.193	 23.108	 -6.332	 99.961
    5.200000000	 -8.048	 85.176	 -7.915	  8.147	 -7.927	  8.120	 -6.444	 92.971
    5.300000000	 -9.244	 69.617	 -7.624	 -6.921	 -7.639	 -6.988	 -6.698	 86.415
    5.400000000	-10.968	 51.568	 -7.331	-22.238	 -7.339	-22.305	 -7.152	 80.184
    5.500000000	-13.492	 29.354	 -7.047	-37.784	 -7.064	-37.803	 -7.786	 74.901
    5.600000000	-16.846	 -0.692	 -6.790	-53.393	 -6.805	-53.446	 -8.552	 71.382
    5.700000000	-19.550	-48.746	 -6.591	-69.412	 -6.605	-69.440	 -9.221	 69.241
    5.800000000	-18.062	-101.968	 -6.493	-85.329	 -6.510	-85.345	 -9.761	 67.809
    5.900000000	-15.075	-136.579	 -6.484	-100.840	 -6.494	-100.927	-10.212	 66.277
    6.000000000	-12.809	-159.165	 -6.512	-115.905	 -6.528	-115.937	-10.537	 64.265
    6.100000000	-11.292	-175.837	 -6.562	-130.403	 -6.575	-130.428	-10.835	 60.913
    6.200000000	-10.271	170.091	 -6.603	-144.454	 -6.617	-144.468	-11.236	 56.345
    6.300000000	 -9.649	157.281	 -6.631	-158.200	 -6.641	-158.188	-11.737	 50.641
    6.400000000	 -9.399	146.076	 -6.630	-171.669	 -6.641	-171.673	-12.405	 43.614
    6.500000000	 -9.364	135.966	 -6.599	175.019	 -6.615	174.987	-13.338	 35.304
    6.600000000	 -9.485	126.399	 -6.562	161.717	 -6.573	161.664	-14.551	 26.440
    6.700000000	 -9.827	117.117	 -6.501	148.416	 -6.517	148.357	-16.038	 16.565
    6.800000000	-10.308	108.400	 -6.437	135.028	 -6.463	135.100	-17.871	  5.535
    6.900000000	-10.892	100.230	 -6.384	121.748	 -6.411	121.804	-20.200	 -5.901
    7.000000000	-11.550	 91.573	 -6.339	108.458	 -6.360	108.509	-22.869	-16.511
    7.100000000	-12.310	 82.974	 -6.303	 95.214	 -6.321	 95.268	-26.152	-25.510
    7.200000000	-13.092	 74.576	 -6.272	 82.021	 -6.295	 82.062	-30.314	-28.678
    7.300000000	-13.883	 65.798	 -6.256	 68.895	 -6.282	 68.917	-34.776	 -6.275
    7.400000000	-14.657	 56.773	 -6.254	 55.814	 -6.280	 55.870	-32.796	 29.641
    7.500000000	-15.394	 47.938	 -6.256	 42.839	 -6.281	 42.905	-28.659	 36.775
    7.600000000	-15.949	 39.513	 -6.267	 30.041	 -6.294	 30.095	-25.216	 33.742
    7.700000000	-16.399	 31.320	 -6.292	 17.332	 -6.316	 17.396	-22.535	 26.348
    7.800000000	-16.658	 23.900	 -6.310	  4.797	 -6.334	  4.841	-20.546	 18.492
    7.900000000	-16.796	 17.485	 -6.332	 -7.633	 -6.356	 -7.551	-18.922	 11.425
    8.000000000	-16.740	 11.298	 -6.354	-19.926	 -6.374	-19.857	-17.600	  5.265
    8.100000000	-16.685	  5.437	 -6.366	-32.069	 -6.391	-31.981	-16.599	 -1.697
    8.200000000	-16.599	 -0.680	 -6.378	-44.148	 -6.403	-44.075	-15.980	 -8.242
    8.300000000	-16.583	 -6.629	 -6.373	-56.129	 -6.399	-56.036	-15.619	-14.294
    8.400000000	-16.694	-13.380	 -6.361	-68.073	 -6.391	-67.977	-15.575	-20.872
    8.500000000	-17.205	-20.611	 -6.339	-80.014	 -6.370	-79.955	-15.950	-28.025
    8.600000000	-18.008	-27.953	 -6.317	-91.998	 -6.344	-91.907	-16.820	-34.809
    8.700000000	-19.308	-35.990	 -6.290	-104.035	 -6.315	-103.961	-18.267	-42.750
    8.800000000	-21.344	-45.386	 -6.274	-116.130	 -6.304	-116.087	-20.560	-52.201
    8.900000000	-24.726	-56.678	 -6.274	-128.289	 -6.299	-128.211	-24.784	-65.473
    9.000000000	-30.491	-71.743	 -6.292	-140.443	 -6.316	-140.376	-31.809	-98.835
    9.100000000	-42.021	-148.770	 -6.321	-152.556	 -6.355	-152.466	-31.352	159.262
    9.200000000	-31.603	127.583	 -6.377	-164.575	 -6.405	-164.503	-24.069	132.102
    9.300000000	-26.697	112.187	 -6.437	-176.436	 -6.469	-176.362	-20.526	120.696
    9.400000000	-24.578	103.587	 -6.509	171.826	 -6.540	171.922	-18.225	114.041
    9.500000000	-23.980	 99.717	 -6.578	160.246	 -6.605	160.340	-16.859	110.499
    9.600000000	-24.271	 98.139	 -6.639	148.842	 -6.667	148.929	-15.923	108.020
    9.700000000	-25.703	104.358	 -6.695	137.479	 -6.719	137.524	-15.235	106.824
    9.800000000	-26.821	125.508	 -6.733	126.199	 -6.766	126.261	-14.716	107.639
    9.900000000	-25.402	152.440	 -6.782	114.932	 -6.812	115.034	-14.291	108.907
   10.000000000	-24.963	147.131	 -6.802	103.493	 -6.828	103.563	-14.533	108.058
   10.100000000	-22.380	155.422	 -6.834	 92.278	 -6.866	 92.360	-14.306	108.951
   10.200000000	-19.584	156.966	 -6.879	 81.120	 -6.902	 81.216	-13.980	108.810
   10.300000000	-17.668	155.254	 -6.923	 70.091	 -6.951	 70.158	-13.621	108.586
   10.400000000	-15.988	151.184	 -6.974	 59.080	 -7.013	 59.165	-13.312	107.218
   10.500000000	-14.717	147.385	 -7.030	 48.223	 -7.066	 48.315	-12.928	104.100
   10.600000000	-13.728	142.187	 -7.099	 37.455	 -7.126	 37.546	-12.760	101.033
   10.700000000	-13.040	137.204	 -7.160	 26.887	 -7.181	 26.868	-12.615	 96.126
   10.800000000	-12.458	132.250	 -7.224	 16.311	 -7.244	 16.269	-12.513	 90.772
   10.900000000	-12.190	127.261	 -7.280	  5.802	 -7.299	  5.752	-12.564	 84.426
   11.000000000	-11.974	122.311	 -7.336	 -4.648	 -7.353	 -4.702	-12.579	 77.681
   11.100000000	-12.028	117.378	 -7.385	-15.074	 -7.399	-15.101	-12.635	 70.312
   11.200000000	-12.159	112.711	 -7.430	-25.436	 -7.445	-25.473	-12.717	 62.897
   11.300000000	-12.514	108.168	 -7.468	-35.770	 -7.483	-35.808	-12.754	 55.742
   11.400000000	-13.038	103.693	 -7.503	-46.083	 -7.520	-46.148	-12.771	 48.846
   11.500000000	-13.766	100.048	 -7.529	-56.386	 -7.548	-56.435	-12.788	 42.355
   11.600000000	-14.744	 96.517	 -7.556	-66.705	 -7.575	-66.724	-12.773	 36.650
   11.700000000	-16.066	 94.395	 -7.578	-76.984	 -7.597	-77.040	-12.695	 31.584
   11.800000000	-17.761	 94.857	 -7.599	-87.339	 -7.619	-87.357	-12.637	 27.246
   11.900000000	-19.664	 98.937	 -7.614	-97.627	 -7.632	-97.660	-12.542	 23.674
   12.000000000	-21.821	109.562	 -7.639	-107.996	 -7.661	-108.016	-12.390	 20.806
   12.100000000	-23.018	130.478	 -7.660	-118.333	 -7.678	-118.408	-12.278	 18.023
   12.200000000	-22.025	151.893	 -7.691	-128.738	 -7.708	-128.784	-12.096	 15.450
   12.300000000	-20.028	162.723	 -7.726	-139.104	 -7.737	-139.169	-11.934	 12.986
   12.400000000	-18.074	167.196	 -7.759	-149.509	 -7.776	-149.563	-11.770	 10.248
   12.500000000	-16.506	166.493	 -7.793	-159.930	 -7.807	-159.998	-11.654	  7.307
   12.600000000	-15.215	163.394	 -7.836	-170.320	 -7.850	-170.415	-11.549	  4.201
   12.700000000	-14.356	159.069	 -7.865	179.194	 -7.881	179.146	-11.539	  0.592
   12.800000000	-13.628	153.431	 -7.902	168.719	 -7.914	168.662	-11.555	 -3.360
   12.900000000	-13.117	146.671	 -7.925	158.235	 -7.945	158.166	-11.629	 -7.461
   13.000000000	-12.776	139.631	 -7.950	147.699	 -7.970	147.666	-11.773	-12.036
   13.100000000	-12.529	132.179	 -7.976	137.164	 -7.994	137.116	-11.955	-16.860
   13.200000000	-12.275	124.135	 -8.000	126.659	 -8.016	126.590	-12.136	-21.949
   13.300000000	-12.135	115.598	 -8.015	116.092	 -8.028	116.071	-12.364	-27.433
   13.400000000	-11.938	107.220	 -8.018	105.512	 -8.033	105.453	-12.613	-33.255
   13.500000000	-11.724	 98.336	 -8.023	 94.896	 -8.034	 94.812	-12.793	-38.531
   13.600000000	-11.459	 89.441	 -8.038	 84.275	 -8.050	 84.186	-13.017	-44.410
   13.700000000	-11.243	 81.126	 -8.047	 73.628	 -8.063	 73.539	-13.188	-49.967
   13.800000000	-10.946	 73.457	 -8.069	 62.970	 -8.079	 62.891	-13.438	-55.043
   13.900000000	-10.610	 66.917	 -8.084	 52.303	 -8.099	 52.241	-13.719	-59.677
   14.000000000	-10.284	 60.670	 -8.105	 41.596	 -8.117	 41.584	-14.143	-63.130
   14.100000000	 -9.941	 56.077	 -8.132	 30.978	 -8.144	 30.921	-14.635	-65.362
   14.200000000	 -9.574	 51.986	 -8.157	 20.293	 -8.167	 20.187	-15.243	-66.156
   14.300000000	 -9.159	 49.048	 -8.194	  9.544	 -8.205	  9.484	-16.012	-64.323
   14.400000000	 -8.740	 46.646	 -8.235	 -1.143	 -8.245	 -1.251	-16.702	-59.244
   14.500000000	 -8.223	 44.605	 -8.289	-11.916	 -8.305	-11.950	-16.948	-52.098
   14.600000000	 -7.813	 42.798	 -8.347	-22.543	 -8.361	-22.616	-16.745	-43.194
   14.700000000	 -7.270	 41.308	 -8.421	-33.111	 -8.436	-33.184	-16.097	-36.303
   14.800000000	 -6.886	 39.675	 -8.494	-43.554	 -8.507	-43.616	-15.016	-32.492
   14.900000000	 -6.506	 37.399	 -8.568	-53.810	 -8.586	-53.873	-14.128	-31.021
   15.000000000	 -6.192	 36.001	 -8.633	-63.864	 -8.651	-63.920	-13.377	-32.443
   15.100000000	 -6.013	 33.767	 -8.686	-73.721	 -8.698	-73.791	-12.838	-35.506
   15.200000000	 -5.943	 32.043	 -8.709	-83.465	 -8.725	-83.537	-12.579	-40.377
   15.300000000	 -5.947	 30.104	 -8.714	-93.148	 -8.728	-93.204	-12.582	-45.804
   15.400000000	 -6.071	 27.935	 -8.690	-102.741	 -8.710	-102.848	-12.817	-52.926
   15.500000000	 -6.338	 26.066	 -8.641	-112.435	 -8.661	-112.455	-13.237	-61.309
   15.600000000	 -6.678	 23.847	 -8.589	-122.167	 -8.603	-122.183	-13.968	-71.331
   15.700000000	 -7.138	 21.263	 -8.524	-132.034	 -8.536	-132.062	-14.805	-83.238
   15.800000000	 -7.735	 18.128	 -8.456	-142.032	 -8.477	-142.097	-15.637	-98.008
   15.900000000	 -8.385	 14.649	 -8.398	-152.209	 -8.413	-152.214	-16.269	-114.829
   16.000000000	 -9.156	  9.911	 -8.350	-162.486	 -8.370	-162.571	-16.455	-134.408
   16.100000000	-10.016	  3.540	 -8.314	-172.982	 -8.342	-172.960	-15.941	-151.503
   16.200000000	-10.911	 -4.034	 -8.302	176.535	 -8.326	176.565	-15.281	-167.128
   16.300000000	-11.736	-13.722	 -8.305	165.969	 -8.335	165.996	-14.241	-179.373
   16.400000000	-12.426	-25.493	 -8.321	155.407	 -8.352	155.415	-13.354	170.869
   16.500000000	-12.964	-38.759	 -8.349	144.855	 -8.380	144.874	-12.538	162.179
   16.600000000	-13.042	-51.339	 -8.377	134.368	 -8.409	134.436	-11.876	155.222
   16.700000000	-12.940	-64.958	 -8.408	123.938	 -8.437	124.005	-11.445	148.282
   16.800000000	-12.604	-73.482	 -8.435	113.736	 -8.463	113.825	-10.910	142.472
   16.900000000	-12.360	-83.338	 -8.429	103.570	 -8.452	103.613	-11.075	136.841
   17.000000000	-11.961	-88.312	 -8.415	 93.433	 -8.444	 93.473	-11.106	129.301
   17.100000000	-12.015	-94.801	 -8.377	 83.342	 -8.408	 83.371	-11.571	123.827
   17.200000000	-11.634	-97.901	 -8.340	 73.108	 -8.363	 73.136	-12.287	114.229
   17.300000000	-11.878	-99.721	 -8.278	 62.976	 -8.305	 62.982	-13.061	105.356
   17.400000000	-11.898	-101.529	 -8.211	 52.679	 -8.242	 52.704	-14.282	 94.039
   17.500000000	-12.253	-102.705	 -8.152	 42.287	 -8.177	 42.301	-15.459	 79.744
   17.600000000	-12.672	-103.703	 -8.095	 31.797	 -8.123	 31.819	-16.524	 61.946
   17.700000000	-13.360	-104.549	 -8.044	 21.194	 -8.061	 21.185	-16.924	 41.652
   17.800000000	-14.281	-105.243	 -7.994	 10.458	 -8.020	 10.465	-16.615	 23.510
   17.900000000	-15.668	-105.152	 -7.954	 -0.367	 -7.989	 -0.372	-15.857	  9.483
   18.000000000	-17.899	-105.688	 -7.923	-11.302	 -7.945	-11.291	-14.834	 -0.964
   18.100000000	-21.331	-100.205	 -7.897	-22.369	 -7.919	-22.360	-13.949	 -7.706
   18.200000000	-27.245	-77.189	 -7.872	-33.507	 -7.902	-33.521	-13.190	-11.903
   18.300000000	-27.907	 -6.173	 -7.861	-44.655	 -7.894	-44.670	-12.418	-14.519
   18.400000000	-21.345	 23.069	 -7.854	-55.888	 -7.887	-55.864	-11.846	-16.777
   18.500000000	-17.620	 27.886	 -7.853	-67.041	 -7.883	-67.015	-11.429	-18.949
   18.600000000	-15.042	 28.019	 -7.855	-78.139	 -7.882	-78.125	-11.177	-20.703
   18.700000000	-13.443	 27.113	 -7.836	-89.154	 -7.869	-89.122	-11.156	-22.115
   18.800000000	-12.427	 26.230	 -7.824	-100.178	 -7.850	-100.112	-11.325	-23.942
   18.900000000	-11.847	 25.331	 -7.793	-111.144	 -7.820	-111.143	-11.758	-25.501
   19.000000000	-11.620	 25.570	 -7.755	-122.140	 -7.782	-122.109	-12.533	-25.072
   19.100000000	-11.553	 25.691	 -7.719	-133.247	 -7.750	-133.168	-13.410	-23.754
   19.200000000	-11.764	 28.427	 -7.680	-144.313	 -7.716	-144.191	-14.378	-21.432
   19.300000000	-12.024	 29.320	 -7.634	-155.486	 -7.665	-155.417	-15.486	-14.979
   19.400000000	-12.242	 33.065	 -7.587	-166.893	 -7.625	-166.788	-16.246	 -8.909
   19.500000000	-12.950	 34.833	 -7.550	-178.476	 -7.586	-178.396	-16.331	 -1.603
   19.600000000	-13.128	 36.525	 -7.528	169.735	 -7.563	169.825	-16.391	  3.228
   19.700000000	-13.708	 37.931	 -7.518	157.829	 -7.550	157.914	-16.066	  3.613
   19.800000000	-14.357	 36.371	 -7.507	145.682	 -7.536	145.787	-16.012	  1.387
   19.900000000	-15.408	 34.327	 -7.503	133.333	 -7.540	133.433	-16.177	 -5.322
   20.000000000	-16.468	 30.408	 -7.500	120.796	 -7.541	120.912	-16.424	-14.313
