! Date: Wednesday, June 05, 2013  1:49 PM
! Filename: C:\Data\Mike_Arnold\TGP2105-SM\Over_Temp\TGP2105-SM_EVB01_25C_Phase5.s2p 
! Comments: 
!^VDC(V):5.000
!^VDC(mA):0.090
!%Freq(GHz),S11(dB),S11(ang),S21(dB),S21(ang),S12(dB),S12(ang),S22(dB),S22(ang)
# GHz   S   DB   R   50
    5.000000000	-14.412	 10.341	 -8.095	149.643	 -8.110	149.593	 -5.325	 95.180
    5.100000000	-15.199	-33.006	 -7.943	133.517	 -7.964	133.539	 -5.561	 90.075
    5.200000000	-14.021	-74.456	 -7.852	117.665	 -7.870	117.658	 -5.798	 85.265
    5.300000000	-12.076	-105.368	 -7.823	102.246	 -7.837	102.228	 -5.977	 80.726
    5.400000000	-10.360	-128.338	 -7.826	 87.259	 -7.841	 87.204	 -6.152	 75.795
    5.500000000	 -8.993	-146.725	 -7.848	 72.779	 -7.861	 72.739	 -6.326	 70.483
    5.600000000	 -8.037	-162.574	 -7.861	 58.813	 -7.872	 58.769	 -6.566	 64.800
    5.700000000	 -7.385	-176.396	 -7.847	 45.183	 -7.861	 45.161	 -6.863	 58.339
    5.800000000	 -6.990	171.594	 -7.807	 31.941	 -7.812	 31.878	 -7.277	 51.173
    5.900000000	 -6.736	160.549	 -7.726	 18.820	 -7.738	 18.778	 -7.866	 43.157
    6.000000000	 -6.678	150.250	 -7.619	  5.768	 -7.636	  5.707	 -8.648	 34.349
    6.100000000	 -6.813	140.822	 -7.489	 -7.236	 -7.503	 -7.263	 -9.668	 24.486
    6.200000000	 -7.067	132.191	 -7.340	-20.163	 -7.354	-20.202	-11.055	 13.891
    6.300000000	 -7.466	124.073	 -7.153	-33.029	 -7.168	-33.054	-12.727	  2.961
    6.400000000	 -8.053	117.180	 -6.903	-46.352	 -6.919	-46.369	-14.573	 -9.493
    6.500000000	 -8.637	111.503	 -6.727	-60.231	 -6.740	-60.255	-16.818	-26.084
    6.600000000	 -9.150	106.510	 -6.619	-73.967	 -6.637	-73.991	-19.724	-48.052
    6.700000000	 -9.693	101.169	 -6.545	-87.626	 -6.561	-87.639	-23.166	-77.647
    6.800000000	-10.255	 95.971	 -6.483	-101.234	 -6.507	-101.157	-25.811	-120.347
    6.900000000	-10.795	 91.010	 -6.457	-114.608	 -6.478	-114.550	-25.902	-166.399
    7.000000000	-11.322	 85.218	 -6.442	-127.849	 -6.468	-127.805	-24.876	157.208
    7.100000000	-11.873	 79.110	 -6.438	-140.995	 -6.462	-140.952	-23.835	128.417
    7.200000000	-12.399	 72.784	 -6.439	-153.995	 -6.465	-153.939	-22.942	103.090
    7.300000000	-12.889	 65.996	 -6.451	-166.920	 -6.482	-166.862	-21.949	 79.105
    7.400000000	-13.350	 58.695	 -6.465	-179.754	 -6.489	-179.691	-20.953	 56.151
    7.500000000	-13.758	 51.199	 -6.488	167.533	 -6.516	167.564	-19.882	 35.657
    7.600000000	-14.008	 43.479	 -6.517	154.882	 -6.542	154.957	-18.738	 18.275
    7.700000000	-14.202	 35.766	 -6.547	142.395	 -6.572	142.464	-17.625	  3.155
    7.800000000	-14.317	 28.199	 -6.574	129.946	 -6.598	130.041	-16.759	-10.325
    7.900000000	-14.405	 21.104	 -6.598	117.684	 -6.624	117.716	-16.123	-21.848
    8.000000000	-14.416	 14.116	 -6.623	105.441	 -6.644	105.478	-15.734	-31.857
    8.100000000	-14.550	  7.657	 -6.637	 93.239	 -6.670	 93.331	-15.629	-42.277
    8.200000000	-14.725	  1.821	 -6.647	 81.062	 -6.680	 81.174	-15.888	-52.420
    8.300000000	-14.999	 -3.030	 -6.663	 68.955	 -6.689	 69.051	-16.573	-62.632
    8.400000000	-15.351	 -7.177	 -6.668	 56.805	 -6.699	 56.876	-17.589	-74.498
    8.500000000	-15.900	 -9.968	 -6.680	 44.610	 -6.706	 44.695	-19.148	-89.207
    8.600000000	-16.389	-11.274	 -6.696	 32.388	 -6.727	 32.514	-21.338	-109.357
    8.700000000	-16.781	-11.957	 -6.724	 20.148	 -6.752	 20.245	-23.264	-139.408
    8.800000000	-17.114	-13.017	 -6.760	  7.898	 -6.791	  7.994	-23.312	-176.316
    8.900000000	-17.379	-14.570	 -6.813	 -4.295	 -6.846	 -4.184	-21.249	152.909
    9.000000000	-17.554	-18.314	 -6.870	-16.476	 -6.902	-16.344	-19.145	134.840
    9.100000000	-17.786	-25.361	 -6.929	-28.554	 -6.962	-28.501	-17.311	123.008
    9.200000000	-18.265	-36.344	 -7.001	-40.624	 -7.030	-40.539	-15.829	116.406
    9.300000000	-18.848	-51.670	 -7.064	-52.687	 -7.097	-52.586	-14.779	111.402
    9.400000000	-19.225	-72.633	 -7.133	-64.724	 -7.170	-64.648	-13.811	108.543
    9.500000000	-18.930	-98.446	 -7.216	-76.723	 -7.252	-76.617	-13.012	107.284
    9.600000000	-17.950	-123.661	 -7.305	-88.710	 -7.342	-88.599	-12.268	106.116
    9.700000000	-16.328	-144.690	 -7.419	-100.584	 -7.450	-100.504	-11.517	104.715
    9.800000000	-14.697	-162.194	 -7.535	-112.327	 -7.572	-112.199	-10.862	103.598
    9.900000000	-13.307	-176.231	 -7.670	-123.876	 -7.702	-123.806	-10.315	101.648
   10.000000000	-13.180	167.973	 -7.746	-135.899	 -7.780	-135.798	-10.193	 98.570
   10.100000000	-12.456	155.663	 -7.863	-147.318	 -7.896	-147.206	 -9.939	 95.195
   10.200000000	-11.744	144.768	 -7.984	-158.572	 -8.017	-158.476	 -9.743	 91.007
   10.300000000	-11.389	134.729	 -8.086	-169.643	 -8.119	-169.546	 -9.644	 86.786
   10.400000000	-11.142	125.430	 -8.183	179.355	 -8.216	179.473	 -9.680	 81.924
   10.500000000	-11.145	117.200	 -8.267	168.490	 -8.303	168.653	 -9.692	 76.488
   10.600000000	-11.307	109.048	 -8.338	157.723	 -8.372	157.889	 -9.899	 71.158
   10.700000000	-11.718	101.329	 -8.403	147.119	 -8.424	147.077	-10.090	 65.171
   10.800000000	-12.304	 94.254	 -8.446	136.395	 -8.467	136.374	-10.315	 59.215
   10.900000000	-13.246	 86.826	 -8.480	125.681	 -8.497	125.652	-10.569	 52.651
   11.000000000	-14.451	 80.063	 -8.503	114.921	 -8.520	114.872	-10.763	 46.315
   11.100000000	-16.218	 72.579	 -8.525	104.158	 -8.539	104.126	-10.898	 39.778
   11.200000000	-18.673	 66.114	 -8.544	 93.345	 -8.560	 93.299	-11.002	 33.386
   11.300000000	-22.687	 59.020	 -8.554	 82.514	 -8.577	 82.456	-11.029	 27.385
   11.400000000	-30.992	 52.454	 -8.580	 71.657	 -8.600	 71.632	-10.976	 21.636
   11.500000000	-33.927	-139.381	 -8.610	 60.830	 -8.628	 60.784	-10.893	 16.024
   11.600000000	-23.427	-143.602	 -8.643	 50.013	 -8.667	 49.987	-10.762	 10.744
   11.700000000	-18.732	-149.975	 -8.691	 39.300	 -8.705	 39.246	-10.583	  5.726
   11.800000000	-15.767	-156.983	 -8.736	 28.631	 -8.754	 28.610	-10.435	  0.669
   11.900000000	-13.706	-164.238	 -8.797	 18.062	 -8.812	 18.008	-10.314	 -4.211
   12.000000000	-12.185	-170.897	 -8.858	  7.574	 -8.882	  7.556	-10.212	 -8.966
   12.100000000	-10.994	-177.528	 -8.917	 -2.774	 -8.937	 -2.862	-10.191	-14.111
   12.200000000	-10.058	175.900	 -8.979	-13.035	 -8.996	-13.139	-10.203	-19.237
   12.300000000	 -9.388	169.146	 -9.035	-23.252	 -9.049	-23.333	-10.319	-24.570
   12.400000000	 -8.858	162.782	 -9.082	-33.408	 -9.101	-33.481	-10.499	-30.065
   12.500000000	 -8.480	156.180	 -9.128	-43.502	 -9.142	-43.590	-10.787	-35.911
   12.600000000	 -8.186	149.534	 -9.160	-53.536	 -9.176	-53.638	-11.136	-41.784
   12.700000000	 -8.041	142.834	 -9.182	-63.656	 -9.194	-63.698	-11.599	-48.333
   12.800000000	 -7.921	135.937	 -9.196	-73.751	 -9.213	-73.825	-12.107	-55.149
   12.900000000	 -7.860	128.662	 -9.210	-83.909	 -9.225	-83.918	-12.700	-62.391
   13.000000000	 -7.855	121.221	 -9.212	-94.053	 -9.225	-94.125	-13.329	-70.294
   13.100000000	 -7.871	113.579	 -9.208	-104.281	 -9.228	-104.347	-14.006	-78.552
   13.200000000	 -7.852	105.775	 -9.215	-114.443	 -9.225	-114.509	-14.676	-87.008
   13.300000000	 -7.865	 97.535	 -9.216	-124.722	 -9.228	-124.773	-15.350	-95.941
   13.400000000	 -7.845	 89.551	 -9.214	-134.942	 -9.228	-135.013	-15.991	-105.402
   13.500000000	 -7.779	 81.386	 -9.211	-145.212	 -9.227	-145.249	-16.721	-113.916
   13.600000000	 -7.660	 73.288	 -9.223	-155.421	 -9.236	-155.524	-17.471	-123.063
   13.700000000	 -7.566	 65.510	 -9.232	-165.641	 -9.242	-165.719	-18.358	-130.878
   13.800000000	 -7.411	 58.275	 -9.244	-175.873	 -9.261	-175.936	-19.579	-139.376
   13.900000000	 -7.225	 51.849	 -9.267	173.985	 -9.271	173.877	-21.174	-146.856
   14.000000000	 -7.026	 45.475	 -9.286	163.774	 -9.297	163.715	-23.713	-155.614
   14.100000000	 -6.841	 40.151	 -9.304	153.686	 -9.322	153.581	-27.877	-163.526
   14.200000000	 -6.652	 35.063	 -9.338	143.529	 -9.351	143.464	-36.547	-179.016
   14.300000000	 -6.469	 30.760	 -9.367	133.497	 -9.377	133.427	-36.743	 30.742
   14.400000000	 -6.330	 26.800	 -9.387	123.495	 -9.401	123.432	-27.552	 13.138
   14.500000000	 -6.177	 23.383	 -9.415	113.561	 -9.428	113.474	-23.410	  3.038
   14.600000000	 -6.155	 19.999	 -9.416	103.687	 -9.429	103.599	-20.879	 -2.577
   14.700000000	 -6.105	 17.546	 -9.421	 93.877	 -9.434	 93.820	-19.374	 -7.900
   14.800000000	 -6.209	 15.022	 -9.385	 84.180	 -9.400	 84.089	-18.355	-13.302
   14.900000000	 -6.325	 12.546	 -9.342	 74.472	 -9.364	 74.370	-17.988	-16.894
   15.000000000	 -6.568	 11.252	 -9.278	 64.759	 -9.294	 64.698	-18.155	-20.087
   15.100000000	 -6.891	  9.488	 -9.197	 55.061	 -9.211	 55.001	-18.760	-22.149
   15.200000000	 -7.346	  8.564	 -9.101	 45.294	 -9.110	 45.208	-20.000	-22.269
   15.300000000	 -7.846	  7.891	 -8.995	 35.427	 -9.013	 35.376	-21.714	-17.308
   15.400000000	 -8.438	  7.270	 -8.892	 25.490	 -8.907	 25.443	-23.794	 -5.351
   15.500000000	 -9.159	  7.224	 -8.788	 15.477	 -8.813	 15.424	-24.929	 16.718
   15.600000000	 -9.894	  6.997	 -8.707	  5.403	 -8.726	  5.367	-23.928	 43.018
   15.700000000	-10.720	  6.361	 -8.635	 -4.715	 -8.653	 -4.727	-21.613	 57.360
   15.800000000	-11.663	  4.724	 -8.576	-14.891	 -8.594	-14.967	-19.645	 64.057
   15.900000000	-12.642	  2.538	 -8.534	-25.101	 -8.548	-25.151	-18.033	 65.935
   16.000000000	-13.766	 -2.037	 -8.502	-35.408	 -8.519	-35.435	-16.807	 67.428
   16.100000000	-15.038	 -9.641	 -8.475	-45.766	 -8.498	-45.749	-16.119	 66.387
   16.200000000	-16.323	-19.741	 -8.466	-56.147	 -8.492	-56.093	-15.416	 64.733
   16.300000000	-17.379	-34.204	 -8.466	-66.592	 -8.490	-66.560	-15.107	 63.250
   16.400000000	-17.871	-51.467	 -8.469	-77.097	 -8.495	-77.044	-14.922	 60.066
   16.500000000	-17.809	-69.844	 -8.484	-87.583	 -8.511	-87.534	-14.749	 56.333
   16.600000000	-17.114	-83.529	 -8.497	-98.092	 -8.525	-98.011	-14.847	 50.532
   16.700000000	-16.149	-96.947	 -8.521	-108.616	 -8.550	-108.543	-14.903	 43.151
   16.800000000	-15.549	-102.721	 -8.535	-119.032	 -8.564	-118.982	-15.442	 35.805
   16.900000000	-14.875	-110.600	 -8.556	-129.554	 -8.586	-129.535	-15.674	 20.732
   17.000000000	-14.470	-112.825	 -8.577	-139.953	 -8.603	-139.945	-15.650	  8.294
   17.100000000	-14.440	-118.829	 -8.601	-150.419	 -8.630	-150.354	-15.630	 -9.389
   17.200000000	-14.149	-120.116	 -8.643	-160.869	 -8.667	-160.786	-14.739	-23.475
   17.300000000	-14.793	-122.308	 -8.665	-171.178	 -8.692	-171.123	-14.156	-36.387
   17.400000000	-15.274	-123.920	 -8.702	178.402	 -8.728	178.463	-13.227	-47.817
   17.500000000	-16.527	-125.892	 -8.736	168.011	 -8.762	168.051	-12.467	-56.091
   17.600000000	-18.404	-127.012	 -8.771	157.544	 -8.795	157.587	-11.748	-62.418
   17.700000000	-21.667	-125.522	 -8.809	146.979	 -8.835	147.004	-11.201	-66.792
   17.800000000	-27.485	-110.113	 -8.853	136.330	 -8.877	136.356	-10.818	-69.981
   17.900000000	-29.722	-27.338	 -8.908	125.490	 -8.940	125.464	-10.557	-72.009
   18.000000000	-22.401	  4.957	 -8.977	114.553	 -9.004	114.529	-10.309	-73.168
   18.100000000	-17.632	  7.483	 -9.070	103.523	 -9.091	103.498	-10.154	-74.269
   18.200000000	-14.795	  5.969	 -9.171	 92.395	 -9.193	 92.441	-10.108	-75.527
   18.300000000	-12.973	  2.160	 -9.284	 81.346	 -9.311	 81.375	-10.154	-76.642
   18.400000000	-11.697	 -1.121	 -9.403	 70.318	 -9.432	 70.352	-10.324	-78.891
   18.500000000	-11.067	 -5.189	 -9.539	 59.360	 -9.574	 59.415	-10.678	-82.290
   18.600000000	-10.782	 -8.829	 -9.690	 48.588	 -9.724	 48.592	-11.318	-86.733
   18.700000000	-11.039	-12.023	 -9.862	 38.058	 -9.891	 38.077	-12.400	-93.035
   18.800000000	-11.808	-13.937	-10.039	 28.113	-10.071	 28.071	-13.973	-101.655
   18.900000000	-13.109	-13.512	-10.177	 18.897	-10.199	 18.905	-16.497	-113.859
   19.000000000	-14.853	 -7.368	-10.125	 10.427	-10.145	 10.372	-21.167	-134.144
   19.100000000	-16.034	  3.952	 -9.811	  1.302	 -9.852	  1.403	-29.180	178.704
   19.200000000	-16.741	 19.209	 -9.406	 -9.338	 -9.447	 -9.201	-28.761	 83.855
   19.300000000	-16.877	 28.317	 -9.059	-21.371	 -9.103	-21.224	-23.468	 57.030
   19.400000000	-16.915	 40.937	 -8.852	-34.095	 -8.885	-34.026	-22.129	 42.428
   19.500000000	-17.583	 52.397	 -8.743	-47.147	 -8.785	-47.073	-21.717	 32.883
   19.600000000	-16.937	 62.968	 -8.724	-60.260	 -8.761	-60.162	-23.065	 29.432
   19.700000000	-16.272	 73.223	 -8.747	-73.339	 -8.779	-73.234	-25.630	 25.248
   19.800000000	-15.473	 78.120	 -8.809	-86.505	 -8.844	-86.384	-31.083	 39.206
   19.900000000	-14.708	 80.932	 -8.911	-99.711	 -8.944	-99.608	-34.414	117.451
   20.000000000	-13.937	 78.876	 -9.039	-112.881	 -9.079	-112.790	-27.062	146.619
