! Date: Wednesday, June 05, 2013  1:50 PM
! Filename: C:\Data\Mike_Arnold\TGP2105-SM\Over_Temp\TGP2105-SM_EVB01_25C_Phase19.s2p 
! Comments: 
!^VDC(V):5.000
!^VDC(mA):0.045
!%Freq(GHz),S11(dB),S11(ang),S21(dB),S21(ang),S12(dB),S12(ang),S22(dB),S22(ang)
# GHz   S   DB   R   50
    5.000000000	-10.958	155.321	 -7.151	-132.857	 -7.169	-132.919	 -7.969	-176.149
    5.100000000	-11.075	150.422	 -7.130	-149.578	 -7.143	-149.626	 -8.479	177.299
    5.200000000	-11.184	148.034	 -7.124	-165.898	 -7.138	-165.923	 -9.020	172.670
    5.300000000	-11.164	147.040	 -7.147	178.030	 -7.162	178.029	 -9.406	169.613
    5.400000000	-10.909	146.980	 -7.203	162.357	 -7.224	162.319	 -9.558	167.973
    5.500000000	-10.352	146.913	 -7.299	147.130	 -7.314	147.094	 -9.408	166.639
    5.600000000	 -9.592	145.079	 -7.433	132.383	 -7.440	132.334	 -8.953	164.728
    5.700000000	 -8.844	141.435	 -7.570	118.150	 -7.582	118.122	 -8.420	161.084
    5.800000000	 -8.204	136.822	 -7.717	104.562	 -7.733	104.521	 -7.877	156.194
    5.900000000	 -7.605	131.321	 -7.846	 91.522	 -7.861	 91.523	 -7.412	150.404
    6.000000000	 -7.157	124.774	 -7.952	 78.998	 -7.970	 78.961	 -7.063	143.480
    6.100000000	 -6.919	117.726	 -8.007	 66.991	 -8.024	 66.937	 -6.885	135.879
    6.200000000	 -6.823	110.633	 -7.991	 55.401	 -8.006	 55.377	 -6.874	127.913
    6.300000000	 -6.855	103.562	 -7.853	 44.071	 -7.869	 44.023	 -7.041	119.582
    6.400000000	 -6.986	 96.819	 -7.601	 32.041	 -7.610	 32.036	 -7.301	110.975
    6.500000000	 -7.127	 89.772	 -7.382	 19.473	 -7.400	 19.442	 -7.656	101.532
    6.600000000	 -7.336	 82.453	 -7.201	  6.891	 -7.212	  6.873	 -8.164	 90.787
    6.700000000	 -7.667	 74.440	 -7.013	 -5.834	 -7.029	 -5.841	 -8.872	 78.675
    6.800000000	 -8.115	 66.316	 -6.820	-18.789	 -6.847	-18.724	 -9.775	 65.068
    6.900000000	 -8.649	 58.529	 -6.664	-31.750	 -6.689	-31.687	-10.849	 49.889
    7.000000000	 -9.184	 50.529	 -6.534	-44.828	 -6.560	-44.750	-11.958	 32.615
    7.100000000	 -9.738	 42.627	 -6.440	-57.922	 -6.465	-57.871	-13.019	 13.151
    7.200000000	-10.257	 34.985	 -6.370	-71.018	 -6.397	-70.936	-13.878	 -7.956
    7.300000000	-10.699	 27.322	 -6.335	-83.976	 -6.357	-83.910	-14.387	-29.171
    7.400000000	-11.027	 19.517	 -6.320	-96.808	 -6.343	-96.754	-14.547	-49.070
    7.500000000	-11.325	 11.674	 -6.315	-109.506	 -6.344	-109.469	-14.557	-67.393
    7.600000000	-11.524	  4.014	 -6.321	-122.051	 -6.346	-121.998	-14.592	-83.488
    7.700000000	-11.685	 -3.667	 -6.330	-134.450	 -6.353	-134.380	-14.753	-97.653
    7.800000000	-11.845	-11.127	 -6.332	-146.730	 -6.362	-146.679	-15.062	-111.224
    7.900000000	-12.080	-18.198	 -6.338	-158.948	 -6.366	-158.870	-15.698	-124.682
    8.000000000	-12.302	-24.807	 -6.342	-171.074	 -6.364	-171.057	-16.697	-138.688
    8.100000000	-12.614	-31.200	 -6.342	176.805	 -6.373	176.903	-17.916	-153.859
    8.200000000	-12.976	-37.249	 -6.348	164.711	 -6.376	164.768	-19.269	-172.093
    8.300000000	-13.420	-42.909	 -6.353	152.659	 -6.381	152.756	-20.604	165.249
    8.400000000	-13.885	-48.898	 -6.363	140.657	 -6.386	140.735	-21.369	140.649
    8.500000000	-14.551	-55.780	 -6.367	128.642	 -6.399	128.728	-21.299	117.314
    8.600000000	-15.283	-63.389	 -6.381	116.656	 -6.411	116.722	-20.516	 98.425
    8.700000000	-16.188	-72.671	 -6.403	104.663	 -6.428	104.736	-19.748	 85.367
    8.800000000	-17.216	-84.964	 -6.419	 92.604	 -6.450	 92.695	-19.175	 76.911
    8.900000000	-18.400	-101.272	 -6.443	 80.618	 -6.472	 80.681	-18.572	 72.992
    9.000000000	-19.477	-121.750	 -6.476	 68.578	 -6.505	 68.675	-18.174	 70.596
    9.100000000	-19.923	-145.814	 -6.519	 56.609	 -6.552	 56.681	-17.627	 70.047
    9.200000000	-19.457	-170.592	 -6.578	 44.686	 -6.606	 44.751	-17.114	 71.256
    9.300000000	-18.465	168.636	 -6.634	 32.812	 -6.664	 32.880	-16.558	 70.490
    9.400000000	-17.433	152.446	 -6.689	 21.063	 -6.725	 21.127	-16.050	 69.717
    9.500000000	-16.563	140.738	 -6.753	  9.405	 -6.780	  9.496	-15.883	 68.047
    9.600000000	-15.980	131.129	 -6.802	 -2.139	 -6.836	 -2.053	-15.881	 65.098
    9.700000000	-15.715	124.536	 -6.842	-13.577	 -6.874	-13.495	-16.149	 61.655
    9.800000000	-15.694	120.411	 -6.869	-24.955	 -6.900	-24.860	-16.996	 58.262
    9.900000000	-15.861	118.186	 -6.891	-36.376	 -6.917	-36.240	-18.336	 54.197
   10.000000000	-15.959	107.366	 -6.922	-48.047	 -6.949	-47.940	-19.912	 40.673
   10.100000000	-16.149	104.751	 -6.934	-59.543	 -6.963	-59.462	-22.368	 27.949
   10.200000000	-16.136	104.539	 -6.946	-70.975	 -6.980	-70.859	-25.313	  7.204
   10.300000000	-16.217	104.001	 -6.968	-82.361	 -7.002	-82.287	-28.220	-30.845
   10.400000000	-16.115	103.905	 -6.995	-93.739	 -7.032	-93.665	-26.846	-77.130
   10.500000000	-16.168	104.127	 -7.020	-105.106	 -7.059	-104.992	-24.213	-102.999
   10.600000000	-16.144	103.513	 -7.056	-116.382	 -7.093	-116.247	-21.364	-118.644
   10.700000000	-16.362	102.598	 -7.103	-127.524	 -7.126	-127.555	-19.649	-127.490
   10.800000000	-16.584	102.545	 -7.140	-138.728	 -7.160	-138.781	-18.317	-134.776
   10.900000000	-17.187	102.350	 -7.179	-149.904	 -7.201	-149.931	-17.290	-139.335
   11.000000000	-17.781	103.915	 -7.222	-161.089	 -7.243	-161.124	-16.564	-143.879
   11.100000000	-18.734	106.876	 -7.259	-172.232	 -7.279	-172.286	-16.011	-147.522
   11.200000000	-19.490	113.581	 -7.297	176.573	 -7.313	176.557	-15.514	-150.997
   11.300000000	-20.110	123.537	 -7.336	165.389	 -7.350	165.364	-15.077	-154.901
   11.400000000	-20.029	135.550	 -7.372	154.209	 -7.397	154.155	-14.659	-158.997
   11.500000000	-19.128	147.291	 -7.421	142.976	 -7.442	142.939	-14.214	-163.697
   11.600000000	-17.782	154.901	 -7.475	131.778	 -7.494	131.761	-13.754	-169.292
   11.700000000	-16.302	159.429	 -7.538	120.593	 -7.556	120.542	-13.316	-175.779
   11.800000000	-14.808	161.030	 -7.615	109.437	 -7.635	109.401	-12.832	177.088
   11.900000000	-13.463	159.835	 -7.694	 98.363	 -7.712	 98.297	-12.332	169.233
   12.000000000	-12.334	157.429	 -7.796	 87.306	 -7.815	 87.229	-11.824	160.721
   12.100000000	-11.326	154.042	 -7.905	 76.304	 -7.917	 76.289	-11.299	152.375
   12.200000000	-10.461	149.742	 -8.023	 65.474	 -8.039	 65.397	-10.817	143.803
   12.300000000	 -9.757	144.338	 -8.151	 54.705	 -8.169	 54.652	-10.334	135.450
   12.400000000	 -9.191	138.788	 -8.284	 44.086	 -8.296	 44.000	 -9.904	127.362
   12.500000000	 -8.728	132.360	 -8.415	 33.527	 -8.432	 33.503	 -9.510	119.761
   12.600000000	 -8.348	125.588	 -8.550	 23.152	 -8.568	 23.052	 -9.179	112.369
   12.700000000	 -8.112	118.205	 -8.679	 12.787	 -8.688	 12.712	 -8.910	105.597
   12.800000000	 -7.906	110.524	 -8.796	  2.545	 -8.813	  2.486	 -8.731	 99.149
   12.900000000	 -7.743	102.342	 -8.915	 -7.623	 -8.925	 -7.702	 -8.604	 92.959
   13.000000000	 -7.637	 93.871	 -9.012	-17.719	 -9.024	-17.819	 -8.562	 87.136
   13.100000000	 -7.562	 85.268	 -9.097	-27.813	 -9.118	-27.872	 -8.593	 81.450
   13.200000000	 -7.461	 76.673	 -9.187	-37.818	 -9.207	-37.869	 -8.698	 75.872
   13.300000000	 -7.364	 67.766	 -9.275	-47.796	 -9.284	-47.858	 -8.885	 70.335
   13.400000000	 -7.275	 59.299	 -9.340	-57.649	 -9.351	-57.759	 -9.179	 64.921
   13.500000000	 -7.153	 50.925	 -9.410	-67.549	 -9.423	-67.638	 -9.511	 58.976
   13.600000000	 -7.003	 42.954	 -9.471	-77.361	 -9.481	-77.442	 -9.955	 53.236
   13.700000000	 -6.897	 35.336	 -9.526	-87.151	 -9.541	-87.214	-10.464	 47.015
   13.800000000	 -6.777	 28.363	 -9.579	-96.832	 -9.592	-96.931	-11.022	 40.871
   13.900000000	 -6.687	 22.277	 -9.628	-106.473	 -9.634	-106.556	-11.659	 34.384
   14.000000000	 -6.601	 16.356	 -9.664	-116.108	 -9.674	-116.185	-12.300	 28.358
   14.100000000	 -6.588	 11.365	 -9.680	-125.706	 -9.694	-125.784	-12.985	 22.279
   14.200000000	 -6.591	  6.784	 -9.700	-135.333	 -9.709	-135.429	-13.733	 17.076
   14.300000000	 -6.653	  3.022	 -9.690	-145.020	 -9.705	-145.061	-14.458	 13.531
   14.400000000	 -6.764	 -0.278	 -9.675	-154.718	 -9.690	-154.795	-15.148	 11.838
   14.500000000	 -6.890	 -2.670	 -9.647	-164.511	 -9.659	-164.580	-15.813	 11.455
   14.600000000	 -7.113	 -5.111	 -9.607	-174.350	 -9.620	-174.449	-16.170	 14.302
   14.700000000	 -7.315	 -6.156	 -9.563	175.737	 -9.575	175.669	-16.283	 19.006
   14.800000000	 -7.604	 -7.481	 -9.504	165.720	 -9.522	165.626	-15.897	 23.186
   14.900000000	 -7.816	 -8.618	 -9.460	155.650	 -9.472	155.554	-15.195	 27.742
   15.000000000	 -8.159	 -8.975	 -9.405	145.565	 -9.423	145.507	-14.369	 30.253
   15.100000000	 -8.471	-10.346	 -9.359	135.498	 -9.369	135.419	-13.548	 31.132
   15.200000000	 -8.931	-11.739	 -9.305	125.449	 -9.317	125.392	-12.887	 30.906
   15.300000000	 -9.428	-13.690	 -9.259	115.417	 -9.270	115.367	-12.302	 30.098
   15.400000000	-10.035	-16.793	 -9.205	105.426	 -9.221	105.338	-11.933	 28.616
   15.500000000	-10.924	-20.828	 -9.146	 95.306	 -9.170	 95.269	-11.708	 26.736
   15.600000000	-11.927	-26.210	 -9.094	 85.248	 -9.116	 85.258	-11.646	 25.451
   15.700000000	-13.165	-33.940	 -9.049	 75.130	 -9.066	 75.119	-11.717	 23.951
   15.800000000	-14.557	-45.003	 -8.998	 64.893	 -9.013	 64.890	-11.938	 22.519
   15.900000000	-15.993	-58.715	 -8.957	 54.616	 -8.978	 54.629	-12.240	 20.998
   16.000000000	-17.038	-76.993	 -8.924	 44.289	 -8.951	 44.251	-12.710	 20.029
   16.100000000	-17.233	-97.026	 -8.902	 33.749	 -8.930	 33.794	-13.331	 17.401
   16.200000000	-16.838	-115.012	 -8.884	 23.316	 -8.913	 23.296	-14.008	 15.160
   16.300000000	-16.038	-128.666	 -8.876	 12.739	 -8.905	 12.754	-15.117	 11.697
   16.400000000	-15.188	-138.231	 -8.865	  2.114	 -8.903	  2.149	-16.453	  6.653
   16.500000000	-14.421	-145.841	 -8.865	 -8.509	 -8.894	 -8.448	-18.233	  1.355
   16.600000000	-14.034	-150.763	 -8.853	-19.145	 -8.883	-19.071	-20.687	 -7.634
   16.700000000	-13.495	-155.061	 -8.842	-29.765	 -8.872	-29.727	-23.754	-19.836
   16.800000000	-13.720	-157.887	 -8.812	-40.392	 -8.844	-40.317	-29.782	-51.325
   16.900000000	-13.639	-161.728	 -8.786	-51.058	 -8.816	-50.997	-29.132	-98.784
   17.000000000	-14.347	-163.315	 -8.741	-61.645	 -8.768	-61.590	-28.186	-140.206
   17.100000000	-14.956	-168.764	 -8.692	-72.301	 -8.721	-72.239	-24.694	-153.481
   17.200000000	-16.251	-168.504	 -8.635	-83.068	 -8.670	-83.025	-24.676	-162.632
   17.300000000	-18.612	-173.296	 -8.579	-93.902	 -8.607	-93.839	-24.176	-171.572
   17.400000000	-21.811	-172.503	 -8.529	-104.833	 -8.556	-104.804	-24.906	-172.386
   17.500000000	-28.122	-170.330	 -8.489	-115.910	 -8.513	-115.908	-26.524	-173.473
   17.600000000	-39.426	-66.293	 -8.452	-127.077	 -8.486	-127.066	-29.406	-167.608
   17.700000000	-26.093	-20.930	 -8.458	-138.379	 -8.477	-138.396	-34.268	-148.953
   17.800000000	-20.935	-20.236	 -8.475	-149.847	 -8.498	-149.800	-38.601	-94.961
   17.900000000	-17.950	-21.545	 -8.509	-161.325	 -8.534	-161.290	-35.105	-34.284
   18.000000000	-16.316	-22.271	 -8.554	-172.854	 -8.582	-172.838	-29.519	 -9.331
   18.100000000	-15.024	-23.116	 -8.619	175.482	 -8.647	175.515	-25.694	  3.710
   18.200000000	-14.295	-23.291	 -8.695	163.824	 -8.719	163.824	-22.515	 13.120
   18.300000000	-13.882	-23.927	 -8.785	152.076	 -8.813	152.056	-19.467	 17.925
   18.400000000	-13.691	-22.777	 -8.893	140.279	 -8.925	140.318	-17.116	 20.042
   18.500000000	-13.859	-22.446	 -9.031	128.540	 -9.053	128.554	-15.239	 20.315
   18.600000000	-14.233	-20.928	 -9.201	116.884	 -9.226	116.861	-13.693	 19.310
   18.700000000	-15.134	-18.441	 -9.413	105.482	 -9.437	105.481	-12.499	 17.796
   18.800000000	-16.615	-12.027	 -9.665	 94.590	 -9.694	 94.602	-11.696	 14.381
   18.900000000	-18.195	  1.945	 -9.904	 84.610	 -9.932	 84.693	-11.338	  9.978
   19.000000000	-18.537	 24.844	-10.004	 75.585	-10.024	 75.549	-11.617	  6.484
   19.100000000	-17.087	 40.312	 -9.843	 66.308	 -9.883	 66.447	-12.625	  4.673
   19.200000000	-15.691	 51.547	 -9.549	 55.748	 -9.589	 55.832	-14.162	  8.072
   19.300000000	-14.798	 56.578	 -9.301	 43.674	 -9.337	 43.782	-15.350	 22.325
   19.400000000	-13.602	 63.273	 -9.191	 30.866	 -9.231	 30.936	-15.220	 38.048
   19.500000000	-12.957	 67.455	 -9.204	 17.884	 -9.240	 17.984	-13.669	 48.380
   19.600000000	-11.833	 67.170	 -9.298	  5.081	 -9.332	  5.193	-12.175	 52.945
   19.700000000	-11.150	 65.643	 -9.418	 -7.523	 -9.459	 -7.418	-10.928	 51.783
   19.800000000	-10.753	 60.661	 -9.551	-20.099	 -9.586	-19.985	-10.045	 49.016
   19.900000000	-10.685	 54.477	 -9.680	-32.623	 -9.711	-32.488	 -9.536	 44.425
   20.000000000	-10.701	 45.939	 -9.802	-45.177	 -9.843	-45.033	 -9.210	 38.793
