! Date: Wednesday, June 05, 2013  1:50 PM
! Filename: C:\Data\Mike_Arnold\TGP2105-SM\Over_Temp\TGP2105-SM_EVB01_25C_Phase21.s2p 
! Comments: 
!^VDC(V):5.000
!^VDC(mA):0.099
!%Freq(GHz),S11(dB),S11(ang),S21(dB),S21(ang),S12(dB),S12(ang),S22(dB),S22(ang)
# GHz   S   DB   R   50
    5.000000000	-19.839	 69.928	 -6.663	-122.097	 -6.678	-122.108	 -8.262	-147.843
    5.100000000	-25.466	 36.182	 -6.637	-139.237	 -6.658	-139.273	 -8.211	-155.654
    5.200000000	-27.360	-56.201	 -6.649	-155.903	 -6.668	-155.919	 -8.199	-162.335
    5.300000000	-20.443	-102.472	 -6.703	-172.115	 -6.724	-172.124	 -8.134	-168.528
    5.400000000	-16.074	-122.777	 -6.794	172.172	 -6.810	172.152	 -8.005	-174.006
    5.500000000	-13.119	-138.017	 -6.916	157.011	 -6.936	156.970	 -7.791	-179.288
    5.600000000	-11.084	-151.681	 -7.066	142.422	 -7.084	142.394	 -7.487	175.369
    5.700000000	 -9.623	-164.068	 -7.216	128.465	 -7.236	128.415	 -7.202	169.468
    5.800000000	 -8.550	-175.152	 -7.360	115.111	 -7.376	115.079	 -6.924	163.270
    5.900000000	 -7.710	174.043	 -7.482	102.301	 -7.495	102.288	 -6.717	156.932
    6.000000000	 -7.143	163.616	 -7.562	 89.973	 -7.580	 89.918	 -6.590	149.997
    6.100000000	 -6.820	153.695	 -7.590	 78.123	 -7.605	 78.111	 -6.611	142.782
    6.200000000	 -6.649	144.273	 -7.545	 66.672	 -7.561	 66.646	 -6.762	135.536
    6.300000000	 -6.639	135.036	 -7.387	 55.367	 -7.405	 55.347	 -7.061	128.302
    6.400000000	 -6.781	126.435	 -7.118	 43.484	 -7.137	 43.444	 -7.436	120.931
    6.500000000	 -6.992	117.913	 -6.881	 31.086	 -6.898	 31.061	 -7.928	112.827
    6.600000000	 -7.302	109.287	 -6.653	 18.596	 -6.673	 18.602	 -8.636	103.763
    6.700000000	 -7.814	100.277	 -6.431	  5.936	 -6.442	  5.901	 -9.637	 93.932
    6.800000000	 -8.493	 91.394	 -6.193	 -7.046	 -6.221	 -6.994	-10.980	 83.358
    6.900000000	 -9.330	 82.986	 -6.001	-20.147	 -6.028	-20.077	-12.750	 72.079
    7.000000000	-10.275	 74.604	 -5.846	-33.385	 -5.871	-33.358	-14.985	 59.453
    7.100000000	-11.346	 66.825	 -5.728	-46.723	 -5.751	-46.673	-17.949	 44.738
    7.200000000	-12.448	 59.957	 -5.651	-60.011	 -5.671	-59.983	-21.958	 25.304
    7.300000000	-13.512	 53.615	 -5.608	-73.266	 -5.633	-73.196	-27.273	 -6.501
    7.400000000	-14.460	 47.752	 -5.596	-86.346	 -5.621	-86.287	-30.563	-70.547
    7.500000000	-15.275	 42.540	 -5.606	-99.308	 -5.633	-99.248	-27.457	-123.778
    7.600000000	-15.835	 37.857	 -5.635	-112.097	 -5.660	-112.067	-24.731	-151.964
    7.700000000	-16.198	 33.281	 -5.675	-124.746	 -5.702	-124.695	-23.091	-173.048
    7.800000000	-16.355	 29.133	 -5.726	-137.253	 -5.753	-137.211	-21.839	167.326
    7.900000000	-16.355	 25.875	 -5.781	-149.672	 -5.807	-149.577	-20.760	146.463
    8.000000000	-16.117	 22.561	 -5.844	-161.943	 -5.870	-161.843	-19.546	125.548
    8.100000000	-15.805	 19.295	 -5.916	-174.070	 -5.946	-173.965	-18.272	106.958
    8.200000000	-15.374	 15.878	 -5.990	173.935	 -6.019	173.984	-16.894	 90.711
    8.300000000	-14.891	 12.234	 -6.070	162.047	 -6.097	162.108	-15.512	 76.424
    8.400000000	-14.415	  7.444	 -6.142	150.302	 -6.171	150.373	-14.390	 64.166
    8.500000000	-14.150	  2.184	 -6.211	138.651	 -6.242	138.718	-13.508	 53.731
    8.600000000	-13.953	 -3.943	 -6.265	127.120	 -6.297	127.190	-12.804	 44.806
    8.700000000	-13.937	-10.905	 -6.307	115.627	 -6.337	115.688	-12.373	 36.802
    8.800000000	-14.199	-19.204	 -6.331	104.093	 -6.359	104.176	-12.200	 29.599
    8.900000000	-14.761	-28.437	 -6.337	 92.571	 -6.369	 92.644	-12.252	 23.951
    9.000000000	-15.593	-38.846	 -6.336	 80.938	 -6.367	 81.019	-12.489	 18.252
    9.100000000	-16.674	-51.487	 -6.330	 69.237	 -6.357	 69.311	-12.886	 13.860
    9.200000000	-18.092	-67.678	 -6.319	 57.405	 -6.351	 57.499	-13.554	 10.453
    9.300000000	-19.529	-87.642	 -6.317	 45.528	 -6.352	 45.611	-14.183	  7.228
    9.400000000	-20.430	-111.638	 -6.326	 33.586	 -6.356	 33.662	-14.931	  4.726
    9.500000000	-20.276	-136.769	 -6.340	 21.617	 -6.372	 21.707	-15.739	  0.938
    9.600000000	-19.458	-157.725	 -6.368	  9.671	 -6.401	  9.761	-16.490	 -4.073
    9.700000000	-18.224	-172.362	 -6.404	 -2.207	 -6.436	 -2.133	-17.262	-11.117
    9.800000000	-17.022	177.399	 -6.443	-14.101	 -6.472	-14.014	-18.127	-22.869
    9.900000000	-15.929	170.039	 -6.494	-25.942	 -6.529	-25.896	-18.704	-39.310
   10.000000000	-15.752	156.536	 -6.564	-37.823	 -6.597	-37.742	-17.597	-54.441
   10.100000000	-14.979	149.272	 -6.635	-49.675	 -6.668	-49.511	-16.816	-71.198
   10.200000000	-14.104	142.738	 -6.718	-61.297	 -6.752	-61.191	-15.765	-85.610
   10.300000000	-13.534	136.332	 -6.811	-72.877	 -6.845	-72.798	-14.625	-99.038
   10.400000000	-12.980	129.958	 -6.908	-84.409	 -6.942	-84.314	-13.468	-110.068
   10.500000000	-12.664	124.172	 -7.004	-95.750	 -7.038	-95.621	-12.600	-119.712
   10.600000000	-12.475	117.742	 -7.116	-107.014	 -7.145	-106.926	-11.688	-128.372
   10.700000000	-12.554	111.399	 -7.224	-118.068	 -7.240	-118.105	-11.082	-135.739
   10.800000000	-12.752	105.450	 -7.321	-129.188	 -7.341	-129.206	-10.555	-142.922
   10.900000000	-13.312	 99.002	 -7.411	-140.244	 -7.431	-140.266	-10.169	-149.093
   11.000000000	-14.053	 93.141	 -7.496	-151.268	 -7.514	-151.308	 -9.898	-155.265
   11.100000000	-15.255	 86.924	 -7.569	-162.313	 -7.591	-162.371	 -9.736	-161.067
   11.200000000	-16.878	 81.670	 -7.635	-173.405	 -7.658	-173.404	 -9.615	-166.675
   11.300000000	-19.343	 77.071	 -7.701	175.493	 -7.723	175.444	 -9.538	-172.520
   11.400000000	-23.144	 74.668	 -7.771	164.300	 -7.789	164.287	 -9.474	-178.385
   11.500000000	-30.670	 87.628	 -7.842	153.106	 -7.859	153.070	 -9.405	175.614
   11.600000000	-32.218	-168.908	 -7.916	141.901	 -7.940	141.833	 -9.319	169.284
   11.700000000	-23.324	-149.912	 -8.008	130.634	 -8.029	130.586	 -9.215	162.587
   11.800000000	-18.704	-151.585	 -8.111	119.423	 -8.131	119.380	 -9.057	155.695
   11.900000000	-15.758	-156.793	 -8.231	108.257	 -8.256	108.205	 -8.867	148.434
   12.000000000	-13.633	-162.320	 -8.369	 97.143	 -8.388	 97.117	 -8.628	140.918
   12.100000000	-11.960	-168.452	 -8.512	 86.178	 -8.533	 86.087	 -8.376	133.568
   12.200000000	-10.641	-174.976	 -8.675	 75.296	 -8.691	 75.236	 -8.124	126.087
   12.300000000	 -9.645	178.040	 -8.842	 64.574	 -8.858	 64.521	 -7.867	118.762
   12.400000000	 -8.833	171.286	 -9.006	 54.009	 -9.024	 53.928	 -7.634	111.603
   12.500000000	 -8.219	164.006	 -9.175	 43.580	 -9.194	 43.519	 -7.433	104.848
   12.600000000	 -7.726	156.604	 -9.335	 33.263	 -9.350	 33.209	 -7.260	 98.190
   12.700000000	 -7.412	149.033	 -9.473	 23.075	 -9.494	 23.049	 -7.141	 92.047
   12.800000000	 -7.161	141.202	 -9.608	 12.975	 -9.623	 12.918	 -7.084	 86.062
   12.900000000	 -6.999	132.922	 -9.720	  2.963	 -9.737	  2.879	 -7.065	 80.275
   13.000000000	 -6.914	124.475	 -9.816	 -7.043	 -9.835	 -7.123	 -7.114	 74.758
   13.100000000	 -6.875	115.860	 -9.890	-17.023	 -9.912	-17.103	 -7.209	 69.315
   13.200000000	 -6.829	107.089	 -9.967	-26.962	 -9.985	-27.074	 -7.360	 63.891
   13.300000000	 -6.829	 97.889	-10.023	-36.922	-10.043	-36.973	 -7.570	 58.470
   13.400000000	 -6.816	 88.930	-10.067	-46.767	-10.082	-46.862	 -7.854	 53.128
   13.500000000	 -6.786	 79.832	-10.110	-56.689	-10.129	-56.763	 -8.141	 47.328
   13.600000000	 -6.719	 70.869	-10.143	-66.562	-10.157	-66.675	 -8.518	 41.547
   13.700000000	 -6.695	 62.255	-10.176	-76.496	-10.189	-76.562	 -8.912	 35.280
   13.800000000	 -6.631	 54.160	-10.207	-86.293	-10.221	-86.402	 -9.328	 29.127
   13.900000000	 -6.571	 46.954	-10.228	-96.052	-10.243	-96.134	 -9.779	 22.620
   14.000000000	 -6.521	 39.868	-10.250	-105.790	-10.263	-105.936	-10.225	 16.409
   14.100000000	 -6.515	 33.987	-10.259	-115.642	-10.272	-115.674	-10.678	 10.071
   14.200000000	 -6.522	 28.563	-10.249	-125.366	-10.267	-125.450	-11.166	  4.191
   14.300000000	 -6.570	 24.214	-10.240	-135.102	-10.249	-135.201	-11.678	 -0.703
   14.400000000	 -6.673	 20.527	-10.202	-144.913	-10.213	-145.016	-12.203	 -4.402
   14.500000000	 -6.754	 17.833	-10.161	-154.824	-10.178	-154.945	-12.756	 -7.602
   14.600000000	 -6.953	 15.577	-10.104	-164.813	-10.120	-164.877	-13.273	 -8.420
   14.700000000	 -7.070	 14.774	-10.044	-174.869	-10.058	-174.940	-13.798	 -7.790
   14.800000000	 -7.279	 14.210	 -9.973	174.983	 -9.988	174.933	-14.064	 -6.165
   14.900000000	 -7.392	 13.832	 -9.914	164.824	 -9.931	164.712	-14.206	 -2.758
   15.000000000	 -7.530	 14.711	 -9.845	154.619	 -9.869	154.518	-14.145	  0.436
   15.100000000	 -7.653	 14.690	 -9.787	144.432	 -9.802	144.330	-13.924	  2.758
   15.200000000	 -7.829	 15.153	 -9.726	134.242	 -9.741	134.139	-13.721	  3.842
   15.300000000	 -8.000	 15.106	 -9.672	124.108	 -9.688	124.043	-13.530	  4.351
   15.400000000	 -8.251	 14.397	 -9.615	113.966	 -9.626	113.884	-13.525	  3.556
   15.500000000	 -8.667	 13.584	 -9.544	103.838	 -9.565	103.794	-13.660	  2.009
   15.600000000	 -9.156	 12.032	 -9.476	 93.709	 -9.499	 93.686	-14.097	  0.710
   15.700000000	 -9.819	  9.728	 -9.411	 83.517	 -9.434	 83.504	-14.757	 -0.893
   15.800000000	-10.691	  6.399	 -9.338	 73.206	 -9.357	 73.164	-15.770	 -2.618
   15.900000000	-11.682	  2.694	 -9.274	 62.797	 -9.295	 62.740	-17.072	 -3.877
   16.000000000	-12.875	 -2.915	 -9.217	 52.243	 -9.235	 52.210	-19.009	 -3.528
   16.100000000	-14.205	-10.995	 -9.168	 41.473	 -9.200	 41.519	-21.486	 -4.585
   16.200000000	-15.558	-21.139	 -9.145	 30.700	 -9.169	 30.732	-24.786	 -0.680
   16.300000000	-16.633	-34.768	 -9.132	 19.784	 -9.160	 19.830	-31.195	  7.732
   16.400000000	-17.151	-51.102	 -9.132	  8.874	 -9.168	  8.887	-41.343	 95.749
   16.500000000	-17.140	-68.440	 -9.152	 -2.058	 -9.184	 -2.032	-29.310	148.392
   16.600000000	-16.468	-81.773	 -9.177	-12.939	 -9.203	-12.894	-24.006	155.482
   16.700000000	-15.550	-95.330	 -9.208	-23.793	 -9.237	-23.770	-20.950	154.465
   16.800000000	-14.875	-101.826	 -9.238	-34.504	 -9.266	-34.455	-18.082	153.652
   16.900000000	-14.204	-110.999	 -9.252	-45.170	 -9.283	-45.102	-17.071	152.624
   17.000000000	-13.862	-114.723	 -9.253	-55.699	 -9.288	-55.671	-15.855	146.621
   17.100000000	-13.916	-122.235	 -9.247	-66.176	 -9.276	-66.150	-15.244	144.497
   17.200000000	-13.894	-124.644	 -9.228	-76.753	 -9.257	-76.722	-15.142	137.008
   17.300000000	-14.857	-127.845	 -9.183	-87.323	 -9.212	-87.303	-14.956	130.537
   17.400000000	-15.768	-129.515	 -9.136	-97.988	 -9.162	-97.928	-15.337	123.103
   17.500000000	-17.547	-130.454	 -9.080	-108.803	 -9.109	-108.765	-15.742	113.432
   17.600000000	-20.086	-128.018	 -9.035	-119.806	 -9.068	-119.813	-16.308	101.722
   17.700000000	-23.965	-116.977	 -8.998	-131.128	 -9.024	-131.094	-16.737	 87.731
   17.800000000	-28.049	-78.411	 -8.988	-142.541	 -9.021	-142.554	-16.737	 73.294
   17.900000000	-25.097	-26.702	 -9.007	-154.142	 -9.038	-154.158	-16.271	 59.949
   18.000000000	-20.978	 -7.405	 -9.050	-165.857	 -9.085	-165.834	-15.426	 48.153
   18.100000000	-17.561	 -1.957	 -9.132	-177.704	 -9.159	-177.669	-14.386	 39.360
   18.200000000	-15.247	  0.103	 -9.239	170.500	 -9.262	170.539	-13.278	 33.264
   18.300000000	-13.616	 -0.787	 -9.376	158.756	 -9.400	158.745	-12.061	 28.198
   18.400000000	-12.318	 -1.530	 -9.545	147.066	 -9.571	147.053	-11.004	 24.127
   18.500000000	-11.554	 -3.909	 -9.732	135.540	 -9.758	135.574	-10.108	 20.374
   18.600000000	-11.062	 -6.282	 -9.954	124.353	 -9.979	124.327	 -9.323	 16.672
   18.700000000	-11.078	 -8.982	-10.195	113.569	-10.226	113.619	 -8.731	 13.245
   18.800000000	-11.593	-11.039	-10.442	103.472	-10.469	103.481	 -8.366	  8.945
   18.900000000	-12.610	-11.434	-10.626	 94.335	-10.656	 94.389	 -8.327	  4.320
   19.000000000	-14.051	 -7.634	-10.596	 85.991	-10.635	 85.985	 -8.709	  0.905
   19.100000000	-15.211	 -0.631	-10.304	 76.949	-10.335	 77.112	 -9.495	 -1.045
   19.200000000	-16.474	  9.708	 -9.872	 66.336	 -9.915	 66.410	-10.473	 -0.307
   19.300000000	-17.774	 16.996	 -9.513	 53.946	 -9.551	 54.090	-11.372	  5.415
   19.400000000	-19.177	 36.201	 -9.305	 40.766	 -9.347	 40.850	-11.866	 11.648
   19.500000000	-20.156	 61.693	 -9.237	 27.339	 -9.278	 27.428	-11.646	 18.006
   19.600000000	-17.804	 79.647	 -9.267	 13.930	 -9.304	 14.054	-11.279	 22.271
   19.700000000	-15.562	 87.949	 -9.348	  0.641	 -9.383	  0.804	-10.714	 22.480
   19.800000000	-13.988	 87.614	 -9.449	-12.553	 -9.494	-12.430	-10.313	 20.676
   19.900000000	-12.962	 85.047	 -9.572	-25.769	 -9.612	-25.651	-10.148	 16.207
   20.000000000	-12.292	 78.952	 -9.706	-38.907	 -9.752	-38.796	-10.130	 10.330
