! Date: Wednesday, June 05, 2013  1:52 PM
! Filename: C:\Data\Mike_Arnold\TGP2105-SM\Over_Temp\TGP2105-SM_EVB01_25C_Phase55.s2p 
! Comments: 
!^VDC(V):5.000
!^VDC(mA):0.105
!%Freq(GHz),S11(dB),S11(ang),S21(dB),S21(ang),S12(dB),S12(ang),S22(dB),S22(ang)
# GHz   S   DB   R   50
    5.000000000	-27.066	-116.342	 -7.227	 89.634	 -7.245	 89.589	 -9.631	-169.672
    5.100000000	-21.457	-136.438	 -7.161	 70.989	 -7.173	 70.954	 -9.602	-174.856
    5.200000000	-18.408	-146.302	 -7.149	 53.114	 -7.162	 53.080	 -9.646	-179.786
    5.300000000	-16.347	-152.973	 -7.175	 35.871	 -7.191	 35.869	 -9.676	175.411
    5.400000000	-14.675	-158.274	 -7.241	 19.375	 -7.251	 19.355	 -9.724	171.468
    5.500000000	-13.114	-163.887	 -7.316	  3.671	 -7.329	  3.656	 -9.710	167.952
    5.600000000	-11.936	-170.657	 -7.334	-11.323	 -7.347	-11.419	 -9.636	164.928
    5.700000000	-10.985	-176.296	 -7.298	-26.517	 -7.310	-26.572	 -9.500	162.706
    5.800000000	 -9.966	178.601	 -7.338	-41.629	 -7.353	-41.660	 -9.100	160.561
    5.900000000	 -8.927	171.812	 -7.435	-56.160	 -7.452	-56.207	 -8.575	157.238
    6.000000000	 -8.126	163.956	 -7.535	-70.090	 -7.551	-70.106	 -8.076	152.263
    6.100000000	 -7.559	155.903	 -7.615	-83.358	 -7.626	-83.370	 -7.710	146.325
    6.200000000	 -7.123	147.724	 -7.641	-96.147	 -7.657	-96.185	 -7.452	139.790
    6.300000000	 -6.833	139.067	 -7.625	-108.700	 -7.638	-108.734	 -7.336	132.405
    6.400000000	 -6.741	130.466	 -7.548	-121.073	 -7.559	-121.107	 -7.377	124.255
    6.500000000	 -6.782	121.955	 -7.413	-133.431	 -7.427	-133.466	 -7.590	115.519
    6.600000000	 -6.897	113.297	 -7.256	-145.765	 -7.279	-145.815	 -7.947	106.097
    6.700000000	 -7.192	104.220	 -7.057	-158.306	 -7.069	-158.343	 -8.487	 95.568
    6.800000000	 -7.614	 95.064	 -6.831	-171.173	 -6.850	-171.104	 -9.218	 83.942
    6.900000000	 -8.151	 85.983	 -6.608	175.879	 -6.634	175.951	-10.153	 71.262
    7.000000000	 -8.780	 76.569	 -6.417	162.705	 -6.438	162.800	-11.227	 56.836
    7.100000000	 -9.520	 67.125	 -6.240	149.425	 -6.266	149.491	-12.424	 40.581
    7.200000000	-10.294	 57.915	 -6.103	136.072	 -6.127	136.116	-13.650	 22.430
    7.300000000	-11.059	 48.639	 -5.997	122.734	 -6.024	122.815	-14.711	  2.941
    7.400000000	-11.795	 39.368	 -5.926	109.542	 -5.947	109.581	-15.487	-17.304
    7.500000000	-12.495	 30.298	 -5.871	 96.416	 -5.897	 96.471	-15.980	-36.967
    7.600000000	-13.075	 21.537	 -5.841	 83.464	 -5.865	 83.515	-16.337	-54.750
    7.700000000	-13.582	 12.962	 -5.821	 70.691	 -5.844	 70.747	-16.654	-70.298
    7.800000000	-14.024	  5.014	 -5.805	 58.097	 -5.831	 58.137	-17.103	-84.799
    7.900000000	-14.510	 -2.226	 -5.802	 45.598	 -5.823	 45.641	-17.903	-98.100
    8.000000000	-14.931	 -8.656	 -5.793	 33.264	 -5.815	 33.299	-19.216	-110.993
    8.100000000	-15.452	-14.081	 -5.785	 20.964	 -5.814	 21.053	-20.985	-125.068
    8.200000000	-15.974	-18.513	 -5.785	  8.778	 -5.811	  8.840	-23.477	-143.517
    8.300000000	-16.509	-21.482	 -5.790	 -3.278	 -5.818	 -3.191	-26.689	-173.103
    8.400000000	-16.978	-23.968	 -5.807	-15.263	 -5.832	-15.187	-28.376	141.222
    8.500000000	-17.575	-26.377	 -5.820	-27.169	 -5.846	-27.048	-26.440	100.908
    8.600000000	-18.109	-28.743	 -5.835	-38.985	 -5.863	-38.909	-23.603	 77.447
    8.700000000	-18.727	-32.180	 -5.850	-50.728	 -5.878	-50.660	-21.785	 63.952
    8.800000000	-19.620	-38.029	 -5.864	-62.456	 -5.890	-62.365	-20.783	 55.063
    8.900000000	-20.966	-46.167	 -5.881	-74.115	 -5.907	-74.016	-20.267	 50.849
    9.000000000	-22.859	-57.917	 -5.895	-85.758	 -5.924	-85.686	-20.301	 47.816
    9.100000000	-25.293	-77.161	 -5.915	-97.380	 -5.944	-97.348	-20.530	 48.741
    9.200000000	-27.616	-113.358	 -5.940	-109.007	 -5.968	-108.938	-20.936	 55.037
    9.300000000	-26.937	-157.807	 -5.974	-120.625	 -6.001	-120.541	-20.938	 61.507
    9.400000000	-24.131	172.211	 -6.012	-132.131	 -6.041	-132.024	-20.493	 69.216
    9.500000000	-21.585	155.593	 -6.064	-143.545	 -6.091	-143.491	-19.973	 75.035
    9.600000000	-19.857	143.602	 -6.107	-154.847	 -6.139	-154.773	-19.437	 77.548
    9.700000000	-18.852	136.033	 -6.151	-166.096	 -6.182	-165.981	-19.076	 77.879
    9.800000000	-18.240	131.158	 -6.189	-177.212	 -6.216	-177.109	-19.321	 77.926
    9.900000000	-18.065	128.247	 -6.218	171.712	 -6.250	171.786	-20.095	 76.687
   10.000000000	-18.276	116.655	 -6.252	160.403	 -6.281	160.468	-21.851	 67.297
   10.100000000	-18.423	114.271	 -6.277	149.276	 -6.307	149.382	-24.485	 59.849
   10.200000000	-18.307	115.332	 -6.301	138.208	 -6.335	138.280	-28.545	 44.519
   10.300000000	-18.328	116.825	 -6.326	127.186	 -6.358	127.275	-36.459	 -3.709
   10.400000000	-17.996	118.971	 -6.359	116.103	 -6.395	116.193	-30.811	-92.365
   10.500000000	-17.659	121.370	 -6.393	105.132	 -6.430	105.195	-25.288	-113.169
   10.600000000	-17.117	122.131	 -6.445	 94.133	 -6.481	 94.215	-21.324	-124.259
   10.700000000	-16.781	121.969	 -6.507	 83.309	 -6.525	 83.266	-19.060	-131.095
   10.800000000	-16.392	121.290	 -6.567	 72.371	 -6.583	 72.345	-17.382	-138.277
   10.900000000	-16.367	119.587	 -6.625	 61.532	 -6.642	 61.486	-16.186	-143.594
   11.000000000	-16.359	118.041	 -6.684	 50.654	 -6.704	 50.626	-15.351	-149.517
   11.100000000	-16.764	116.240	 -6.741	 39.816	 -6.759	 39.777	-14.796	-154.776
   11.200000000	-17.273	115.821	 -6.797	 28.940	 -6.814	 28.913	-14.383	-159.981
   11.300000000	-18.116	116.386	 -6.851	 18.067	 -6.872	 18.056	-14.105	-165.384
   11.400000000	-19.191	119.048	 -6.906	  7.165	 -6.925	  7.111	-13.914	-170.759
   11.500000000	-20.294	126.319	 -6.968	 -3.812	 -6.987	 -3.823	-13.739	-176.113
   11.600000000	-21.284	137.489	 -7.029	-14.760	 -7.043	-14.802	-13.557	178.086
   11.700000000	-21.395	153.893	 -7.093	-25.774	 -7.116	-25.851	-13.360	171.984
   11.800000000	-20.228	169.571	 -7.172	-36.857	 -7.192	-36.852	-13.066	165.612
   11.900000000	-18.383	178.702	 -7.264	-47.882	 -7.280	-47.919	-12.718	158.789
   12.000000000	-16.534	-176.566	 -7.364	-58.943	 -7.379	-58.985	-12.288	151.496
   12.100000000	-14.721	-175.572	 -7.477	-69.988	 -7.493	-70.050	-11.804	144.395
   12.200000000	-13.152	-177.146	 -7.611	-81.022	 -7.625	-81.049	-11.315	136.950
   12.300000000	-11.882	179.317	 -7.749	-91.969	 -7.766	-92.029	-10.796	129.563
   12.400000000	-10.784	175.061	 -7.898	-102.871	 -7.917	-102.930	-10.329	122.208
   12.500000000	 -9.899	169.588	 -8.059	-113.699	 -8.075	-113.731	 -9.886	115.237
   12.600000000	 -9.152	163.480	 -8.222	-124.417	 -8.236	-124.458	 -9.501	108.322
   12.700000000	 -8.608	156.898	 -8.376	-135.094	 -8.389	-135.133	 -9.196	101.795
   12.800000000	 -8.152	149.708	 -8.518	-145.688	 -8.536	-145.728	 -8.982	 95.498
   12.900000000	 -7.800	141.912	 -8.662	-156.217	 -8.679	-156.278	 -8.836	 89.354
   13.000000000	 -7.548	133.779	 -8.788	-166.691	 -8.803	-166.743	 -8.781	 83.499
   13.100000000	 -7.354	125.354	 -8.903	-177.153	 -8.917	-177.181	 -8.801	 77.730
   13.200000000	 -7.178	116.663	 -9.008	172.471	 -9.026	172.407	 -8.922	 71.963
   13.300000000	 -7.065	107.543	 -9.092	162.082	 -9.108	162.029	 -9.123	 66.174
   13.400000000	 -6.932	 98.594	 -9.168	151.712	 -9.177	151.617	 -9.427	 60.538
   13.500000000	 -6.789	 89.354	 -9.232	141.345	 -9.240	141.266	 -9.771	 54.326
   13.600000000	 -6.627	 80.125	 -9.298	130.955	 -9.303	130.836	-10.227	 48.076
   13.700000000	 -6.504	 71.296	 -9.357	120.616	 -9.363	120.516	-10.743	 41.157
   13.800000000	 -6.343	 62.875	 -9.415	110.309	 -9.422	110.237	-11.320	 34.236
   13.900000000	 -6.179	 55.230	 -9.463	100.055	 -9.476	 99.993	-11.962	 26.638
   14.000000000	 -6.032	 47.722	 -9.513	 89.874	 -9.526	 89.803	-12.638	 19.205
   14.100000000	 -5.919	 41.272	 -9.550	 79.751	 -9.559	 79.664	-13.382	 11.404
   14.200000000	 -5.827	 35.254	 -9.573	 69.644	 -9.580	 69.594	-14.268	  3.907
   14.300000000	 -5.777	 30.141	 -9.578	 59.625	 -9.590	 59.501	-15.283	 -2.201
   14.400000000	 -5.781	 25.706	 -9.566	 49.550	 -9.575	 49.484	-16.528	 -6.703
   14.500000000	 -5.775	 22.066	 -9.538	 39.421	 -9.550	 39.321	-18.054	 -9.413
   14.600000000	 -5.895	 18.856	 -9.487	 29.237	 -9.495	 29.169	-19.838	 -5.663
   14.700000000	 -5.957	 16.902	 -9.433	 18.990	 -9.448	 18.924	-21.646	  7.070
   14.800000000	 -6.127	 15.180	 -9.363	  8.676	 -9.379	  8.598	-21.762	 26.708
   14.900000000	 -6.239	 13.675	 -9.306	 -1.727	 -9.320	 -1.809	-19.914	 45.390
   15.000000000	 -6.392	 13.331	 -9.248	-12.120	 -9.264	-12.206	-17.491	 53.741
   15.100000000	 -6.547	 12.250	 -9.203	-22.530	 -9.213	-22.585	-15.357	 55.656
   15.200000000	 -6.765	 11.557	 -9.158	-32.832	 -9.170	-32.906	-13.676	 54.511
   15.300000000	 -6.990	 10.461	 -9.124	-43.080	 -9.140	-43.188	-12.328	 51.685
   15.400000000	 -7.290	  8.706	 -9.090	-53.280	 -9.109	-53.388	-11.390	 48.186
   15.500000000	 -7.762	  6.700	 -9.051	-63.440	 -9.069	-63.449	-10.716	 44.212
   15.600000000	 -8.308	  3.815	 -9.017	-73.488	 -9.037	-73.513	-10.268	 40.679
   15.700000000	 -9.042	 -0.022	 -8.972	-83.569	 -8.993	-83.582	-10.026	 36.960
   15.800000000	 -9.982	 -5.276	 -8.922	-93.780	 -8.942	-93.811	 -9.989	 33.410
   15.900000000	-11.062	-11.215	 -8.882	-103.998	 -8.893	-104.041	-10.070	 29.828
   16.000000000	-12.330	-19.539	 -8.837	-114.334	 -8.851	-114.388	-10.319	 26.809
   16.100000000	-13.662	-30.544	 -8.793	-124.910	 -8.814	-124.890	-10.734	 22.494
   16.200000000	-14.923	-43.852	 -8.770	-135.519	 -8.791	-135.482	-11.183	 18.450
   16.300000000	-15.770	-59.477	 -8.743	-146.219	 -8.771	-146.191	-11.916	 13.339
   16.400000000	-15.990	-75.732	 -8.739	-157.011	 -8.763	-156.986	-12.763	  6.770
   16.500000000	-15.766	-91.278	 -8.747	-167.821	 -8.768	-167.769	-13.812	 -0.460
   16.600000000	-15.230	-102.042	 -8.745	-178.645	 -8.774	-178.598	-15.078	-10.626
   16.700000000	-14.453	-112.623	 -8.762	170.561	 -8.798	170.632	-16.409	-22.738
   16.800000000	-14.113	-117.649	 -8.770	159.867	 -8.802	159.923	-18.400	-40.612
   16.900000000	-13.601	-124.992	 -8.786	149.197	 -8.815	149.244	-18.704	-61.605
   17.000000000	-13.509	-127.901	 -8.786	138.693	 -8.812	138.724	-19.486	-81.412
   17.100000000	-13.615	-134.868	 -8.778	128.179	 -8.802	128.234	-18.647	-101.359
   17.200000000	-13.806	-137.002	 -8.753	117.735	 -8.782	117.790	-18.456	-112.727
   17.300000000	-14.892	-141.497	 -8.710	107.317	 -8.733	107.398	-18.236	-124.741
   17.400000000	-16.039	-144.557	 -8.645	 96.870	 -8.674	 96.925	-18.016	-131.336
   17.500000000	-18.175	-148.736	 -8.572	 86.234	 -8.603	 86.282	-18.333	-136.533
   17.600000000	-21.501	-152.386	 -8.498	 75.443	 -8.520	 75.498	-18.950	-139.023
   17.700000000	-28.143	-155.161	 -8.417	 64.523	 -8.439	 64.577	-19.974	-139.499
   17.800000000	-42.337	  2.156	 -8.349	 53.349	 -8.370	 53.380	-21.324	-139.459
   17.900000000	-25.063	 11.814	 -8.294	 42.021	 -8.319	 42.050	-23.272	-139.386
   18.000000000	-20.019	 12.515	 -8.246	 30.611	 -8.271	 30.594	-26.229	-138.516
   18.100000000	-16.775	 10.034	 -8.217	 19.007	 -8.247	 19.035	-31.695	-142.984
   18.200000000	-14.669	  8.924	 -8.202	  7.422	 -8.224	  7.478	-43.205	122.427
   18.300000000	-13.182	  7.113	 -8.194	 -4.221	 -8.224	 -4.175	-28.461	 57.338
   18.400000000	-11.931	  6.469	 -8.195	-15.854	 -8.223	-15.809	-22.524	 51.727
   18.500000000	-11.081	  5.097	 -8.204	-27.397	 -8.227	-27.373	-18.903	 48.251
   18.600000000	-10.352	  3.784	 -8.208	-38.894	 -8.240	-38.882	-16.283	 45.262
   18.700000000	 -9.930	  2.127	 -8.209	-50.302	 -8.239	-50.265	-14.333	 42.785
   18.800000000	 -9.758	  0.334	 -8.206	-61.612	 -8.236	-61.589	-13.009	 39.820
   18.900000000	 -9.845	 -2.014	 -8.191	-72.929	 -8.220	-72.914	-12.084	 37.442
   19.000000000	-10.292	 -4.181	 -8.167	-84.249	 -8.198	-84.208	-11.394	 36.732
   19.100000000	-10.986	 -6.885	 -8.139	-95.632	 -8.172	-95.525	-10.926	 36.198
   19.200000000	-12.398	 -8.156	 -8.103	-106.996	 -8.133	-106.917	-10.641	 35.911
   19.300000000	-14.179	-10.534	 -8.064	-118.587	 -8.098	-118.481	-10.327	 37.517
   19.400000000	-17.062	 -6.404	 -8.039	-130.403	 -8.070	-130.308	-10.143	 38.249
   19.500000000	-21.621	  0.402	 -8.041	-142.461	 -8.078	-142.367	 -9.720	 38.855
   19.600000000	-24.869	 38.661	 -8.079	-154.617	 -8.116	-154.496	 -9.393	 39.304
   19.700000000	-22.718	 82.390	 -8.142	-166.824	 -8.181	-166.714	 -9.016	 37.731
   19.800000000	-19.445	 93.257	 -8.218	-179.102	 -8.256	-179.017	 -8.716	 35.556
   19.900000000	-17.331	 95.256	 -8.306	168.534	 -8.342	168.638	 -8.557	 31.737
   20.000000000	-16.002	 90.602	 -8.395	156.164	 -8.432	156.308	 -8.467	 26.859
