! Date: Wednesday, June 05, 2013  1:51 PM
! Filename: C:\Data\Mike_Arnold\TGP2105-SM\Over_Temp\TGP2105-SM_EVB01_25C_Phase36.s2p 
! Comments: 
!^VDC(V):5.000
!^VDC(mA):0.078
!%Freq(GHz),S11(dB),S11(ang),S21(dB),S21(ang),S12(dB),S12(ang),S22(dB),S22(ang)
# GHz   S   DB   R   50
    5.000000000	-11.953	  2.831	 -9.570	-28.858	 -9.585	-28.875	 -4.528	102.255
    5.100000000	-12.247	-35.311	 -9.396	-44.855	 -9.409	-44.915	 -4.670	 96.878
    5.200000000	-11.371	-71.387	 -9.287	-60.682	 -9.300	-60.734	 -4.829	 91.690
    5.300000000	 -9.974	-100.527	 -9.247	-76.005	 -9.263	-76.054	 -4.954	 86.713
    5.400000000	 -8.642	-123.698	 -9.243	-90.752	 -9.258	-90.831	 -5.098	 81.462
    5.500000000	 -7.539	-142.718	 -9.232	-104.903	 -9.244	-104.934	 -5.255	 76.126
    5.600000000	 -6.741	-159.046	 -9.170	-118.565	 -9.175	-118.603	 -5.441	 70.845
    5.700000000	 -6.161	-173.256	 -9.064	-132.171	 -9.078	-132.218	 -5.601	 64.839
    5.800000000	 -5.760	174.286	 -8.958	-145.506	 -8.976	-145.557	 -5.845	 57.957
    5.900000000	 -5.480	162.638	 -8.826	-158.577	 -8.839	-158.653	 -6.246	 50.233
    6.000000000	 -5.370	151.649	 -8.641	-171.559	 -8.658	-171.578	 -6.780	 42.003
    6.100000000	 -5.435	141.475	 -8.407	175.473	 -8.423	175.491	 -7.484	 32.885
    6.200000000	 -5.592	132.006	 -8.142	162.458	 -8.158	162.431	 -8.402	 22.974
    6.300000000	 -5.846	122.670	 -7.867	149.199	 -7.883	149.172	 -9.540	 12.363
    6.400000000	 -6.266	113.760	 -7.585	135.711	 -7.596	135.686	-10.935	  0.884
    6.500000000	 -6.789	105.369	 -7.308	122.082	 -7.328	122.059	-12.653	-11.737
    6.600000000	 -7.384	 97.398	 -7.063	108.263	 -7.082	108.227	-14.774	-25.100
    6.700000000	 -8.090	 89.270	 -6.847	 94.342	 -6.858	 94.337	-17.311	-39.030
    6.800000000	 -8.876	 81.425	 -6.651	 80.293	 -6.679	 80.353	-20.453	-53.938
    6.900000000	 -9.733	 73.884	 -6.507	 66.377	 -6.527	 66.425	-24.633	-69.208
    7.000000000	-10.621	 65.933	 -6.389	 52.506	 -6.413	 52.568	-31.009	-77.427
    7.100000000	-11.588	 57.952	 -6.301	 38.739	 -6.323	 38.787	-41.319	-19.891
    7.200000000	-12.594	 50.184	 -6.236	 25.082	 -6.259	 25.108	-31.474	 31.793
    7.300000000	-13.567	 42.412	 -6.193	 11.549	 -6.219	 11.597	-25.997	 24.870
    7.400000000	-14.507	 34.832	 -6.168	 -1.840	 -6.195	 -1.802	-22.573	 12.559
    7.500000000	-15.394	 27.584	 -6.160	-15.080	 -6.188	-15.031	-20.258	  0.102
    7.600000000	-16.093	 21.192	 -6.162	-28.111	 -6.187	-28.062	-18.503	-10.996
    7.700000000	-16.628	 15.285	 -6.179	-40.996	 -6.200	-40.936	-17.085	-21.440
    7.800000000	-17.027	 10.043	 -6.189	-53.717	 -6.214	-53.633	-16.085	-31.492
    7.900000000	-17.325	  5.518	 -6.208	-66.278	 -6.230	-66.215	-15.413	-40.829
    8.000000000	-17.470	  1.388	 -6.221	-78.688	 -6.250	-78.636	-15.050	-49.512
    8.100000000	-17.720	 -2.186	 -6.229	-90.972	 -6.258	-90.942	-14.916	-58.807
    8.200000000	-17.994	 -5.103	 -6.240	-103.246	 -6.269	-103.186	-15.170	-68.776
    8.300000000	-18.343	 -6.674	 -6.246	-115.499	 -6.276	-115.358	-15.773	-79.277
    8.400000000	-18.672	 -7.092	 -6.254	-127.638	 -6.283	-127.556	-16.665	-91.566
    8.500000000	-19.164	 -5.792	 -6.274	-139.800	 -6.302	-139.696	-17.907	-106.882
    8.600000000	-19.397	 -2.990	 -6.298	-151.926	 -6.326	-151.847	-19.418	-126.835
    8.700000000	-19.321	 -0.195	 -6.329	-164.015	 -6.357	-163.892	-20.469	-152.321
    8.800000000	-19.126	  0.641	 -6.373	-176.015	 -6.404	-175.963	-20.458	-179.712
    8.900000000	-18.927	 -0.208	 -6.429	172.042	 -6.457	172.087	-19.262	155.600
    9.000000000	-18.772	 -4.245	 -6.484	160.133	 -6.513	160.211	-17.885	138.844
    9.100000000	-18.879	-11.763	 -6.539	148.333	 -6.568	148.397	-16.543	126.916
    9.200000000	-19.434	-23.496	 -6.597	136.567	 -6.630	136.656	-15.339	119.899
    9.300000000	-20.329	-39.999	 -6.651	124.860	 -6.682	124.926	-14.441	114.606
    9.400000000	-21.104	-63.752	 -6.709	113.145	 -6.744	113.255	-13.580	111.644
    9.500000000	-21.041	-95.086	 -6.782	101.485	 -6.810	101.545	-12.828	110.313
    9.600000000	-19.741	-124.859	 -6.863	 89.867	 -6.901	 89.957	-12.099	109.156
    9.700000000	-17.643	-148.080	 -6.960	 78.330	 -6.991	 78.435	-11.330	107.665
    9.800000000	-15.638	-166.070	 -7.072	 66.990	 -7.103	 67.056	-10.663	106.283
    9.900000000	-14.032	179.884	 -7.190	 55.791	 -7.226	 55.868	-10.106	104.231
   10.000000000	-13.813	164.064	 -7.259	 44.212	 -7.292	 44.301	 -9.985	101.243
   10.100000000	-12.985	151.957	 -7.365	 33.159	 -7.393	 33.242	 -9.726	 97.827
   10.200000000	-12.182	141.385	 -7.475	 22.277	 -7.506	 22.383	 -9.532	 93.554
   10.300000000	-11.793	131.586	 -7.570	 11.604	 -7.606	 11.671	 -9.431	 89.206
   10.400000000	-11.501	122.567	 -7.654	  1.016	 -7.694	  1.119	 -9.447	 84.302
   10.500000000	-11.483	114.474	 -7.741	 -9.479	 -7.775	 -9.359	 -9.470	 78.804
   10.600000000	-11.630	106.395	 -7.798	-19.844	 -7.836	-19.711	 -9.680	 73.427
   10.700000000	-12.028	 98.676	 -7.862	-30.096	 -7.879	-30.126	 -9.884	 67.321
   10.800000000	-12.610	 91.541	 -7.903	-40.444	 -7.920	-40.489	-10.123	 61.210
   10.900000000	-13.552	 83.970	 -7.934	-50.838	 -7.950	-50.899	-10.413	 54.507
   11.000000000	-14.745	 76.911	 -7.962	-61.267	 -7.981	-61.297	-10.654	 47.992
   11.100000000	-16.504	 68.656	 -7.986	-71.740	 -8.006	-71.781	-10.845	 41.313
   11.200000000	-18.971	 60.802	 -8.012	-82.259	 -8.027	-82.293	-11.014	 34.815
   11.300000000	-22.981	 50.502	 -8.035	-92.816	 -8.049	-92.887	-11.100	 28.707
   11.400000000	-30.876	 28.884	 -8.065	-103.457	 -8.085	-103.483	-11.120	 22.918
   11.500000000	-32.517	-108.373	 -8.109	-114.083	 -8.125	-114.148	-11.110	 17.259
   11.600000000	-23.228	-132.611	 -8.151	-124.701	 -8.169	-124.772	-11.046	 12.082
   11.700000000	-18.686	-143.056	 -8.206	-135.343	 -8.222	-135.419	-10.926	  7.009
   11.800000000	-15.742	-151.584	 -8.263	-145.953	 -8.281	-145.977	-10.836	  2.212
   11.900000000	-13.706	-159.627	 -8.327	-156.459	 -8.349	-156.510	-10.753	 -2.455
   12.000000000	-12.184	-166.906	 -8.391	-166.921	 -8.414	-166.952	-10.704	 -7.007
   12.100000000	-10.973	-173.919	 -8.463	-177.330	 -8.478	-177.417	-10.733	-11.975
   12.200000000	-10.043	179.215	 -8.533	172.268	 -8.543	172.224	-10.789	-16.854
   12.300000000	 -9.371	172.255	 -8.589	161.944	 -8.598	161.881	-10.967	-21.907
   12.400000000	 -8.841	165.756	 -8.641	151.639	 -8.655	151.579	-11.214	-27.150
   12.500000000	 -8.467	159.052	 -8.683	141.314	 -8.696	141.248	-11.599	-32.699
   12.600000000	 -8.176	152.364	 -8.717	130.999	 -8.733	130.920	-12.080	-38.369
   12.700000000	 -8.037	145.697	 -8.735	120.628	 -8.750	120.550	-12.702	-44.532
   12.800000000	 -7.927	138.831	 -8.748	110.159	 -8.767	110.120	-13.423	-51.051
   12.900000000	 -7.880	131.674	 -8.755	 99.678	 -8.769	 99.599	-14.293	-57.843
   13.000000000	 -7.883	124.368	 -8.752	 89.123	 -8.772	 89.021	-15.285	-65.306
   13.100000000	 -7.904	116.944	 -8.756	 78.491	 -8.770	 78.444	-16.423	-73.124
   13.200000000	 -7.893	109.409	 -8.758	 67.870	 -8.773	 67.815	-17.680	-81.439
   13.300000000	 -7.897	101.442	 -8.751	 57.230	 -8.768	 57.192	-19.101	-90.254
   13.400000000	 -7.859	 93.661	 -8.744	 46.586	 -8.757	 46.510	-20.726	-100.032
   13.500000000	 -7.784	 85.696	 -8.736	 35.879	 -8.752	 35.793	-22.770	-108.210
   13.600000000	 -7.649	 77.733	 -8.745	 25.114	 -8.759	 25.065	-25.381	-118.312
   13.700000000	 -7.524	 70.178	 -8.757	 14.383	 -8.765	 14.347	-29.419	-124.912
   13.800000000	 -7.327	 62.986	 -8.776	  3.680	 -8.783	  3.559	-39.326	-128.758
   13.900000000	 -7.091	 56.641	 -8.807	 -7.048	 -8.814	 -7.136	-36.423	 23.867
   14.000000000	 -6.834	 50.237	 -8.848	-17.713	 -8.864	-17.832	-27.135	 23.008
   14.100000000	 -6.579	 44.856	 -8.907	-28.279	 -8.919	-28.402	-22.415	 15.082
   14.200000000	 -6.310	 39.597	 -8.973	-38.846	 -8.982	-38.918	-19.350	  7.730
   14.300000000	 -6.048	 34.954	 -9.046	-49.252	 -9.057	-49.328	-17.017	  1.168
   14.400000000	 -5.834	 30.639	 -9.115	-59.484	 -9.131	-59.585	-15.249	 -5.270
   14.500000000	 -5.614	 26.763	 -9.187	-69.597	 -9.203	-69.712	-13.915	-12.463
   14.600000000	 -5.530	 22.919	 -9.234	-79.549	 -9.253	-79.637	-12.914	-18.714
   14.700000000	 -5.426	 19.882	 -9.274	-89.372	 -9.289	-89.415	-12.267	-25.303
   14.800000000	 -5.477	 16.818	 -9.270	-99.044	 -9.285	-99.172	-11.818	-31.928
   14.900000000	 -5.550	 13.762	 -9.242	-108.719	 -9.262	-108.806	-11.720	-38.123
   15.000000000	 -5.743	 11.771	 -9.180	-118.317	 -9.194	-118.366	-11.896	-44.833
   15.100000000	 -6.016	  9.277	 -9.080	-127.977	 -9.096	-128.036	-12.320	-51.839
   15.200000000	 -6.429	  7.446	 -8.961	-137.696	 -8.978	-137.758	-13.089	-59.618
   15.300000000	 -6.902	  5.758	 -8.823	-147.575	 -8.838	-147.643	-14.227	-67.755
   15.400000000	 -7.467	  3.968	 -8.686	-157.582	 -8.703	-157.691	-15.725	-77.684
   15.500000000	 -8.200	  2.547	 -8.541	-167.780	 -8.561	-167.835	-17.646	-89.878
   15.600000000	 -8.969	  0.873	 -8.409	-178.123	 -8.431	-178.132	-20.141	-107.850
   15.700000000	 -9.859	 -1.421	 -8.295	171.443	 -8.315	171.427	-22.577	-134.791
   15.800000000	-10.874	 -4.838	 -8.198	160.881	 -8.215	160.847	-23.174	-170.438
   15.900000000	-11.974	 -8.909	 -8.125	150.261	 -8.146	150.236	-21.723	159.192
   16.000000000	-13.181	-15.463	 -8.075	139.551	 -8.093	139.526	-19.382	139.756
   16.100000000	-14.463	-25.115	 -8.040	128.745	 -8.067	128.793	-17.718	128.708
   16.200000000	-15.658	-37.166	 -8.026	118.008	 -8.051	118.040	-16.300	118.889
   16.300000000	-16.468	-52.631	 -8.019	107.260	 -8.051	107.230	-15.273	112.349
   16.400000000	-16.694	-69.137	 -8.031	 96.515	 -8.058	 96.535	-14.610	105.664
   16.500000000	-16.426	-85.340	 -8.041	 85.792	 -8.073	 85.840	-14.105	 98.816
   16.600000000	-15.851	-96.597	 -8.050	 75.139	 -8.081	 75.185	-14.007	 91.739
   16.700000000	-15.013	-107.367	 -8.062	 64.503	 -8.090	 64.550	-14.105	 83.287
   16.800000000	-14.625	-112.061	 -8.063	 54.039	 -8.088	 54.073	-14.532	 76.795
   16.900000000	-14.047	-118.562	 -8.050	 43.463	 -8.082	 43.469	-15.506	 63.615
   17.000000000	-13.767	-120.360	 -8.044	 33.039	 -8.073	 33.071	-16.174	 50.849
   17.100000000	-13.716	-125.947	 -8.024	 22.542	 -8.051	 22.625	-17.489	 32.815
   17.200000000	-13.476	-127.213	 -8.013	 12.073	 -8.049	 12.126	-17.519	 11.377
   17.300000000	-14.084	-130.361	 -7.990	  1.770	 -8.021	  1.828	-17.520	 -7.927
   17.400000000	-14.530	-133.175	 -7.976	 -8.626	 -8.004	 -8.611	-16.656	-27.188
   17.500000000	-15.682	-137.646	 -7.952	-19.010	 -7.978	-18.960	-15.648	-40.308
   17.600000000	-17.407	-143.153	 -7.926	-29.483	 -7.953	-29.427	-14.604	-49.841
   17.700000000	-20.409	-151.521	 -7.899	-39.989	 -7.929	-39.971	-13.704	-55.858
   17.800000000	-25.852	-168.609	 -7.879	-50.642	 -7.910	-50.652	-13.051	-59.918
   17.900000000	-32.867	 98.981	 -7.860	-61.424	 -7.893	-61.384	-12.542	-62.304
   18.000000000	-22.998	 48.134	 -7.855	-72.264	 -7.881	-72.240	-12.056	-63.717
   18.100000000	-17.768	 33.330	 -7.863	-83.199	 -7.893	-83.201	-11.716	-64.911
   18.200000000	-14.618	 25.797	 -7.879	-94.165	 -7.906	-94.154	-11.520	-66.248
   18.300000000	-12.606	 19.269	 -7.889	-105.058	 -7.925	-105.053	-11.470	-67.204
   18.400000000	-11.107	 14.511	 -7.902	-115.892	 -7.932	-115.876	-11.617	-69.100
   18.500000000	-10.219	 10.076	 -7.903	-126.701	 -7.924	-126.718	-12.010	-71.702
   18.600000000	 -9.587	  6.470	 -7.878	-137.550	 -7.904	-137.533	-12.730	-74.349
   18.700000000	 -9.320	  3.572	 -7.835	-148.338	 -7.868	-148.310	-13.944	-77.239
   18.800000000	 -9.300	  1.387	 -7.779	-159.222	 -7.807	-159.241	-15.524	-80.073
   18.900000000	 -9.499	 -0.466	 -7.714	-170.264	 -7.741	-170.203	-17.739	-82.581
   19.000000000	 -9.923	 -1.435	 -7.647	178.660	 -7.668	178.640	-21.396	-83.116
   19.100000000	-10.433	 -2.703	 -7.589	167.309	 -7.628	167.367	-26.695	-76.873
   19.200000000	-11.380	 -2.792	 -7.548	155.898	 -7.586	155.996	-33.506	-42.235
   19.300000000	-12.392	 -4.967	 -7.518	144.339	 -7.552	144.465	-31.612	 41.796
   19.400000000	-13.980	 -4.488	 -7.488	132.685	 -7.523	132.764	-27.720	 56.608
   19.500000000	-16.439	 -8.285	 -7.473	120.718	 -7.511	120.787	-25.105	 63.681
   19.600000000	-19.444	 -6.965	 -7.490	108.464	 -7.523	108.586	-23.680	 75.679
   19.700000000	-25.129	  0.109	 -7.527	 96.000	 -7.563	 96.089	-22.560	 83.746
   19.800000000	-33.344	 53.115	 -7.601	 83.311	 -7.639	 83.349	-20.894	 92.705
   19.900000000	-26.181	121.570	 -7.703	 70.424	 -7.741	 70.482	-19.391	 98.275
   20.000000000	-21.238	122.714	 -7.837	 57.477	 -7.874	 57.595	-18.023	 99.013
