! Date: Wednesday, June 05, 2013  1:50 PM
! Filename: C:\Data\Mike_Arnold\TGP2105-SM\Over_Temp\TGP2105-SM_EVB01_25C_Phase18.s2p 
! Comments: 
!^VDC(V):5.000
!^VDC(mA):0.037
!%Freq(GHz),S11(dB),S11(ang),S21(dB),S21(ang),S12(dB),S12(ang),S22(dB),S22(ang)
# GHz   S   DB   R   50
    5.000000000	-12.543	160.517	 -6.673	-141.303	 -6.696	-141.331	-10.268	-173.867
    5.100000000	-12.232	159.046	 -6.699	-158.098	 -6.718	-158.122	-10.874	-178.344
    5.200000000	-11.700	158.575	 -6.757	-174.437	 -6.775	-174.470	-11.367	179.884
    5.300000000	-11.007	157.419	 -6.844	169.647	 -6.864	169.599	-11.474	179.313
    5.400000000	-10.215	155.321	 -6.960	154.182	 -6.980	154.150	-11.187	179.199
    5.500000000	 -9.361	152.248	 -7.110	139.297	 -7.120	139.284	-10.573	177.745
    5.600000000	 -8.538	147.601	 -7.262	124.980	 -7.276	124.952	 -9.784	174.548
    5.700000000	 -7.855	141.759	 -7.423	111.205	 -7.433	111.172	 -9.076	169.377
    5.800000000	 -7.336	135.575	 -7.550	 98.069	 -7.570	 97.973	 -8.452	163.060
    5.900000000	 -6.892	128.957	 -7.667	 85.383	 -7.677	 85.334	 -7.992	156.086
    6.000000000	 -6.585	121.722	 -7.733	 73.078	 -7.743	 73.014	 -7.697	148.204
    6.100000000	 -6.466	114.136	 -7.737	 61.206	 -7.756	 61.163	 -7.622	139.835
    6.200000000	 -6.484	106.666	 -7.672	 49.666	 -7.686	 49.610	 -7.746	131.299
    6.300000000	 -6.623	 99.154	 -7.500	 38.214	 -7.517	 38.164	 -8.077	122.629
    6.400000000	 -6.893	 91.949	 -7.218	 26.059	 -7.234	 26.067	 -8.521	113.658
    6.500000000	 -7.202	 84.672	 -6.974	 13.321	 -6.992	 13.336	 -9.128	103.652
    6.600000000	 -7.591	 77.384	 -6.767	  0.530	 -6.779	  0.473	 -9.990	 92.050
    6.700000000	 -8.105	 69.554	 -6.576	-12.532	 -6.590	-12.552	-11.189	 78.784
    6.800000000	 -8.741	 61.921	 -6.396	-25.814	 -6.415	-25.726	-12.746	 63.233
    6.900000000	 -9.461	 54.880	 -6.254	-39.079	 -6.282	-39.011	-14.679	 44.418
    7.000000000	-10.145	 48.005	 -6.162	-52.410	 -6.186	-52.374	-16.675	 20.095
    7.100000000	-10.811	 41.527	 -6.107	-65.763	 -6.134	-65.675	-18.148	-10.688
    7.200000000	-11.384	 35.456	 -6.089	-78.916	 -6.111	-78.873	-18.391	-44.040
    7.300000000	-11.799	 29.408	 -6.100	-91.952	 -6.125	-91.905	-17.584	-72.268
    7.400000000	-12.058	 23.014	 -6.125	-104.793	 -6.149	-104.735	-16.505	-93.805
    7.500000000	-12.227	 16.391	 -6.164	-117.487	 -6.190	-117.423	-15.576	-111.257
    7.600000000	-12.275	  9.669	 -6.210	-129.983	 -6.238	-129.900	-15.015	-126.277
    7.700000000	-12.262	  2.727	 -6.254	-142.281	 -6.279	-142.227	-14.752	-139.857
    7.800000000	-12.238	 -4.201	 -6.296	-154.472	 -6.318	-154.417	-14.666	-153.117
    7.900000000	-12.265	-10.924	 -6.329	-166.569	 -6.352	-166.515	-14.845	-167.268
    8.000000000	-12.277	-17.357	 -6.356	-178.608	 -6.382	-178.554	-15.163	177.327
    8.100000000	-12.370	-23.830	 -6.387	169.427	 -6.418	169.499	-15.486	161.518
    8.200000000	-12.501	-30.182	 -6.417	157.502	 -6.440	157.598	-15.650	144.710
    8.300000000	-12.707	-36.472	 -6.441	145.645	 -6.465	145.740	-15.618	127.382
    8.400000000	-12.958	-43.317	 -6.462	133.811	 -6.490	133.913	-15.444	111.535
    8.500000000	-13.415	-51.327	 -6.477	121.995	 -6.508	122.097	-15.130	 97.867
    8.600000000	-13.974	-60.000	 -6.499	110.183	 -6.529	110.265	-14.703	 86.412
    8.700000000	-14.699	-70.412	 -6.514	 98.338	 -6.545	 98.447	-14.386	 77.366
    8.800000000	-15.577	-83.561	 -6.530	 86.478	 -6.561	 86.558	-14.164	 70.574
    8.900000000	-16.592	-99.984	 -6.555	 74.553	 -6.581	 74.666	-13.914	 66.370
    9.000000000	-17.516	-119.841	 -6.582	 62.666	 -6.612	 62.739	-13.754	 62.807
    9.100000000	-17.962	-142.614	 -6.619	 50.768	 -6.649	 50.847	-13.536	 60.461
    9.200000000	-17.730	-166.205	 -6.670	 38.910	 -6.701	 39.006	-13.354	 59.283
    9.300000000	-17.006	173.055	 -6.725	 27.148	 -6.751	 27.229	-13.142	 57.052
    9.400000000	-16.172	156.449	 -6.782	 15.460	 -6.812	 15.561	-12.974	 54.790
    9.500000000	-15.418	143.709	 -6.831	  3.927	 -6.859	  4.001	-13.035	 51.729
    9.600000000	-14.908	133.325	 -6.878	 -7.534	 -6.909	 -7.426	-13.212	 47.728
    9.700000000	-14.684	125.723	 -6.908	-18.907	 -6.941	-18.844	-13.560	 42.929
    9.800000000	-14.664	120.459	 -6.920	-30.241	 -6.952	-30.145	-14.340	 37.355
    9.900000000	-14.821	116.897	 -6.933	-41.622	 -6.960	-41.505	-15.423	 30.439
   10.000000000	-14.929	105.141	 -6.971	-53.314	 -7.000	-53.177	-16.151	 17.010
   10.100000000	-15.172	101.042	 -6.974	-64.758	 -7.007	-64.651	-17.373	  3.444
   10.200000000	-15.302	 99.197	 -6.984	-76.179	 -7.014	-76.055	-18.446	-12.778
   10.300000000	-15.608	 97.111	 -6.995	-87.554	 -7.032	-87.491	-19.369	-32.610
   10.400000000	-15.798	 95.949	 -7.014	-98.970	 -7.050	-98.863	-19.482	-54.420
   10.500000000	-16.214	 95.500	 -7.035	-110.257	 -7.066	-110.197	-19.136	-72.944
   10.600000000	-16.536	 94.963	 -7.064	-121.555	 -7.096	-121.498	-18.183	-90.049
   10.700000000	-17.147	 94.432	 -7.104	-132.737	 -7.124	-132.758	-17.309	-101.650
   10.800000000	-17.790	 95.857	 -7.138	-144.007	 -7.156	-144.034	-16.497	-111.656
   10.900000000	-18.799	 97.828	 -7.172	-155.218	 -7.195	-155.267	-15.693	-118.773
   11.000000000	-19.716	103.144	 -7.214	-166.433	 -7.233	-166.457	-15.081	-125.167
   11.100000000	-20.829	111.436	 -7.253	-177.626	 -7.274	-177.649	-14.552	-130.307
   11.200000000	-21.213	124.804	 -7.288	171.160	 -7.310	171.123	-14.058	-135.365
   11.300000000	-20.834	139.297	 -7.334	159.935	 -7.352	159.908	-13.615	-140.573
   11.400000000	-19.609	150.651	 -7.375	148.749	 -7.396	148.696	-13.212	-146.016
   11.500000000	-17.922	158.099	 -7.434	137.514	 -7.449	137.496	-12.801	-151.957
   11.600000000	-16.345	161.059	 -7.492	126.355	 -7.510	126.331	-12.414	-158.630
   11.700000000	-14.892	161.947	 -7.558	115.192	 -7.578	115.165	-12.068	-165.988
   11.800000000	-13.568	160.788	 -7.635	104.103	 -7.653	104.050	-11.696	-173.913
   11.900000000	-12.416	158.026	 -7.725	 93.068	 -7.737	 93.003	-11.328	177.521
   12.000000000	-11.477	154.526	 -7.815	 82.089	 -7.841	 82.040	-10.969	168.446
   12.100000000	-10.650	150.499	 -7.924	 71.185	 -7.943	 71.125	-10.581	159.505
   12.200000000	 -9.946	145.755	 -8.030	 60.415	 -8.055	 60.368	-10.230	150.446
   12.300000000	 -9.385	140.243	 -8.157	 49.743	 -8.175	 49.692	 -9.871	141.645
   12.400000000	 -8.938	134.554	 -8.277	 39.169	 -8.291	 39.111	 -9.543	133.167
   12.500000000	 -8.586	128.190	 -8.398	 28.686	 -8.413	 28.598	 -9.248	125.184
   12.600000000	 -8.306	121.491	 -8.516	 18.325	 -8.533	 18.282	 -8.993	117.501
   12.700000000	 -8.146	114.227	 -8.619	  8.040	 -8.641	  7.988	 -8.798	110.517
   12.800000000	 -8.020	106.716	 -8.720	 -2.180	 -8.739	 -2.242	 -8.681	103.931
   12.900000000	 -7.918	 98.731	 -8.814	-12.363	 -8.833	-12.410	 -8.607	 97.646
   13.000000000	 -7.881	 90.490	 -8.891	-22.495	 -8.913	-22.539	 -8.625	 91.823
   13.100000000	 -7.858	 82.125	 -8.970	-32.626	 -8.982	-32.649	 -8.704	 86.196
   13.200000000	 -7.799	 73.849	 -9.028	-42.627	 -9.047	-42.721	 -8.876	 80.730
   13.300000000	 -7.748	 65.210	 -9.087	-52.687	 -9.102	-52.754	 -9.123	 75.449
   13.400000000	 -7.694	 57.096	 -9.137	-62.691	 -9.148	-62.748	 -9.483	 70.386
   13.500000000	 -7.605	 49.134	 -9.186	-72.707	 -9.191	-72.738	 -9.897	 64.885
   13.600000000	 -7.471	 41.594	 -9.224	-82.600	 -9.237	-82.719	-10.429	 59.749
   13.700000000	 -7.377	 34.390	 -9.261	-92.533	 -9.273	-92.644	-11.072	 54.267
   13.800000000	 -7.271	 27.921	 -9.297	-102.431	 -9.308	-102.527	-11.758	 49.131
   13.900000000	 -7.178	 22.386	 -9.324	-112.277	 -9.336	-112.405	-12.553	 43.964
   14.000000000	 -7.080	 16.908	 -9.354	-122.184	 -9.365	-122.269	-13.346	 39.433
   14.100000000	 -7.046	 12.497	 -9.373	-132.061	 -9.378	-132.140	-14.180	 35.365
   14.200000000	 -7.020	  8.452	 -9.381	-141.990	 -9.395	-142.088	-15.024	 32.901
   14.300000000	 -7.023	  5.286	 -9.391	-151.913	 -9.403	-151.992	-15.680	 32.345
   14.400000000	 -7.068	  2.540	 -9.393	-161.887	 -9.407	-161.962	-16.078	 34.036
   14.500000000	 -7.092	  0.580	 -9.396	-171.970	 -9.405	-172.014	-16.187	 36.442
   14.600000000	 -7.201	 -1.500	 -9.385	177.958	 -9.401	177.925	-15.735	 39.840
   14.700000000	 -7.261	 -2.370	 -9.383	167.898	 -9.397	167.812	-15.010	 42.732
   14.800000000	 -7.399	 -3.763	 -9.375	157.757	 -9.390	157.653	-14.077	 43.107
   14.900000000	 -7.476	 -5.248	 -9.374	147.669	 -9.395	147.611	-13.063	 43.060
   15.000000000	 -7.673	 -6.152	 -9.363	137.651	 -9.384	137.567	-12.153	 41.667
   15.100000000	 -7.880	 -8.351	 -9.360	127.691	 -9.375	127.598	-11.409	 39.383
   15.200000000	 -8.250	-10.641	 -9.342	117.797	 -9.356	117.696	-10.846	 36.908
   15.300000000	 -8.684	-13.638	 -9.316	107.900	 -9.330	107.841	-10.381	 34.264
   15.400000000	 -9.260	-17.710	 -9.284	 98.064	 -9.296	 98.000	-10.110	 31.415
   15.500000000	-10.114	-22.828	 -9.230	 88.187	 -9.258	 88.149	 -9.966	 28.615
   15.600000000	-11.093	-29.333	 -9.190	 78.292	 -9.206	 78.244	 -9.945	 26.435
   15.700000000	-12.279	-38.085	 -9.143	 68.332	 -9.160	 68.302	-10.035	 24.068
   15.800000000	-13.575	-50.153	 -9.091	 58.222	 -9.110	 58.213	-10.254	 21.888
   15.900000000	-14.860	-64.639	 -9.049	 48.099	 -9.069	 48.099	-10.548	 19.579
   16.000000000	-15.726	-83.047	 -9.012	 37.880	 -9.035	 37.832	-10.980	 17.684
   16.100000000	-15.846	-102.244	 -8.981	 27.449	 -9.009	 27.493	-11.536	 14.352
   16.200000000	-15.488	-119.403	 -8.963	 17.083	 -8.992	 17.117	-12.149	 11.176
   16.300000000	-14.804	-132.636	 -8.943	  6.629	 -8.971	  6.649	-13.099	  6.819
   16.400000000	-14.136	-142.464	 -8.920	 -3.892	 -8.952	 -3.834	-14.203	  1.241
   16.500000000	-13.519	-150.520	 -8.909	-14.405	 -8.940	-14.371	-15.602	 -4.787
   16.600000000	-13.282	-156.038	 -8.877	-24.965	 -8.903	-24.923	-17.335	-13.570
   16.700000000	-12.936	-160.861	 -8.849	-35.544	 -8.880	-35.487	-19.309	-23.698
   16.800000000	-13.319	-164.661	 -8.795	-46.145	 -8.827	-46.093	-22.526	-40.465
   16.900000000	-13.448	-168.998	 -8.752	-56.773	 -8.782	-56.736	-23.564	-62.908
   17.000000000	-14.437	-171.560	 -8.682	-67.438	 -8.710	-67.379	-25.664	-84.377
   17.100000000	-15.292	-177.688	 -8.619	-78.197	 -8.648	-78.137	-24.791	-107.543
   17.200000000	-17.135	-178.124	 -8.547	-89.064	 -8.574	-89.007	-25.326	-113.141
   17.300000000	-20.215	175.436	 -8.482	-100.005	 -8.507	-99.970	-25.570	-120.847
   17.400000000	-25.089	175.621	 -8.429	-111.074	 -8.457	-111.043	-25.330	-116.556
   17.500000000	-39.988	178.651	 -8.388	-122.241	 -8.416	-122.243	-25.407	-108.866
   17.600000000	-28.988	-20.387	 -8.368	-133.505	 -8.395	-133.498	-24.843	-96.916
   17.700000000	-22.078	-21.836	 -8.372	-144.922	 -8.396	-144.877	-23.942	-85.641
   17.800000000	-18.643	-25.274	 -8.387	-156.351	 -8.414	-156.320	-23.176	-77.157
   17.900000000	-16.472	-27.921	 -8.433	-167.837	 -8.465	-167.814	-22.819	-69.286
   18.000000000	-15.383	-29.690	 -8.476	-179.339	 -8.502	-179.343	-22.469	-59.026
   18.100000000	-14.528	-30.767	 -8.537	169.040	 -8.558	169.031	-22.252	-46.998
   18.200000000	-14.162	-30.770	 -8.596	157.368	 -8.626	157.379	-21.790	-32.172
   18.300000000	-14.051	-31.007	 -8.670	145.607	 -8.696	145.611	-20.324	-16.979
   18.400000000	-14.173	-28.952	 -8.758	133.733	 -8.787	133.773	-18.621	 -6.905
   18.500000000	-14.601	-27.490	 -8.871	121.889	 -8.898	121.895	-16.993	 -1.189
   18.600000000	-15.213	-24.273	 -9.013	110.051	 -9.047	110.064	-15.535	  1.570
   18.700000000	-16.340	-19.645	 -9.203	 98.400	 -9.233	 98.442	-14.444	  2.540
   18.800000000	-17.993	 -9.826	 -9.439	 87.204	 -9.468	 87.232	-13.760	  0.442
   18.900000000	-19.394	  9.484	 -9.675	 76.882	 -9.702	 76.871	-13.659	 -3.483
   19.000000000	-18.798	 35.646	 -9.793	 67.383	 -9.820	 67.384	-14.543	 -6.489
   19.100000000	-16.676	 49.429	 -9.682	 57.739	 -9.718	 57.861	-16.663	 -6.068
   19.200000000	-14.828	 58.302	 -9.455	 47.031	 -9.495	 47.117	-19.664	  7.813
   19.300000000	-13.657	 60.591	 -9.265	 34.920	 -9.308	 35.076	-19.926	 44.549
   19.400000000	-12.405	 63.815	 -9.213	 22.312	 -9.255	 22.389	-17.070	 64.568
   19.500000000	-11.859	 64.993	 -9.251	  9.595	 -9.288	  9.699	-14.115	 68.258
   19.600000000	-11.008	 63.042	 -9.355	 -2.966	 -9.395	 -2.788	-12.171	 67.680
   19.700000000	-10.582	 60.337	 -9.468	-15.286	 -9.503	-15.171	-10.871	 63.299
   19.800000000	-10.419	 54.839	 -9.580	-27.641	 -9.618	-27.518	-10.008	 58.602
   19.900000000	-10.549	 48.394	 -9.673	-40.018	 -9.710	-39.887	 -9.570	 53.048
   20.000000000	-10.742	 39.844	 -9.769	-52.493	 -9.801	-52.323	 -9.337	 46.901
