! Date: Wednesday, June 05, 2013  1:49 PM
! Filename: C:\Data\Mike_Arnold\TGP2105-SM\Over_Temp\TGP2105-SM_EVB01_25C_Phase6.s2p 
! Comments: 
!^VDC(V):5.000
!^VDC(mA):0.092
!%Freq(GHz),S11(dB),S11(ang),S21(dB),S21(ang),S12(dB),S12(ang),S22(dB),S22(ang)
# GHz   S   DB   R   50
    5.000000000	-17.848	 14.755	 -7.444	156.417	 -7.459	156.414	 -6.719	 97.234
    5.100000000	-18.752	-39.511	 -7.345	139.940	 -7.359	139.901	 -6.987	 92.687
    5.200000000	-16.241	-86.076	 -7.295	123.749	 -7.311	123.694	 -7.263	 88.618
    5.300000000	-13.442	-115.414	 -7.297	107.958	 -7.312	107.940	 -7.449	 85.053
    5.400000000	-11.330	-136.270	 -7.333	 92.674	 -7.344	 92.632	 -7.607	 81.077
    5.500000000	 -9.773	-153.067	 -7.379	 77.889	 -7.392	 77.857	 -7.753	 76.717
    5.600000000	 -8.720	-167.908	 -7.418	 63.632	 -7.432	 63.578	 -7.972	 71.915
    5.700000000	 -8.034	179.035	 -7.429	 49.727	 -7.446	 49.676	 -8.249	 66.181
    5.800000000	 -7.647	167.576	 -7.416	 36.166	 -7.428	 36.108	 -8.679	 59.796
    5.900000000	 -7.417	156.978	 -7.367	 22.777	 -7.384	 22.730	 -9.334	 52.562
    6.000000000	 -7.412	147.048	 -7.292	  9.415	 -7.308	  9.408	-10.239	 44.725
    6.100000000	 -7.626	138.033	 -7.211	 -3.830	 -7.222	 -3.898	-11.517	 36.042
    6.200000000	 -7.996	130.004	 -7.113	-17.029	 -7.129	-17.047	-13.335	 27.235
    6.300000000	 -8.520	122.525	 -6.980	-30.029	 -6.995	-30.097	-15.669	 19.275
    6.400000000	 -9.292	116.816	 -6.778	-43.493	 -6.798	-43.526	-18.583	 10.615
    6.500000000	-10.022	113.255	 -6.652	-57.513	 -6.670	-57.568	-23.147	 -1.611
    6.600000000	-10.547	110.801	 -6.611	-71.385	 -6.625	-71.427	-33.954	-24.827
    6.700000000	-11.001	108.057	 -6.606	-85.089	 -6.617	-85.131	-31.345	167.967
    6.800000000	-11.357	105.404	 -6.619	-98.684	 -6.644	-98.621	-23.590	149.518
    6.900000000	-11.569	102.515	 -6.666	-111.946	 -6.687	-111.863	-20.114	136.180
    7.000000000	-11.730	 98.263	 -6.719	-124.974	 -6.746	-124.892	-18.222	122.213
    7.100000000	-11.872	 93.124	 -6.776	-137.843	 -6.801	-137.742	-17.050	108.448
    7.200000000	-11.972	 87.143	 -6.832	-150.499	 -6.858	-150.430	-16.255	 94.659
    7.300000000	-12.053	 80.161	 -6.889	-163.090	 -6.915	-162.982	-15.610	 80.553
    7.400000000	-12.122	 72.249	 -6.942	-175.497	 -6.967	-175.412	-15.092	 66.055
    7.500000000	-12.187	 63.773	 -6.990	172.195	 -7.016	172.259	-14.631	 52.016
    7.600000000	-12.143	 54.661	 -7.041	160.027	 -7.063	160.077	-14.138	 38.796
    7.700000000	-12.088	 45.197	 -7.080	147.921	 -7.107	148.019	-13.619	 26.303
    7.800000000	-12.002	 35.687	 -7.109	135.965	 -7.140	136.034	-13.182	 14.684
    7.900000000	-11.939	 26.384	 -7.136	124.113	 -7.166	124.178	-12.807	  4.443
    8.000000000	-11.836	 17.056	 -7.156	112.356	 -7.180	112.416	-12.501	 -4.718
    8.100000000	-11.873	  8.097	 -7.149	100.613	 -7.180	100.732	-12.368	-13.499
    8.200000000	-11.982	 -0.674	 -7.140	 88.913	 -7.165	 89.007	-12.458	-21.531
    8.300000000	-12.209	 -8.946	 -7.106	 77.247	 -7.137	 77.352	-12.747	-28.757
    8.400000000	-12.591	-17.000	 -7.065	 65.531	 -7.097	 65.635	-13.265	-35.907
    8.500000000	-13.255	-24.677	 -7.016	 53.700	 -7.048	 53.778	-14.115	-43.104
    8.600000000	-14.104	-31.677	 -6.963	 41.763	 -6.993	 41.816	-15.384	-49.411
    8.700000000	-15.179	-38.072	 -6.919	 29.710	 -6.948	 29.785	-17.092	-56.055
    8.800000000	-16.498	-44.398	 -6.885	 17.485	 -6.910	 17.612	-19.391	-62.830
    8.900000000	-18.114	-49.975	 -6.865	  5.289	 -6.896	  5.377	-22.850	-70.607
    9.000000000	-19.803	-55.191	 -6.859	 -6.947	 -6.889	 -6.866	-27.551	-82.675
    9.100000000	-21.545	-62.059	 -6.872	-19.187	 -6.904	-19.091	-35.322	-122.279
    9.200000000	-23.186	-73.373	 -6.895	-31.410	 -6.927	-31.325	-31.452	157.553
    9.300000000	-24.447	-91.348	 -6.932	-43.621	 -6.964	-43.536	-26.286	139.443
    9.400000000	-24.375	-115.179	 -6.974	-55.793	 -7.010	-55.706	-22.646	134.843
    9.500000000	-22.613	-139.485	 -7.037	-67.908	 -7.069	-67.832	-19.949	135.040
    9.600000000	-20.455	-158.452	 -7.111	-79.994	 -7.141	-79.865	-17.801	134.218
    9.700000000	-18.276	-171.789	 -7.197	-91.929	 -7.229	-91.836	-15.936	132.489
    9.800000000	-16.333	177.028	 -7.294	-103.767	 -7.332	-103.652	-14.371	130.977
    9.900000000	-14.854	167.374	 -7.407	-115.401	 -7.440	-115.337	-13.134	128.540
   10.000000000	-14.784	152.767	 -7.472	-127.325	 -7.508	-127.222	-12.727	126.477
   10.100000000	-14.060	142.940	 -7.562	-138.775	 -7.598	-138.661	-12.087	122.989
   10.200000000	-13.354	134.305	 -7.663	-150.122	 -7.695	-149.975	-11.616	118.472
   10.300000000	-13.063	126.092	 -7.750	-161.289	 -7.783	-161.169	-11.263	114.186
   10.400000000	-12.879	118.523	 -7.826	-172.350	 -7.862	-172.222	-11.102	109.573
   10.500000000	-12.990	112.041	 -7.894	176.701	 -7.926	176.788	-10.990	104.173
   10.600000000	-13.257	105.337	 -7.950	165.806	 -7.987	165.941	-11.074	 99.459
   10.700000000	-13.838	 99.291	 -8.010	155.051	 -8.027	155.026	-11.203	 93.898
   10.800000000	-14.607	 94.288	 -8.049	144.204	 -8.070	144.177	-11.378	 88.521
   10.900000000	-15.818	 89.378	 -8.080	133.363	 -8.102	133.309	-11.615	 82.715
   11.000000000	-17.330	 86.258	 -8.108	122.491	 -8.130	122.458	-11.796	 76.907
   11.100000000	-19.588	 84.307	 -8.130	111.597	 -8.148	111.558	-11.912	 70.778
   11.200000000	-22.657	 88.748	 -8.152	100.704	 -8.178	100.646	-12.005	 64.760
   11.300000000	-26.894	108.915	 -8.181	 89.789	 -8.203	 89.761	-11.974	 58.872
   11.400000000	-27.611	157.586	 -8.217	 78.894	 -8.235	 78.872	-11.858	 52.944
   11.500000000	-22.995	-175.455	 -8.258	 67.993	 -8.272	 67.972	-11.685	 47.090
   11.600000000	-19.365	-169.850	 -8.298	 57.194	 -8.317	 57.169	-11.431	 41.414
   11.700000000	-16.665	-170.154	 -8.355	 46.399	 -8.372	 46.405	-11.131	 35.779
   11.800000000	-14.605	-173.384	 -8.416	 35.769	 -8.429	 35.725	-10.844	 30.345
   11.900000000	-13.066	-178.185	 -8.474	 25.222	 -8.496	 25.167	-10.563	 25.041
   12.000000000	-11.900	176.905	 -8.540	 14.785	 -8.560	 14.734	-10.314	 19.955
   12.100000000	-10.957	171.646	 -8.605	  4.452	 -8.623	  4.327	-10.157	 14.667
   12.200000000	-10.223	166.195	 -8.664	 -5.788	 -8.684	 -5.872	-10.030	  9.596
   12.300000000	 -9.708	160.322	 -8.720	-15.939	 -8.735	-16.039	-10.006	  4.624
   12.400000000	 -9.324	154.782	 -8.761	-26.063	 -8.782	-26.125	-10.044	 -0.386
   12.500000000	 -9.071	148.905	 -8.796	-36.168	 -8.813	-36.206	-10.199	 -5.384
   12.600000000	 -8.895	142.993	 -8.819	-46.186	 -8.838	-46.281	-10.402	-10.252
   12.700000000	 -8.860	136.986	 -8.826	-56.296	 -8.847	-56.366	-10.732	-15.267
   12.800000000	 -8.844	130.835	 -8.835	-66.424	 -8.851	-66.527	-11.131	-20.366
   12.900000000	 -8.879	124.314	 -8.831	-76.643	 -8.846	-76.667	-11.595	-25.342
   13.000000000	 -8.957	117.666	 -8.822	-86.869	 -8.839	-86.960	-12.161	-30.480
   13.100000000	 -9.054	110.921	 -8.809	-97.158	 -8.828	-97.253	-12.778	-35.468
   13.200000000	 -9.080	104.082	 -8.804	-107.518	 -8.816	-107.586	-13.413	-40.471
   13.300000000	 -9.130	 96.802	 -8.790	-117.896	 -8.799	-117.946	-14.086	-45.365
   13.400000000	 -9.120	 89.855	 -8.781	-128.324	 -8.796	-128.395	-14.832	-50.277
   13.500000000	 -9.039	 82.749	 -8.786	-138.715	 -8.800	-138.787	-15.532	-53.809
   13.600000000	 -8.866	 75.680	 -8.793	-149.190	 -8.807	-149.260	-16.292	-57.061
   13.700000000	 -8.705	 68.907	 -8.808	-159.621	 -8.826	-159.695	-16.934	-58.405
   13.800000000	 -8.445	 62.638	 -8.839	-170.048	 -8.852	-170.131	-17.614	-57.961
   13.900000000	 -8.128	 57.026	 -8.877	179.515	 -8.882	179.404	-18.008	-55.283
   14.000000000	 -7.783	 51.346	 -8.924	169.085	 -8.943	169.023	-18.158	-49.772
   14.100000000	 -7.417	 46.561	 -8.995	158.744	 -9.005	158.640	-17.719	-43.629
   14.200000000	 -7.034	 41.832	 -9.066	148.471	 -9.082	148.367	-16.940	-38.784
   14.300000000	 -6.662	 37.639	 -9.155	138.271	 -9.165	138.195	-15.930	-35.184
   14.400000000	 -6.340	 33.607	 -9.243	128.204	 -9.257	128.129	-14.868	-33.501
   14.500000000	 -6.003	 29.903	 -9.335	118.278	 -9.346	118.205	-13.847	-34.410
   14.600000000	 -5.810	 26.190	 -9.403	108.553	 -9.417	108.460	-13.032	-35.967
   14.700000000	 -5.599	 23.151	 -9.467	 98.949	 -9.487	 98.898	-12.434	-38.995
   14.800000000	 -5.550	 20.032	 -9.502	 89.508	 -9.516	 89.447	-11.947	-42.742
   14.900000000	 -5.527	 16.776	 -9.512	 80.193	 -9.528	 80.127	-11.781	-46.751
   15.000000000	 -5.626	 14.522	 -9.482	 70.955	 -9.501	 70.876	-11.832	-51.744
   15.100000000	 -5.816	 11.663	 -9.424	 61.765	 -9.438	 61.691	-12.071	-57.246
   15.200000000	 -6.147	  9.338	 -9.329	 52.482	 -9.350	 52.398	-12.568	-63.731
   15.300000000	 -6.554	  6.984	 -9.220	 43.157	 -9.237	 43.070	-13.350	-70.643
   15.400000000	 -7.077	  4.396	 -9.098	 33.674	 -9.116	 33.580	-14.339	-79.056
   15.500000000	 -7.787	  1.982	 -8.960	 24.053	 -8.979	 24.012	-15.549	-88.990
   15.600000000	 -8.583	 -0.807	 -8.837	 14.294	 -8.854	 14.262	-17.073	-101.991
   15.700000000	 -9.539	 -4.280	 -8.713	  4.456	 -8.738	  4.418	-18.597	-118.182
   15.800000000	-10.680	 -8.891	 -8.606	 -5.587	 -8.633	 -5.636	-19.648	-138.792
   15.900000000	-11.951	-14.186	 -8.526	-15.679	 -8.545	-15.747	-19.923	-160.759
   16.000000000	-13.361	-22.039	 -8.460	-25.919	 -8.474	-25.940	-19.140	177.970
   16.100000000	-14.834	-33.515	 -8.407	-36.217	 -8.434	-36.191	-18.039	164.283
   16.200000000	-16.233	-47.760	 -8.380	-46.556	 -8.405	-46.504	-16.948	152.094
   16.300000000	-17.108	-65.571	 -8.359	-56.859	 -8.393	-56.840	-15.875	144.312
   16.400000000	-17.267	-83.994	 -8.352	-67.160	 -8.377	-67.134	-15.126	137.696
   16.500000000	-16.913	-101.324	 -8.346	-77.437	 -8.377	-77.400	-14.512	131.243
   16.600000000	-16.432	-113.099	 -8.328	-87.688	 -8.359	-87.634	-14.227	125.951
   16.700000000	-15.706	-123.993	 -8.310	-97.942	 -8.342	-97.884	-14.189	120.005
   16.800000000	-15.752	-129.339	 -8.276	-108.120	 -8.308	-108.070	-14.228	116.433
   16.900000000	-15.620	-135.799	 -8.232	-118.409	 -8.262	-118.347	-15.222	110.503
   17.000000000	-16.143	-136.543	 -8.176	-128.683	 -8.205	-128.651	-15.988	103.643
   17.100000000	-16.819	-141.159	 -8.118	-139.059	 -8.149	-138.994	-17.834	 99.085
   17.200000000	-17.519	-137.175	 -8.068	-149.606	 -8.097	-149.549	-19.996	 86.566
   17.300000000	-19.394	-134.041	 -8.017	-160.099	 -8.045	-160.076	-22.721	 76.064
   17.400000000	-20.737	-125.119	 -7.988	-170.756	 -8.018	-170.774	-26.813	 51.396
   17.500000000	-22.777	-111.619	 -7.967	178.489	 -7.996	178.527	-28.676	 10.550
   17.600000000	-24.117	-89.247	 -7.966	167.655	 -7.994	167.709	-26.440	-25.206
   17.700000000	-23.877	-60.657	 -7.980	156.733	 -8.010	156.749	-23.633	-38.861
   17.800000000	-21.764	-38.575	 -8.017	145.756	 -8.040	145.760	-21.685	-43.245
   17.900000000	-19.066	-25.553	 -8.067	134.606	 -8.098	134.648	-20.212	-42.758
   18.000000000	-17.048	-18.177	 -8.135	123.490	 -8.163	123.486	-18.669	-40.639
   18.100000000	-15.047	-15.416	 -8.222	112.200	 -8.247	112.268	-17.443	-38.648
   18.200000000	-13.644	-14.461	 -8.316	100.964	 -8.352	101.013	-16.452	-37.109
   18.300000000	-12.642	-15.867	 -8.429	 89.768	 -8.453	 89.765	-15.569	-35.562
   18.400000000	-11.982	-16.924	 -8.551	 78.488	 -8.576	 78.493	-15.045	-35.745
   18.500000000	-11.807	-19.175	 -8.680	 67.312	 -8.707	 67.307	-14.935	-36.565
   18.600000000	-11.924	-20.969	 -8.827	 56.163	 -8.859	 56.176	-15.265	-36.924
   18.700000000	-12.589	-22.516	 -8.999	 45.216	 -9.025	 45.208	-16.336	-35.659
   18.800000000	-13.842	-22.685	 -9.200	 34.603	 -9.232	 34.588	-18.134	-30.935
   18.900000000	-15.795	-19.692	 -9.400	 24.645	 -9.426	 24.655	-20.416	-12.685
   19.000000000	-18.505	 -6.852	 -9.497	 15.370	 -9.523	 15.419	-19.487	 22.304
   19.100000000	-19.894	 19.008	 -9.403	  6.038	 -9.437	  6.197	-15.879	 34.764
   19.200000000	-18.646	 47.896	 -9.209	 -4.198	 -9.246	 -4.081	-13.418	 32.561
   19.300000000	-16.659	 58.838	 -9.047	-15.399	 -9.086	-15.310	-11.962	 28.484
   19.400000000	-14.727	 65.752	 -8.962	-27.158	 -9.003	-27.078	-11.304	 21.687
   19.500000000	-13.957	 69.004	 -8.941	-38.986	 -8.974	-38.936	-10.955	 15.082
   19.600000000	-12.937	 68.648	 -8.959	-50.892	 -9.000	-50.801	-11.088	  8.596
   19.700000000	-12.474	 68.561	 -8.982	-62.771	 -9.019	-62.686	-11.366	  0.576
   19.800000000	-12.297	 66.039	 -9.001	-74.859	 -9.036	-74.684	-11.996	 -7.667
   19.900000000	-12.380	 63.565	 -9.024	-87.117	 -9.060	-87.010	-12.838	-17.893
   20.000000000	-12.475	 59.155	 -9.067	-99.544	 -9.110	-99.434	-13.789	-28.944
