! Date: Wednesday, June 05, 2013  1:50 PM
! Filename: C:\Data\Mike_Arnold\TGP2105-SM\Over_Temp\TGP2105-SM_EVB01_25C_Phase27.s2p 
! Comments: 
!^VDC(V):5.000
!^VDC(mA):0.080
!%Freq(GHz),S11(dB),S11(ang),S21(dB),S21(ang),S12(dB),S12(ang),S22(dB),S22(ang)
# GHz   S   DB   R   50
    5.000000000	-12.691	124.152	 -6.744	-81.649	 -6.762	-81.700	 -7.354	-163.825
    5.100000000	-11.851	122.527	 -6.749	-98.681	 -6.760	-98.722	 -6.966	-172.379
    5.200000000	-11.332	118.173	 -6.748	-114.878	 -6.761	-114.910	 -6.774	178.625
    5.300000000	-11.185	112.184	 -6.732	-130.517	 -6.748	-130.529	 -6.737	169.339
    5.400000000	-11.449	105.790	 -6.686	-145.713	 -6.700	-145.751	 -6.895	160.459
    5.500000000	-12.126	100.554	 -6.617	-160.645	 -6.630	-160.619	 -7.221	152.222
    5.600000000	-13.064	 96.970	 -6.545	-175.374	 -6.554	-175.394	 -7.651	145.189
    5.700000000	-14.284	 96.088	 -6.472	169.980	 -6.492	169.960	 -8.207	139.086
    5.800000000	-15.649	100.154	 -6.431	155.466	 -6.445	155.410	 -8.797	134.689
    5.900000000	-16.270	110.307	 -6.417	141.148	 -6.430	141.115	 -9.365	131.898
    6.000000000	-15.687	119.805	 -6.446	127.085	 -6.462	127.033	 -9.753	129.786
    6.100000000	-14.513	124.009	 -6.518	113.534	 -6.531	113.499	 -9.996	127.649
    6.200000000	-13.271	122.884	 -6.598	100.760	 -6.606	100.710	-10.157	124.775
    6.300000000	-12.482	117.697	 -6.570	 88.895	 -6.588	 88.846	-10.477	121.030
    6.400000000	-12.303	113.176	 -6.357	 76.503	 -6.372	 76.460	-10.875	118.066
    6.500000000	-11.983	109.685	 -6.188	 63.222	 -6.207	 63.180	-11.020	114.980
    6.600000000	-11.574	104.546	 -6.114	 49.998	 -6.132	 49.928	-11.094	109.342
    6.700000000	-11.408	 97.294	 -6.067	 37.015	 -6.081	 36.982	-11.370	101.357
    6.800000000	-11.462	 89.271	 -6.000	 24.108	 -6.025	 24.159	-11.883	 91.614
    6.900000000	-11.702	 81.158	 -5.945	 11.372	 -5.967	 11.419	-12.619	 80.317
    7.000000000	-12.074	 72.290	 -5.889	 -1.366	 -5.915	 -1.299	-13.508	 66.742
    7.100000000	-12.594	 63.459	 -5.841	-14.102	 -5.866	-14.028	-14.538	 50.696
    7.200000000	-13.176	 54.989	 -5.812	-26.786	 -5.832	-26.755	-15.545	 32.126
    7.300000000	-13.730	 46.642	 -5.789	-39.446	 -5.816	-39.390	-16.303	 11.717
    7.400000000	-14.233	 38.508	 -5.789	-52.035	 -5.808	-51.959	-16.596	 -9.593
    7.500000000	-14.696	 30.637	 -5.793	-64.532	 -5.819	-64.474	-16.538	-30.385
    7.600000000	-14.972	 23.318	 -5.817	-76.892	 -5.843	-76.848	-16.284	-48.472
    7.700000000	-15.149	 16.210	 -5.848	-89.112	 -5.868	-89.058	-15.989	-64.196
    7.800000000	-15.269	  9.546	 -5.871	-101.203	 -5.895	-101.197	-15.819	-78.667
    7.900000000	-15.414	  3.469	 -5.896	-113.238	 -5.920	-113.208	-15.927	-92.173
    8.000000000	-15.494	 -2.144	 -5.927	-125.195	 -5.947	-125.125	-16.392	-105.347
    8.100000000	-15.688	 -7.075	 -5.947	-137.069	 -5.975	-136.986	-17.058	-119.374
    8.200000000	-15.918	-11.305	 -5.977	-148.899	 -6.003	-148.839	-18.025	-135.865
    8.300000000	-16.213	-14.293	 -6.008	-160.686	 -6.032	-160.615	-19.235	-156.165
    8.400000000	-16.480	-16.997	 -6.041	-172.441	 -6.065	-172.392	-20.221	179.689
    8.500000000	-16.882	-19.343	 -6.074	175.813	 -6.101	175.904	-20.407	152.876
    8.600000000	-17.225	-21.527	 -6.120	164.170	 -6.146	164.225	-19.646	126.842
    8.700000000	-17.618	-24.437	 -6.161	152.505	 -6.187	152.586	-18.526	106.773
    8.800000000	-18.149	-29.241	 -6.203	140.945	 -6.231	140.988	-17.523	 91.713
    8.900000000	-18.991	-35.765	 -6.243	129.368	 -6.268	129.444	-16.644	 80.724
    9.000000000	-20.105	-45.148	 -6.274	117.826	 -6.303	117.909	-16.240	 71.851
    9.100000000	-21.505	-59.181	 -6.304	106.240	 -6.329	106.313	-16.041	 65.430
    9.200000000	-23.190	-82.096	 -6.334	 94.655	 -6.363	 94.736	-16.175	 62.264
    9.300000000	-24.103	-114.115	 -6.360	 83.052	 -6.387	 83.127	-16.459	 59.743
    9.400000000	-22.988	-146.967	 -6.389	 71.411	 -6.422	 71.481	-16.815	 60.008
    9.500000000	-20.683	-171.569	 -6.436	 59.777	 -6.462	 59.854	-17.290	 61.753
    9.600000000	-18.698	171.425	 -6.481	 48.237	 -6.511	 48.302	-17.651	 63.830
    9.700000000	-17.129	160.021	 -6.530	 36.751	 -6.562	 36.830	-17.867	 65.622
    9.800000000	-15.984	151.177	 -6.579	 25.355	 -6.610	 25.438	-18.369	 67.103
    9.900000000	-15.229	144.565	 -6.625	 13.978	 -6.656	 14.052	-19.104	 66.957
   10.000000000	-15.312	132.436	 -6.670	  2.364	 -6.696	  2.428	-20.599	 59.357
   10.100000000	-15.068	126.606	 -6.707	 -9.025	 -6.742	 -8.911	-22.465	 52.051
   10.200000000	-14.716	123.205	 -6.749	-20.330	 -6.785	-20.256	-24.838	 38.735
   10.300000000	-14.617	120.425	 -6.788	-31.633	 -6.821	-31.539	-28.511	 13.481
   10.400000000	-14.363	118.791	 -6.834	-42.905	 -6.862	-42.820	-29.877	-40.743
   10.500000000	-14.184	118.152	 -6.874	-54.157	 -6.910	-54.070	-26.565	-80.812
   10.600000000	-13.867	117.344	 -6.932	-65.353	 -6.963	-65.296	-22.512	-103.295
   10.700000000	-13.574	116.180	 -7.002	-76.448	 -7.022	-76.519	-19.841	-114.993
   10.800000000	-13.200	114.967	 -7.067	-87.621	 -7.087	-87.659	-17.862	-125.100
   10.900000000	-12.975	112.818	 -7.136	-98.709	 -7.155	-98.765	-16.387	-132.645
   11.000000000	-12.714	110.345	 -7.210	-109.774	 -7.226	-109.829	-15.359	-140.321
   11.100000000	-12.665	107.142	 -7.273	-120.803	 -7.296	-120.848	-14.684	-147.296
   11.200000000	-12.644	104.093	 -7.340	-131.784	 -7.359	-131.842	-14.185	-154.191
   11.300000000	-12.799	100.681	 -7.399	-142.762	 -7.416	-142.817	-13.899	-161.168
   11.400000000	-13.063	 96.953	 -7.451	-153.699	 -7.475	-153.739	-13.761	-168.019
   11.500000000	-13.482	 93.778	 -7.502	-164.686	 -7.517	-164.679	-13.694	-174.774
   11.600000000	-14.043	 90.129	 -7.547	-175.625	 -7.562	-175.638	-13.690	178.321
   11.700000000	-14.842	 86.921	 -7.581	173.433	 -7.603	173.390	-13.729	171.369
   11.800000000	-15.873	 84.419	 -7.612	162.473	 -7.636	162.431	-13.709	164.635
   11.900000000	-17.074	 82.767	 -7.655	151.487	 -7.667	151.480	-13.637	157.884
   12.000000000	-18.719	 82.324	 -7.689	140.486	 -7.707	140.454	-13.458	151.177
   12.100000000	-20.824	 85.850	 -7.726	129.488	 -7.740	129.395	-13.191	145.142
   12.200000000	-23.115	 97.052	 -7.768	118.459	 -7.780	118.380	-12.859	139.034
   12.300000000	-24.450	117.201	 -7.813	107.414	 -7.823	107.362	-12.436	133.136
   12.400000000	-23.559	141.055	 -7.868	 96.375	 -7.881	 96.311	-11.986	127.568
   12.500000000	-21.280	153.049	 -7.921	 85.380	 -7.940	 85.279	-11.505	122.258
   12.600000000	-18.970	156.153	 -7.988	 74.314	 -8.005	 74.285	-11.030	116.952
   12.700000000	-17.233	154.225	 -8.059	 63.353	 -8.074	 63.264	-10.576	111.968
   12.800000000	-15.732	149.101	 -8.133	 52.375	 -8.147	 52.319	-10.194	107.113
   12.900000000	-14.555	141.750	 -8.205	 41.450	 -8.225	 41.377	 -9.844	102.237
   13.000000000	-13.625	133.546	 -8.280	 30.572	 -8.302	 30.501	 -9.563	 97.588
   13.100000000	-12.847	124.586	 -8.363	 19.728	 -8.376	 19.650	 -9.345	 92.884
   13.200000000	-12.100	114.935	 -8.447	  8.947	 -8.454	  8.863	 -9.193	 88.149
   13.300000000	-11.490	104.643	 -8.519	 -1.751	 -8.536	 -1.836	 -9.106	 83.379
   13.400000000	-10.892	 94.595	 -8.595	-12.372	 -8.608	-12.467	 -9.090	 78.550
   13.500000000	-10.299	 84.435	 -8.679	-22.990	 -8.699	-23.056	 -9.116	 73.109
   13.600000000	 -9.690	 74.474	 -8.770	-33.550	 -8.780	-33.605	 -9.215	 67.626
   13.700000000	 -9.183	 65.093	 -8.861	-43.974	 -8.878	-44.082	 -9.372	 61.488
   13.800000000	 -8.665	 56.347	 -8.966	-54.337	 -8.977	-54.466	 -9.556	 55.144
   13.900000000	 -8.179	 48.585	 -9.064	-64.594	 -9.080	-64.669	 -9.796	 48.256
   14.000000000	 -7.749	 40.967	 -9.174	-74.761	 -9.186	-74.827	-10.016	 41.157
   14.100000000	 -7.405	 34.577	 -9.274	-84.759	 -9.288	-84.865	-10.294	 33.696
   14.200000000	 -7.116	 28.521	 -9.366	-94.717	 -9.382	-94.793	-10.607	 26.409
   14.300000000	 -6.903	 23.424	 -9.447	-104.544	 -9.461	-104.611	-10.926	 19.551
   14.400000000	 -6.780	 18.859	 -9.514	-114.245	 -9.528	-114.359	-11.280	 13.344
   14.500000000	 -6.683	 15.126	 -9.563	-123.973	 -9.579	-124.086	-11.736	  7.296
   14.600000000	 -6.748	 11.571	 -9.581	-133.680	 -9.591	-133.759	-12.220	  3.016
   14.700000000	 -6.803	  9.431	 -9.580	-143.364	 -9.596	-143.450	-12.869	 -0.044
   14.800000000	 -6.999	  7.379	 -9.545	-153.138	 -9.566	-153.275	-13.486	 -1.767
   14.900000000	 -7.168	  5.673	 -9.514	-163.003	 -9.531	-163.072	-14.209	 -0.600
   15.000000000	 -7.434	  5.351	 -9.458	-172.900	 -9.473	-172.989	-14.879	  2.717
   15.100000000	 -7.696	  4.444	 -9.397	177.123	 -9.410	177.016	-15.298	  7.878
   15.200000000	 -8.027	  4.213	 -9.337	167.074	 -9.350	167.000	-15.467	 14.095
   15.300000000	 -8.341	  3.785	 -9.278	156.971	 -9.290	156.897	-15.218	 20.529
   15.400000000	 -8.682	  2.732	 -9.215	146.888	 -9.237	146.762	-14.831	 25.242
   15.500000000	 -9.167	  1.358	 -9.157	136.709	 -9.183	136.691	-14.354	 28.256
   15.600000000	 -9.672	 -1.032	 -9.114	126.549	 -9.136	126.490	-13.940	 30.767
   15.700000000	-10.311	 -4.801	 -9.068	116.317	 -9.086	116.292	-13.620	 31.884
   15.800000000	-11.111	-10.343	 -9.021	106.024	 -9.047	105.965	-13.498	 32.481
   15.900000000	-11.996	-16.945	 -8.989	 95.676	 -9.013	 95.617	-13.448	 32.529
   16.000000000	-12.952	-26.457	 -8.960	 85.199	 -8.981	 85.170	-13.562	 33.227
   16.100000000	-13.829	-38.793	 -8.935	 74.520	 -8.961	 74.555	-13.840	 32.295
   16.200000000	-14.478	-52.709	 -8.925	 63.891	 -8.952	 63.916	-14.075	 31.418
   16.300000000	-14.670	-67.614	 -8.930	 53.146	 -8.956	 53.141	-14.645	 29.781
   16.400000000	-14.389	-81.420	 -8.931	 42.336	 -8.962	 42.372	-15.334	 26.554
   16.500000000	-13.871	-93.949	 -8.957	 31.544	 -8.983	 31.568	-16.228	 22.956
   16.600000000	-13.245	-102.484	 -8.970	 20.796	 -8.997	 20.812	-17.567	 16.600
   16.700000000	-12.473	-111.039	 -8.991	  9.980	 -9.025	 10.019	-19.087	  8.578
   16.800000000	-12.086	-115.209	 -9.006	 -0.683	 -9.035	 -0.635	-22.157	 -2.224
   16.900000000	-11.563	-121.316	 -9.026	-11.374	 -9.053	-11.344	-23.926	-28.502
   17.000000000	-11.359	-123.865	 -9.028	-21.862	 -9.058	-21.819	-26.313	-54.651
   17.100000000	-11.328	-129.443	 -9.024	-32.390	 -9.054	-32.380	-25.045	-92.782
   17.200000000	-11.281	-131.602	 -9.017	-42.859	 -9.044	-42.839	-24.004	-109.036
   17.300000000	-11.898	-135.097	 -8.978	-53.294	 -9.012	-53.260	-23.067	-126.374
   17.400000000	-12.462	-137.713	 -8.941	-63.779	 -8.969	-63.755	-22.343	-133.918
   17.500000000	-13.569	-140.886	 -8.892	-74.364	 -8.913	-74.336	-22.629	-140.679
   17.600000000	-15.079	-143.779	 -8.833	-85.114	 -8.861	-85.105	-23.689	-142.823
   17.700000000	-17.318	-146.016	 -8.775	-96.104	 -8.798	-96.090	-25.789	-141.170
   17.800000000	-20.550	-146.297	 -8.735	-107.252	 -8.757	-107.198	-29.292	-134.688
   17.900000000	-26.059	-139.545	 -8.713	-118.599	 -8.736	-118.549	-34.911	-107.705
   18.000000000	-37.761	-92.660	 -8.697	-130.075	 -8.728	-130.036	-34.433	-33.726
   18.100000000	-27.846	  0.126	 -8.714	-141.736	 -8.744	-141.741	-28.786	 -2.890
   18.200000000	-22.169	  9.180	 -8.752	-153.414	 -8.784	-153.448	-24.938	 11.108
   18.300000000	-19.148	 10.548	 -8.817	-165.155	 -8.845	-165.130	-21.462	 19.506
   18.400000000	-16.966	 12.820	 -8.916	-176.939	 -8.934	-176.944	-18.861	 24.744
   18.500000000	-15.631	 13.661	 -9.035	171.391	 -9.059	171.414	-16.651	 27.572
   18.600000000	-14.537	 14.591	 -9.186	159.926	 -9.209	159.903	-14.660	 28.587
   18.700000000	-13.953	 15.950	 -9.374	148.788	 -9.400	148.797	-12.997	 28.449
   18.800000000	-13.673	 18.619	 -9.573	138.267	 -9.605	138.245	-11.698	 25.821
   18.900000000	-13.520	 22.813	 -9.736	128.530	 -9.762	128.507	-10.806	 21.898
   19.000000000	-13.158	 28.716	 -9.733	119.472	 -9.766	119.500	-10.352	 18.108
   19.100000000	-12.510	 31.552	 -9.518	109.953	 -9.551	110.059	-10.423	 14.000
   19.200000000	-12.162	 33.529	 -9.197	 99.288	 -9.232	 99.413	-10.953	 10.551
   19.300000000	-12.338	 31.404	 -8.899	 87.401	 -8.934	 87.485	-11.877	 11.068
   19.400000000	-12.941	 33.179	 -8.695	 74.718	 -8.731	 74.838	-13.121	 13.241
   19.500000000	-14.404	 35.701	 -8.574	 61.646	 -8.610	 61.714	-14.055	 20.840
   19.600000000	-15.196	 42.927	 -8.524	 48.337	 -8.565	 48.447	-14.576	 32.351
   19.700000000	-15.732	 53.225	 -8.532	 34.881	 -8.567	 34.982	-14.098	 41.881
   19.800000000	-15.556	 59.742	 -8.583	 21.322	 -8.614	 21.406	-13.155	 48.345
   19.900000000	-15.228	 63.062	 -8.665	  7.688	 -8.696	  7.751	-12.229	 50.072
   20.000000000	-14.756	 60.757	 -8.772	 -5.971	 -8.813	 -5.921	-11.392	 48.545
