! Date: Wednesday, June 05, 2013  1:51 PM
! Filename: C:\Data\Mike_Arnold\TGP2105-SM\Over_Temp\TGP2105-SM_EVB01_25C_Phase39.s2p 
! Comments: 
!^VDC(V):5.000
!^VDC(mA):0.094
!%Freq(GHz),S11(dB),S11(ang),S21(dB),S21(ang),S12(dB),S12(ang),S22(dB),S22(ang)
# GHz   S   DB   R   50
    5.000000000	-18.639	 25.752	 -8.033	 -4.011	 -8.046	 -4.035	 -7.394	 97.348
    5.100000000	-19.827	-27.172	 -7.960	-21.289	 -7.973	-21.363	 -7.492	 92.640
    5.200000000	-17.269	-76.177	 -7.932	-38.249	 -7.952	-38.259	 -7.665	 88.300
    5.300000000	-14.112	-106.543	 -7.962	-54.644	 -7.975	-54.682	 -7.798	 84.563
    5.400000000	-11.698	-128.017	 -8.022	-70.454	 -8.034	-70.504	 -7.941	 80.575
    5.500000000	 -9.918	-145.266	 -8.076	-85.544	 -8.094	-85.587	 -8.089	 76.532
    5.600000000	 -8.707	-160.304	 -8.072	-100.137	 -8.087	-100.183	 -8.260	 72.698
    5.700000000	 -7.855	-173.153	 -8.026	-114.686	 -8.042	-114.749	 -8.331	 68.131
    5.800000000	 -7.238	175.430	 -8.002	-129.043	 -8.019	-129.117	 -8.439	 62.053
    5.900000000	 -6.782	164.564	 -7.972	-143.017	 -7.993	-143.077	 -8.738	 54.540
    6.000000000	 -6.549	154.180	 -7.903	-156.723	 -7.927	-156.748	 -9.220	 45.996
    6.100000000	 -6.533	144.649	 -7.797	-170.272	 -7.815	-170.295	 -9.931	 36.040
    6.200000000	 -6.632	135.884	 -7.665	176.220	 -7.677	176.186	-10.930	 24.660
    6.300000000	 -6.833	127.381	 -7.511	162.609	 -7.525	162.577	-12.218	 11.603
    6.400000000	 -7.206	119.534	 -7.351	148.916	 -7.369	148.881	-13.802	 -3.999
    6.500000000	 -7.656	112.403	 -7.198	135.153	 -7.217	135.109	-15.691	-23.473
    6.600000000	 -8.142	105.922	 -7.074	121.343	 -7.088	121.305	-17.746	-48.062
    6.700000000	 -8.689	 99.424	 -6.969	107.537	 -6.983	107.479	-19.350	-78.260
    6.800000000	 -9.247	 93.238	 -6.877	 93.676	 -6.903	 93.739	-19.836	-111.613
    6.900000000	 -9.782	 87.335	 -6.819	 80.080	 -6.847	 80.135	-19.371	-141.784
    7.000000000	-10.293	 80.664	 -6.782	 66.631	 -6.809	 66.658	-18.751	-166.348
    7.100000000	-10.806	 73.644	 -6.754	 53.304	 -6.776	 53.359	-18.240	173.091
    7.200000000	-11.284	 66.297	 -6.732	 40.103	 -6.757	 40.154	-17.950	154.551
    7.300000000	-11.723	 58.307	 -6.716	 27.070	 -6.742	 27.127	-17.814	136.471
    7.400000000	-12.108	 49.733	 -6.711	 14.128	 -6.732	 14.183	-17.847	118.319
    7.500000000	-12.453	 40.794	 -6.703	  1.335	 -6.730	  1.388	-17.899	100.327
    7.600000000	-12.685	 31.712	 -6.702	-11.330	 -6.725	-11.247	-17.750	 82.304
    7.700000000	-12.853	 22.524	 -6.704	-23.823	 -6.730	-23.762	-17.439	 64.818
    7.800000000	-12.982	 13.396	 -6.701	-36.195	 -6.729	-36.150	-17.050	 49.068
    7.900000000	-13.128	  4.542	 -6.701	-48.441	 -6.725	-48.402	-16.566	 35.243
    8.000000000	-13.234	 -4.186	 -6.689	-60.580	 -6.719	-60.508	-16.078	 23.684
    8.100000000	-13.488	-12.823	 -6.671	-72.614	 -6.707	-72.554	-15.811	 13.182
    8.200000000	-13.851	-21.456	 -6.654	-84.600	 -6.679	-84.500	-15.784	  4.592
    8.300000000	-14.418	-29.690	 -6.620	-96.525	 -6.651	-96.438	-15.992	 -2.108
    8.400000000	-15.203	-38.080	 -6.590	-108.440	 -6.619	-108.402	-16.513	 -7.652
    8.500000000	-16.480	-46.647	 -6.555	-120.458	 -6.587	-120.374	-17.487	-11.393
    8.600000000	-18.197	-54.877	 -6.526	-132.465	 -6.562	-132.390	-18.862	-11.453
    8.700000000	-20.602	-62.483	 -6.511	-144.478	 -6.540	-144.422	-20.545	 -7.426
    8.800000000	-24.040	-70.246	 -6.505	-156.553	 -6.537	-156.464	-22.289	  2.903
    8.900000000	-29.999	-77.383	 -6.523	-168.537	 -6.550	-168.448	-23.261	 22.221
    9.000000000	-45.937	-58.946	 -6.546	179.508	 -6.575	179.616	-22.825	 39.042
    9.100000000	-35.524	 74.311	 -6.582	167.713	 -6.608	167.763	-21.582	 51.216
    9.200000000	-30.496	 74.137	 -6.616	155.957	 -6.643	156.041	-20.624	 60.183
    9.300000000	-28.869	 71.846	 -6.648	144.287	 -6.680	144.370	-19.895	 65.103
    9.400000000	-29.474	 72.476	 -6.684	132.669	 -6.717	132.743	-19.441	 70.939
    9.500000000	-32.273	 90.205	 -6.712	121.093	 -6.742	121.192	-19.305	 78.520
    9.600000000	-32.282	132.700	 -6.743	109.582	 -6.777	109.682	-18.945	 87.109
    9.700000000	-27.385	162.758	 -6.781	 98.153	 -6.815	 98.206	-18.114	 95.732
    9.800000000	-22.781	168.832	 -6.826	 86.682	 -6.856	 86.756	-17.079	103.479
    9.900000000	-19.646	166.947	 -6.885	 75.313	 -6.918	 75.365	-15.924	108.257
   10.000000000	-19.142	153.824	 -6.916	 63.773	 -6.950	 63.806	-15.689	109.486
   10.100000000	-17.583	147.269	 -6.974	 52.498	 -7.007	 52.569	-14.902	109.724
   10.200000000	-16.125	140.998	 -7.037	 41.335	 -7.070	 41.412	-14.208	107.815
   10.300000000	-15.284	134.443	 -7.109	 30.334	 -7.143	 30.419	-13.668	105.369
   10.400000000	-14.588	128.049	 -7.170	 19.425	 -7.202	 19.515	-13.351	101.732
   10.500000000	-14.244	122.463	 -7.236	  8.656	 -7.271	  8.754	-13.051	 96.830
   10.600000000	-14.089	116.535	 -7.288	 -2.055	 -7.327	 -1.969	-13.053	 92.313
   10.700000000	-14.250	111.023	 -7.354	-12.579	 -7.371	-12.644	-13.098	 86.490
   10.800000000	-14.537	106.341	 -7.399	-23.207	 -7.424	-23.284	-13.208	 80.656
   10.900000000	-15.221	101.585	 -7.440	-33.807	 -7.465	-33.861	-13.446	 74.135
   11.000000000	-16.076	 97.918	 -7.480	-44.418	 -7.504	-44.454	-13.618	 67.665
   11.100000000	-17.456	 94.594	 -7.516	-55.072	 -7.542	-55.103	-13.765	 60.893
   11.200000000	-19.197	 94.073	 -7.558	-65.742	 -7.576	-65.779	-13.890	 54.360
   11.300000000	-21.784	 97.451	 -7.594	-76.394	 -7.612	-76.422	-13.892	 48.306
   11.400000000	-25.028	111.897	 -7.637	-87.092	 -7.658	-87.155	-13.807	 42.431
   11.500000000	-26.512	148.790	 -7.688	-97.794	 -7.705	-97.875	-13.656	 36.963
   11.600000000	-23.706	179.195	 -7.739	-108.479	 -7.756	-108.566	-13.414	 31.980
   11.700000000	-20.067	-169.558	 -7.800	-119.196	 -7.820	-119.247	-13.085	 27.169
   11.800000000	-17.175	-167.923	 -7.870	-129.831	 -7.889	-129.928	-12.765	 22.599
   11.900000000	-15.042	-170.501	 -7.940	-140.484	 -7.962	-140.517	-12.446	 18.153
   12.000000000	-13.413	-174.274	 -8.017	-151.055	 -8.046	-151.084	-12.130	 13.934
   12.100000000	-12.090	-178.893	 -8.102	-161.542	 -8.113	-161.645	-11.926	  9.246
   12.200000000	-11.040	175.917	 -8.184	-171.982	 -8.197	-172.044	-11.735	  4.635
   12.300000000	-10.271	170.139	 -8.258	177.613	 -8.276	177.563	-11.659	 -0.025
   12.400000000	 -9.655	164.504	 -8.332	167.221	 -8.349	167.155	-11.676	 -4.976
   12.500000000	 -9.206	158.455	 -8.395	156.881	 -8.414	156.775	-11.830	-10.045
   12.600000000	 -8.851	152.282	 -8.453	146.524	 -8.472	146.432	-12.058	-15.112
   12.700000000	 -8.659	145.997	 -8.495	136.088	 -8.509	136.004	-12.447	-20.525
   12.800000000	 -8.501	139.466	 -8.533	125.674	 -8.551	125.575	-12.924	-26.212
   12.900000000	 -8.412	132.559	 -8.562	115.158	 -8.578	115.104	-13.523	-31.874
   13.000000000	 -8.382	125.502	 -8.582	104.628	 -8.599	104.545	-14.262	-37.929
   13.100000000	 -8.370	118.280	 -8.605	 94.044	 -8.618	 93.933	-15.111	-44.140
   13.200000000	 -8.321	110.912	 -8.626	 83.440	 -8.643	 83.374	-16.048	-50.514
   13.300000000	 -8.306	103.105	 -8.640	 72.848	 -8.650	 72.762	-17.111	-56.979
   13.400000000	 -8.233	 95.458	 -8.643	 62.211	 -8.654	 62.130	-18.316	-63.780
   13.500000000	 -8.128	 87.573	 -8.651	 51.496	 -8.665	 51.440	-19.634	-68.758
   13.600000000	 -7.952	 79.712	 -8.672	 40.774	 -8.687	 40.714	-21.229	-73.481
   13.700000000	 -7.796	 72.152	 -8.703	 30.079	 -8.719	 29.997	-23.052	-74.720
   13.800000000	 -7.567	 65.109	 -8.741	 19.403	 -8.750	 19.291	-25.388	-69.329
   13.900000000	 -7.299	 58.756	 -8.783	  8.723	 -8.795	  8.630	-27.316	-51.834
   14.000000000	 -7.012	 52.419	 -8.845	 -1.978	 -8.855	 -2.055	-26.760	-22.244
   14.100000000	 -6.715	 47.100	 -8.914	-12.522	 -8.929	-12.577	-23.558	 -5.544
   14.200000000	 -6.413	 41.898	 -8.997	-23.033	 -9.009	-23.108	-20.478	 -0.259
   14.300000000	 -6.110	 37.366	 -9.088	-33.422	 -9.098	-33.492	-17.924	  0.145
   14.400000000	 -5.843	 33.109	 -9.182	-43.688	 -9.196	-43.804	-15.856	 -2.314
   14.500000000	 -5.570	 29.205	 -9.286	-53.801	 -9.301	-53.891	-14.227	 -7.089
   14.600000000	 -5.423	 25.424	 -9.371	-63.710	 -9.383	-63.792	-12.955	-11.543
   14.700000000	 -5.250	 22.285	 -9.449	-73.435	 -9.464	-73.495	-12.035	-16.867
   14.800000000	 -5.223	 19.083	 -9.490	-83.016	 -9.502	-83.073	-11.302	-22.544
   14.900000000	 -5.223	 15.760	 -9.504	-92.419	 -9.519	-92.493	-10.895	-27.927
   15.000000000	 -5.338	 13.412	 -9.490	-101.745	 -9.499	-101.794	-10.718	-33.890
   15.100000000	 -5.536	 10.429	 -9.430	-110.989	 -9.442	-111.088	-10.735	-40.086
   15.200000000	 -5.878	  7.953	 -9.331	-120.331	 -9.347	-120.413	-11.000	-46.940
   15.300000000	 -6.297	  5.424	 -9.215	-129.749	 -9.231	-129.840	-11.501	-53.930
   15.400000000	 -6.829	  2.637	 -9.079	-139.326	 -9.085	-139.376	-12.199	-62.069
   15.500000000	 -7.556	  0.030	 -8.924	-149.049	 -8.940	-149.085	-13.092	-71.170
   15.600000000	 -8.366	 -2.907	 -8.773	-158.949	 -8.794	-158.981	-14.280	-82.170
   15.700000000	 -9.325	 -6.498	 -8.631	-169.024	 -8.653	-169.061	-15.579	-95.371
   15.800000000	-10.454	-11.215	 -8.510	-179.345	 -8.531	-179.381	-16.763	-112.014
   15.900000000	-11.692	-16.558	 -8.406	170.288	 -8.423	170.238	-17.572	-131.420
   16.000000000	-13.061	-24.280	 -8.334	159.762	 -8.350	159.727	-17.610	-153.474
   16.100000000	-14.402	-35.246	 -8.285	149.123	 -8.303	149.142	-16.847	-171.195
   16.200000000	-15.619	-48.649	 -8.255	138.525	 -8.281	138.519	-15.933	173.052
   16.300000000	-16.333	-64.836	 -8.241	127.928	 -8.273	127.945	-14.777	161.568
   16.400000000	-16.422	-81.408	 -8.239	117.382	 -8.270	117.409	-13.886	152.165
   16.500000000	-16.089	-97.068	 -8.254	106.866	 -8.279	106.905	-13.115	143.525
   16.600000000	-15.572	-107.784	 -8.251	 96.497	 -8.282	 96.552	-12.627	136.320
   16.700000000	-14.840	-117.982	 -8.246	 86.117	 -8.278	 86.178	-12.372	128.775
   16.800000000	-14.684	-122.790	 -8.232	 75.924	 -8.257	 75.979	-12.146	123.183
   16.900000000	-14.351	-129.053	 -8.193	 65.707	 -8.217	 65.726	-12.702	116.122
   17.000000000	-14.440	-130.317	 -8.135	 55.514	 -8.169	 55.554	-13.072	107.876
   17.100000000	-14.704	-135.358	 -8.072	 45.307	 -8.100	 45.322	-14.104	101.063
   17.200000000	-14.864	-134.574	 -8.005	 34.959	 -8.033	 34.979	-15.230	 88.785
   17.300000000	-15.914	-135.853	 -7.937	 24.644	 -7.958	 24.686	-16.473	 77.659
   17.400000000	-16.705	-135.477	 -7.860	 14.193	 -7.890	 14.238	-18.010	 61.408
   17.500000000	-18.269	-135.903	 -7.796	  3.721	 -7.823	  3.736	-18.920	 42.363
   17.600000000	-20.475	-135.738	 -7.740	 -6.896	 -7.766	 -6.882	-18.992	 21.361
   17.700000000	-24.337	-133.970	 -7.694	-17.607	 -7.723	-17.594	-18.118	  4.237
   17.800000000	-32.672	-116.262	 -7.659	-28.411	 -7.686	-28.396	-16.951	 -7.267
   17.900000000	-30.491	  2.863	 -7.647	-39.325	 -7.678	-39.295	-15.731	-14.257
   18.000000000	-22.342	 19.087	 -7.646	-50.292	 -7.683	-50.302	-14.473	-19.033
   18.100000000	-17.734	 17.752	 -7.665	-61.306	 -7.689	-61.285	-13.425	-22.266
   18.200000000	-14.854	 15.531	 -7.695	-72.257	 -7.729	-72.245	-12.563	-24.673
   18.300000000	-12.932	 11.842	 -7.735	-83.113	 -7.761	-83.168	-11.793	-26.404
   18.400000000	-11.471	  8.831	 -7.769	-93.909	 -7.796	-93.885	-11.278	-28.581
   18.500000000	-10.607	  5.269	 -7.785	-104.601	 -7.811	-104.558	-10.992	-30.771
   18.600000000	-10.014	  2.143	 -7.782	-115.185	 -7.814	-115.144	-10.927	-32.617
   18.700000000	 -9.829	 -0.547	 -7.757	-125.700	 -7.786	-125.706	-11.146	-33.776
   18.800000000	 -9.946	 -2.631	 -7.710	-136.322	 -7.738	-136.296	-11.516	-34.843
   18.900000000	-10.343	 -4.165	 -7.651	-146.999	 -7.676	-146.981	-12.096	-35.205
   19.000000000	-11.061	 -4.376	 -7.576	-157.811	 -7.603	-157.779	-12.914	-33.272
   19.100000000	-11.897	 -4.014	 -7.515	-168.792	 -7.553	-168.683	-13.633	-30.607
   19.200000000	-13.232	 -0.866	 -7.465	-179.764	 -7.505	-179.669	-14.162	-28.087
   19.300000000	-14.500	  1.855	 -7.418	169.069	 -7.457	169.146	-14.784	-24.307
   19.400000000	-16.049	 10.358	 -7.387	157.748	 -7.415	157.852	-15.132	-23.917
   19.500000000	-18.130	 17.649	 -7.359	146.232	 -7.395	146.297	-15.342	-24.313
   19.600000000	-19.135	 30.950	 -7.362	134.477	 -7.396	134.601	-15.963	-28.007
   19.700000000	-20.144	 47.207	 -7.376	122.593	 -7.412	122.684	-16.454	-34.922
   19.800000000	-20.353	 60.285	 -7.419	110.527	 -7.456	110.629	-17.371	-45.269
   19.900000000	-20.116	 73.085	 -7.478	 98.282	 -7.512	 98.319	-18.182	-60.680
   20.000000000	-19.343	 78.443	 -7.557	 85.960	 -7.596	 86.011	-18.743	-78.251
