! Date: Wednesday, June 05, 2013  1:51 PM
! Filename: C:\Data\Mike_Arnold\TGP2105-SM\Over_Temp\TGP2105-SM_EVB01_25C_Phase37.s2p 
! Comments: 
!^VDC(V):5.000
!^VDC(mA):0.085
!%Freq(GHz),S11(dB),S11(ang),S21(dB),S21(ang),S12(dB),S12(ang),S22(dB),S22(ang)
# GHz   S   DB   R   50
    5.000000000	-13.011	 13.171	 -9.124	-21.791	 -9.133	-21.832	 -5.038	100.371
    5.100000000	-13.663	-26.501	 -8.983	-38.077	 -8.998	-38.130	 -5.173	 94.886
    5.200000000	-12.812	-65.619	 -8.904	-54.074	 -8.917	-54.153	 -5.335	 89.658
    5.300000000	-11.172	-96.664	 -8.881	-69.668	 -8.899	-69.704	 -5.464	 84.735
    5.400000000	 -9.590	-120.657	 -8.898	-84.709	 -8.911	-84.759	 -5.608	 79.539
    5.500000000	 -8.289	-140.031	 -8.908	-99.061	 -8.920	-99.112	 -5.766	 74.266
    5.600000000	 -7.349	-156.482	 -8.860	-113.012	 -8.874	-113.046	 -5.958	 69.028
    5.700000000	 -6.657	-170.575	 -8.779	-126.952	 -8.796	-126.980	 -6.100	 63.080
    5.800000000	 -6.160	177.049	 -8.715	-140.604	 -8.734	-140.628	 -6.314	 56.083
    5.900000000	 -5.802	165.427	 -8.624	-153.891	 -8.645	-153.958	 -6.686	 48.126
    6.000000000	 -5.627	154.519	 -8.489	-167.013	 -8.508	-167.061	 -7.185	 39.480
    6.100000000	 -5.623	144.449	 -8.305	179.887	 -8.322	179.900	 -7.853	 29.702
    6.200000000	 -5.721	135.102	 -8.088	166.831	 -8.107	166.821	 -8.729	 18.930
    6.300000000	 -5.911	125.943	 -7.860	153.570	 -7.874	153.549	 -9.800	  7.065
    6.400000000	 -6.253	117.228	 -7.618	140.177	 -7.629	140.174	-11.083	 -6.207
    6.500000000	 -6.682	109.000	 -7.379	126.647	 -7.391	126.628	-12.598	-21.368
    6.600000000	 -7.172	101.122	 -7.155	112.978	 -7.172	112.934	-14.359	-38.298
    6.700000000	 -7.756	 92.983	 -6.958	 99.229	 -6.973	 99.203	-16.261	-57.217
    6.800000000	 -8.408	 85.016	 -6.780	 85.349	 -6.803	 85.394	-18.188	-78.911
    6.900000000	 -9.106	 77.204	 -6.634	 71.600	 -6.660	 71.662	-20.065	-102.788
    7.000000000	 -9.850	 68.749	 -6.520	 57.923	 -6.542	 57.959	-22.035	-126.809
    7.100000000	-10.649	 60.024	 -6.420	 44.265	 -6.446	 44.329	-24.123	-151.481
    7.200000000	-11.499	 51.279	 -6.340	 30.751	 -6.365	 30.774	-26.533	-178.647
    7.300000000	-12.341	 42.197	 -6.279	 17.274	 -6.304	 17.350	-29.264	144.573
    7.400000000	-13.177	 32.998	 -6.234	  3.930	 -6.263	  3.992	-30.646	 92.543
    7.500000000	-14.004	 23.889	 -6.207	 -9.290	 -6.235	 -9.230	-28.335	 45.375
    7.600000000	-14.726	 15.480	 -6.194	-22.349	 -6.219	-22.317	-25.117	 17.230
    7.700000000	-15.377	  7.589	 -6.184	-35.295	 -6.215	-35.218	-22.484	 -1.078
    7.800000000	-15.976	  0.396	 -6.185	-48.069	 -6.213	-48.001	-20.679	-15.576
    7.900000000	-16.567	 -5.816	 -6.193	-60.724	 -6.215	-60.662	-19.440	-27.076
    8.000000000	-17.081	-11.065	 -6.190	-73.252	 -6.223	-73.181	-18.691	-36.834
    8.100000000	-17.757	-15.531	 -6.196	-85.666	 -6.230	-85.585	-18.363	-47.177
    8.200000000	-18.508	-18.845	 -6.203	-98.024	 -6.235	-97.961	-18.582	-57.909
    8.300000000	-19.456	-20.064	 -6.213	-110.343	 -6.240	-110.236	-19.394	-69.119
    8.400000000	-20.500	-18.837	 -6.224	-122.627	 -6.252	-122.538	-20.689	-82.967
    8.500000000	-21.736	-13.689	 -6.247	-134.889	 -6.275	-134.789	-22.620	-102.528
    8.600000000	-22.391	 -3.935	 -6.280	-147.035	 -6.308	-146.978	-24.945	-133.424
    8.700000000	-22.161	  6.600	 -6.329	-159.219	 -6.355	-159.131	-25.046	-174.989
    8.800000000	-21.360	 13.083	 -6.384	-171.273	 -6.415	-171.186	-22.715	151.811
    8.900000000	-20.429	 15.428	 -6.451	176.765	 -6.484	176.826	-19.878	131.570
    9.000000000	-19.664	 12.758	 -6.523	164.919	 -6.546	165.021	-17.885	119.297
    9.100000000	-19.330	  6.144	 -6.587	153.167	 -6.614	153.229	-16.336	110.696
    9.200000000	-19.600	 -3.868	 -6.649	141.467	 -6.677	141.587	-15.128	105.935
    9.300000000	-20.347	-17.854	 -6.705	129.869	 -6.731	129.962	-14.304	101.933
    9.400000000	-21.464	-38.584	 -6.762	118.211	 -6.790	118.304	-13.574	100.020
    9.500000000	-22.315	-69.581	 -6.820	106.625	 -6.846	106.703	-13.002	 99.741
    9.600000000	-21.678	-104.435	 -6.883	 95.030	 -6.914	 95.113	-12.426	 99.597
    9.700000000	-19.478	-133.716	 -6.961	 83.543	 -6.993	 83.603	-11.782	 99.385
    9.800000000	-17.102	-155.037	 -7.052	 72.152	 -7.087	 72.212	-11.189	 99.186
    9.900000000	-15.117	-170.786	 -7.158	 60.870	 -7.187	 60.956	-10.664	 98.177
   10.000000000	-14.793	173.130	 -7.218	 49.177	 -7.249	 49.288	-10.580	 95.601
   10.100000000	-13.723	160.426	 -7.318	 38.046	 -7.343	 38.088	-10.302	 92.757
   10.200000000	-12.724	149.300	 -7.422	 27.054	 -7.452	 27.129	-10.067	 88.965
   10.300000000	-12.138	139.224	 -7.522	 16.220	 -7.549	 16.369	 -9.942	 84.999
   10.400000000	-11.690	129.904	 -7.611	  5.548	 -7.647	  5.623	 -9.924	 80.217
   10.500000000	-11.511	121.703	 -7.696	 -5.022	 -7.733	 -4.928	 -9.900	 74.793
   10.600000000	-11.505	113.557	 -7.771	-15.469	 -7.810	-15.378	-10.082	 69.371
   10.700000000	-11.754	105.780	 -7.847	-25.796	 -7.868	-25.829	-10.242	 63.143
   10.800000000	-12.149	 98.603	 -7.902	-36.193	 -7.921	-36.258	-10.442	 56.853
   10.900000000	-12.890	 91.077	 -7.947	-46.607	 -7.963	-46.655	-10.694	 49.964
   11.000000000	-13.837	 84.103	 -7.983	-57.049	 -8.003	-57.080	-10.892	 43.271
   11.100000000	-15.240	 76.223	 -8.017	-67.515	 -8.036	-67.563	-11.048	 36.383
   11.200000000	-17.172	 68.983	 -8.048	-78.062	 -8.069	-78.064	-11.181	 29.731
   11.300000000	-20.128	 60.414	 -8.082	-88.614	 -8.100	-88.629	-11.251	 23.499
   11.400000000	-25.011	 49.364	 -8.115	-99.182	 -8.132	-99.245	-11.250	 17.640
   11.500000000	-38.490	  8.612	 -8.155	-109.836	 -8.173	-109.883	-11.223	 12.043
   11.600000000	-28.113	-123.615	 -8.203	-120.439	 -8.219	-120.484	-11.160	  6.884
   11.700000000	-21.121	-137.044	 -8.256	-131.104	 -8.270	-131.146	-11.043	  1.971
   11.800000000	-17.300	-146.199	 -8.322	-141.675	 -8.334	-141.754	-10.936	 -2.735
   11.900000000	-14.777	-154.662	 -8.389	-152.255	 -8.406	-152.297	-10.845	 -7.323
   12.000000000	-12.951	-161.931	 -8.463	-162.777	 -8.479	-162.827	-10.775	-11.766
   12.100000000	-11.520	-169.148	 -8.539	-173.251	 -8.557	-173.321	-10.777	-16.663
   12.200000000	-10.412	-176.206	 -8.616	176.384	 -8.630	176.292	-10.818	-21.608
   12.300000000	 -9.605	176.641	 -8.685	166.012	 -8.698	165.964	-10.956	-26.736
   12.400000000	 -8.953	169.937	 -8.753	155.704	 -8.771	155.634	-11.161	-32.126
   12.500000000	 -8.479	163.032	 -8.811	145.399	 -8.825	145.273	-11.480	-38.008
   12.600000000	 -8.102	156.061	 -8.862	135.086	 -8.877	134.999	-11.888	-44.087
   12.700000000	 -7.883	149.115	 -8.901	124.723	 -8.918	124.651	-12.412	-50.813
   12.800000000	 -7.708	141.979	 -8.931	114.359	 -8.949	114.283	-13.006	-58.025
   12.900000000	 -7.597	134.455	 -8.956	103.936	 -8.975	103.843	-13.696	-65.818
   13.000000000	 -7.546	126.821	 -8.973	 93.483	 -8.990	 93.378	-14.457	-74.337
   13.100000000	 -7.525	119.032	 -8.985	 82.972	 -8.998	 82.884	-15.296	-83.486
   13.200000000	 -7.478	111.029	 -9.005	 72.474	 -9.015	 72.401	-16.133	-93.205
   13.300000000	 -7.463	102.614	 -9.009	 61.985	 -9.024	 61.892	-17.018	-103.710
   13.400000000	 -7.407	 94.409	 -9.007	 51.518	 -9.016	 51.411	-17.894	-114.915
   13.500000000	 -7.332	 85.983	 -9.003	 40.918	 -9.018	 40.839	-18.911	-125.492
   13.600000000	 -7.200	 77.587	 -9.009	 30.366	 -9.021	 30.298	-19.963	-137.439
   13.700000000	 -7.098	 69.549	 -9.015	 19.845	 -9.032	 19.743	-21.303	-149.134
   13.800000000	 -6.942	 61.945	 -9.031	  9.328	 -9.041	  9.221	-23.196	-163.757
   13.900000000	 -6.758	 55.192	 -9.047	 -1.189	 -9.064	 -1.289	-25.760	177.479
   14.000000000	 -6.563	 48.495	 -9.079	-11.694	 -9.086	-11.814	-28.934	142.069
   14.100000000	 -6.369	 42.909	 -9.105	-22.085	 -9.119	-22.205	-29.149	 86.829
   14.200000000	 -6.174	 37.496	 -9.143	-32.492	 -9.154	-32.588	-25.309	 49.009
   14.300000000	 -5.981	 32.874	 -9.183	-42.831	 -9.197	-42.929	-21.607	 29.676
   14.400000000	 -5.836	 28.599	 -9.221	-53.013	 -9.231	-53.085	-18.866	 16.980
   14.500000000	 -5.677	 24.860	 -9.261	-63.152	 -9.271	-63.225	-16.928	  6.240
   14.600000000	 -5.642	 21.210	 -9.274	-73.107	 -9.290	-73.206	-15.445	 -1.879
   14.700000000	 -5.582	 18.407	 -9.285	-82.998	 -9.301	-83.092	-14.482	 -9.564
   14.800000000	 -5.668	 15.577	 -9.258	-92.861	 -9.271	-92.924	-13.764	-17.111
   14.900000000	 -5.774	 12.735	 -9.211	-102.619	 -9.226	-102.668	-13.495	-23.489
   15.000000000	 -5.998	 11.058	 -9.134	-112.302	 -9.152	-112.392	-13.582	-30.133
   15.100000000	 -6.304	  8.831	 -9.037	-122.104	 -9.047	-122.202	-13.965	-36.764
   15.200000000	 -6.743	  7.369	 -8.906	-131.963	 -8.924	-132.054	-14.790	-43.735
   15.300000000	 -7.243	  6.081	 -8.774	-141.980	 -8.789	-142.028	-16.097	-50.393
   15.400000000	 -7.827	  4.836	 -8.635	-152.107	 -8.653	-152.206	-17.986	-58.278
   15.500000000	 -8.570	  4.082	 -8.495	-162.409	 -8.516	-162.424	-20.750	-67.161
   15.600000000	 -9.325	  3.139	 -8.376	-172.813	 -8.396	-172.866	-25.409	-81.751
   15.700000000	-10.175	  1.742	 -8.269	176.692	 -8.288	176.657	-33.167	-126.373
   15.800000000	-11.118	 -0.761	 -8.186	166.034	 -8.203	166.018	-29.450	146.796
   15.900000000	-12.111	 -3.818	 -8.118	155.354	 -8.141	155.347	-23.656	123.379
   16.000000000	-13.198	 -9.340	 -8.080	144.612	 -8.103	144.571	-20.019	114.214
   16.100000000	-14.369	-17.969	 -8.053	133.763	 -8.083	133.800	-17.975	108.800
   16.200000000	-15.452	-29.059	 -8.054	122.997	 -8.078	123.028	-16.319	102.753
   16.300000000	-16.228	-43.544	 -8.066	112.162	 -8.092	112.199	-15.210	 98.578
   16.400000000	-16.436	-60.002	 -8.085	101.379	 -8.114	101.400	-14.448	 93.341
   16.500000000	-16.188	-76.449	 -8.109	 90.598	 -8.140	 90.626	-13.835	 87.655
   16.600000000	-15.537	-88.450	 -8.139	 79.870	 -8.167	 79.936	-13.598	 81.120
   16.700000000	-14.651	-100.306	 -8.168	 69.225	 -8.199	 69.265	-13.485	 73.092
   16.800000000	-14.098	-106.052	 -8.191	 58.704	 -8.220	 58.758	-13.710	 66.506
   16.900000000	-13.456	-113.578	 -8.212	 48.131	 -8.242	 48.154	-14.225	 53.463
   17.000000000	-13.066	-116.613	 -8.224	 37.745	 -8.250	 37.786	-14.434	 41.518
   17.100000000	-12.953	-123.084	 -8.236	 27.346	 -8.260	 27.359	-15.085	 25.624
   17.200000000	-12.672	-125.609	 -8.245	 16.953	 -8.275	 16.987	-14.779	  8.786
   17.300000000	-13.193	-129.804	 -8.241	  6.670	 -8.279	  6.712	-14.593	 -6.203
   17.400000000	-13.596	-133.751	 -8.246	 -3.654	 -8.273	 -3.601	-13.948	-21.315
   17.500000000	-14.659	-139.505	 -8.236	-13.913	 -8.269	-13.892	-13.195	-32.611
   17.600000000	-16.220	-146.638	 -8.223	-24.277	 -8.252	-24.284	-12.377	-41.450
   17.700000000	-18.813	-157.446	 -8.216	-34.723	 -8.242	-34.669	-11.643	-47.767
   17.800000000	-22.957	-177.887	 -8.214	-45.253	 -8.233	-45.233	-11.067	-52.355
   17.900000000	-27.379	122.311	 -8.209	-55.937	 -8.232	-55.902	-10.597	-55.439
   18.000000000	-22.089	 65.616	 -8.211	-66.691	 -8.243	-66.705	-10.140	-57.582
   18.100000000	-17.287	 43.507	 -8.233	-77.509	 -8.261	-77.517	 -9.791	-59.555
   18.200000000	-14.119	 32.661	 -8.263	-88.319	 -8.289	-88.306	 -9.574	-61.422
   18.300000000	-12.065	 24.260	 -8.291	-99.004	 -8.321	-99.051	 -9.446	-62.854
   18.400000000	-10.516	 18.038	 -8.318	-109.702	 -8.346	-109.671	 -9.458	-65.143
   18.500000000	 -9.577	 12.502	 -8.317	-120.238	 -8.347	-120.265	 -9.656	-67.937
   18.600000000	 -8.914	  7.742	 -8.304	-130.806	 -8.328	-130.760	-10.058	-70.880
   18.700000000	 -8.627	  3.643	 -8.251	-141.320	 -8.278	-141.310	-10.768	-74.176
   18.800000000	 -8.614	  0.260	 -8.179	-151.907	 -8.202	-151.887	-11.665	-77.913
   18.900000000	 -8.848	 -2.907	 -8.091	-162.675	 -8.114	-162.680	-12.853	-82.095
   19.000000000	 -9.371	 -5.284	 -7.987	-173.640	 -8.013	-173.609	-14.618	-86.323
   19.100000000	-10.051	 -7.860	 -7.895	175.170	 -7.929	175.259	-16.617	-90.725
   19.200000000	-11.247	 -9.309	 -7.812	163.894	 -7.849	163.946	-18.748	-95.104
   19.300000000	-12.560	-12.356	 -7.744	152.386	 -7.782	152.498	-21.793	-103.504
   19.400000000	-14.626	-12.690	 -7.695	140.706	 -7.727	140.735	-24.115	-115.723
   19.500000000	-17.746	-17.586	 -7.662	128.653	 -7.694	128.759	-26.306	-134.294
   19.600000000	-21.993	-15.006	 -7.670	116.344	 -7.705	116.448	-25.704	-163.054
   19.700000000	-31.810	  5.295	 -7.708	103.907	 -7.748	103.976	-23.734	179.026
   19.800000000	-29.818	114.990	 -7.796	 91.262	 -7.830	 91.334	-21.056	165.457
   19.900000000	-22.260	126.865	 -7.910	 78.535	 -7.941	 78.598	-18.790	157.708
   20.000000000	-18.859	121.193	 -8.060	 65.777	 -8.092	 65.859	-17.117	150.375
