! Date: Wednesday, June 05, 2013  1:50 PM
! Filename: C:\Data\Mike_Arnold\TGP2105-SM\Over_Temp\TGP2105-SM_EVB01_25C_Phase13.s2p 
! Comments: 
!^VDC(V):5.000
!^VDC(mA):0.125
!%Freq(GHz),S11(dB),S11(ang),S21(dB),S21(ang),S12(dB),S12(ang),S22(dB),S22(ang)
# GHz   S   DB   R   50
    5.000000000	 -6.044	107.820	 -8.529	-160.561	 -8.544	-160.583	 -4.918	 96.674
    5.100000000	 -6.734	 94.206	 -8.207	-174.827	 -8.219	-174.853	 -5.085	 89.499
    5.200000000	 -7.724	 79.830	 -7.840	170.665	 -7.852	170.678	 -5.401	 82.409
    5.300000000	 -9.080	 63.901	 -7.466	155.845	 -7.490	155.842	 -5.826	 75.886
    5.400000000	-10.965	 45.580	 -7.112	140.647	 -7.130	140.613	 -6.397	 69.709
    5.500000000	-13.652	 22.938	 -6.812	125.176	 -6.827	125.111	 -7.076	 64.391
    5.600000000	-17.157	 -8.709	 -6.576	109.575	 -6.593	109.545	 -7.847	 60.216
    5.700000000	-19.822	-59.585	 -6.431	 94.040	 -6.447	 94.032	 -8.581	 56.817
    5.800000000	-18.207	-112.172	 -6.358	 78.746	 -6.373	 78.748	 -9.257	 53.957
    5.900000000	-15.343	-145.279	 -6.341	 63.883	 -6.357	 63.875	 -9.888	 50.926
    6.000000000	-13.246	-166.657	 -6.371	 49.459	 -6.385	 49.425	-10.463	 47.356
    6.100000000	-11.876	177.460	 -6.422	 35.566	 -6.436	 35.533	-11.104	 42.527
    6.200000000	-10.990	163.866	 -6.480	 22.287	 -6.492	 22.239	-11.952	 37.068
    6.300000000	-10.554	151.036	 -6.462	  9.663	 -6.480	  9.630	-12.861	 32.246
    6.400000000	-10.646	140.378	 -6.315	 -3.155	 -6.325	 -3.187	-13.555	 25.980
    6.500000000	-10.909	132.097	 -6.185	-16.621	 -6.197	-16.645	-14.384	 15.989
    6.600000000	-11.161	124.902	 -6.110	-30.015	 -6.128	-30.029	-15.623	  3.420
    6.700000000	-11.576	117.650	 -6.060	-43.358	 -6.078	-43.363	-17.238	-10.397
    6.800000000	-12.087	110.868	 -6.017	-56.666	 -6.040	-56.612	-19.115	-26.311
    6.900000000	-12.636	104.582	 -5.998	-69.813	 -6.021	-69.766	-21.240	-44.262
    7.000000000	-13.264	 97.549	 -5.990	-82.826	 -6.013	-82.798	-23.482	-62.323
    7.100000000	-13.963	 90.429	 -5.986	-95.766	 -6.012	-95.723	-25.860	-80.686
    7.200000000	-14.688	 83.309	 -5.989	-108.614	 -6.014	-108.547	-28.680	-98.825
    7.300000000	-15.416	 75.456	 -6.000	-121.377	 -6.025	-121.320	-33.195	-114.098
    7.400000000	-16.160	 67.085	 -6.018	-134.046	 -6.044	-133.970	-43.651	-107.746
    7.500000000	-16.892	 58.549	 -6.035	-146.631	 -6.061	-146.573	-38.706	 13.999
    7.600000000	-17.436	 49.950	 -6.067	-159.132	 -6.086	-159.099	-30.562	 13.218
    7.700000000	-17.924	 41.556	 -6.094	-171.522	 -6.116	-171.465	-26.060	  5.852
    7.800000000	-18.237	 33.625	 -6.121	176.142	 -6.146	176.221	-23.310	 -2.590
    7.900000000	-18.456	 26.865	 -6.156	163.940	 -6.179	163.986	-21.332	 -9.651
    8.000000000	-18.467	 20.504	 -6.184	151.800	 -6.210	151.844	-19.871	-16.008
    8.100000000	-18.572	 14.756	 -6.215	139.710	 -6.243	139.824	-18.870	-23.643
    8.200000000	-18.666	  9.269	 -6.246	127.683	 -6.268	127.778	-18.366	-31.249
    8.300000000	-18.853	  4.752	 -6.265	115.708	 -6.297	115.831	-18.281	-38.752
    8.400000000	-19.254	  0.389	 -6.282	103.727	 -6.309	103.824	-18.586	-48.089
    8.500000000	-20.168	 -2.143	 -6.307	 91.720	 -6.331	 91.810	-19.469	-59.884
    8.600000000	-21.335	 -2.450	 -6.327	 79.673	 -6.354	 79.750	-21.080	-75.210
    8.700000000	-22.789	  1.907	 -6.358	 67.524	 -6.390	 67.610	-23.150	-99.231
    8.800000000	-24.298	 13.651	 -6.412	 55.338	 -6.440	 55.425	-24.439	-137.086
    8.900000000	-24.541	 32.491	 -6.485	 43.204	 -6.509	 43.252	-22.731	-179.494
    9.000000000	-23.027	 46.398	 -6.570	 31.123	 -6.601	 31.179	-19.806	154.790
    9.100000000	-21.246	 51.181	 -6.682	 19.108	 -6.716	 19.211	-17.212	137.804
    9.200000000	-19.915	 50.587	 -6.800	  7.260	 -6.830	  7.362	-15.125	126.989
    9.300000000	-19.042	 45.978	 -6.923	 -4.420	 -6.953	 -4.287	-13.713	118.109
    9.400000000	-18.807	 38.151	 -7.036	-15.947	 -7.065	-15.836	-12.589	111.448
    9.500000000	-19.306	 27.798	 -7.141	-27.301	 -7.168	-27.227	-11.852	106.643
    9.600000000	-20.332	 14.313	 -7.226	-38.653	 -7.264	-38.574	-11.321	102.634
    9.700000000	-22.025	 -7.018	 -7.310	-49.991	 -7.340	-49.889	-10.901	 99.484
    9.800000000	-23.690	-40.967	 -7.382	-61.259	 -7.411	-61.168	-10.639	 97.665
    9.900000000	-23.003	-83.612	 -7.450	-72.554	 -7.480	-72.483	-10.426	 96.087
   10.000000000	-22.154	-102.818	 -7.486	-84.188	 -7.519	-84.059	-10.576	 92.759
   10.100000000	-19.809	-129.336	 -7.549	-95.556	 -7.584	-95.446	-10.553	 90.530
   10.200000000	-17.349	-150.284	 -7.619	-106.946	 -7.655	-106.864	-10.488	 87.965
   10.300000000	-15.378	-164.829	 -7.699	-118.218	 -7.729	-118.117	-10.439	 85.363
   10.400000000	-13.759	-177.352	 -7.787	-129.471	 -7.818	-129.369	-10.433	 82.032
   10.500000000	-12.433	172.561	 -7.884	-140.614	 -7.924	-140.472	-10.338	 77.796
   10.600000000	-11.432	162.875	 -7.987	-151.609	 -8.024	-151.504	-10.411	 73.343
   10.700000000	-10.706	154.479	 -8.109	-162.420	 -8.130	-162.454	-10.442	 67.634
   10.800000000	-10.096	146.526	 -8.219	-173.250	 -8.237	-173.285	-10.497	 61.673
   10.900000000	 -9.755	139.197	 -8.319	176.059	 -8.338	176.044	-10.615	 54.774
   11.000000000	 -9.499	132.057	 -8.412	165.425	 -8.432	165.394	-10.693	 47.791
   11.100000000	 -9.471	125.221	 -8.495	154.888	 -8.512	154.838	-10.754	 40.357
   11.200000000	 -9.525	118.710	 -8.564	144.387	 -8.586	144.336	-10.822	 32.958
   11.300000000	 -9.768	112.368	 -8.618	133.921	 -8.634	133.912	-10.873	 25.933
   11.400000000	-10.156	106.077	 -8.659	123.501	 -8.676	123.474	-10.906	 19.105
   11.500000000	-10.709	100.226	 -8.691	113.076	 -8.704	113.043	-10.949	 12.707
   11.600000000	-11.453	 94.300	 -8.702	102.688	 -8.720	102.658	-10.999	  6.907
   11.700000000	-12.466	 88.797	 -8.702	 92.256	 -8.720	 92.188	-11.026	  1.679
   11.800000000	-13.752	 84.036	 -8.697	 81.809	 -8.717	 81.740	-11.102	 -2.957
   11.900000000	-15.338	 80.107	 -8.688	 71.332	 -8.707	 71.262	-11.186	 -7.115
   12.000000000	-17.440	 77.264	 -8.667	 60.846	 -8.689	 60.757	-11.275	-10.616
   12.100000000	-20.332	 78.280	 -8.658	 50.258	 -8.668	 50.173	-11.389	-14.204
   12.200000000	-24.024	 89.219	 -8.640	 39.704	 -8.656	 39.634	-11.486	-17.444
   12.300000000	-26.901	119.618	 -8.627	 29.128	 -8.640	 29.058	-11.619	-20.695
   12.400000000	-25.262	156.927	 -8.620	 18.492	 -8.634	 18.445	-11.748	-24.048
   12.500000000	-21.921	170.368	 -8.621	  7.851	 -8.630	  7.804	-11.927	-27.827
   12.600000000	-19.233	172.334	 -8.611	 -2.753	 -8.629	 -2.831	-12.116	-31.735
   12.700000000	-17.457	170.534	 -8.612	-13.454	 -8.632	-13.516	-12.363	-36.429
   12.800000000	-16.035	165.815	 -8.616	-24.097	 -8.633	-24.159	-12.636	-41.572
   12.900000000	-15.004	159.547	 -8.621	-34.779	 -8.637	-34.852	-12.946	-47.148
   13.000000000	-14.230	152.794	 -8.620	-45.457	 -8.641	-45.523	-13.289	-53.430
   13.100000000	-13.604	145.357	 -8.630	-56.157	 -8.640	-56.225	-13.652	-60.149
   13.200000000	-13.018	137.043	 -8.639	-66.830	 -8.652	-66.875	-13.971	-67.251
   13.300000000	-12.597	128.150	 -8.650	-77.480	 -8.657	-77.525	-14.273	-74.841
   13.400000000	-12.140	119.226	 -8.654	-88.144	 -8.666	-88.206	-14.518	-83.029
   13.500000000	-11.696	109.775	 -8.664	-98.787	 -8.678	-98.861	-14.750	-90.358
   13.600000000	-11.212	 99.960	 -8.683	-109.455	 -8.686	-109.510	-14.964	-98.436
   13.700000000	-10.778	 90.838	 -8.698	-120.063	 -8.713	-120.098	-15.141	-105.782
   13.800000000	-10.286	 82.060	 -8.726	-130.628	 -8.736	-130.741	-15.461	-113.413
   13.900000000	 -9.763	 74.238	 -8.759	-141.259	 -8.768	-141.302	-15.883	-120.961
   14.000000000	 -9.285	 66.522	 -8.791	-151.822	 -8.806	-151.900	-16.607	-128.705
   14.100000000	 -8.810	 60.306	 -8.833	-162.363	 -8.842	-162.433	-17.622	-136.414
   14.200000000	 -8.363	 54.402	 -8.878	-172.869	 -8.892	-172.950	-18.995	-145.334
   14.300000000	 -7.926	 49.507	 -8.928	176.615	 -8.937	176.518	-21.096	-157.336
   14.400000000	 -7.549	 45.174	 -8.972	166.157	 -8.989	166.067	-24.075	-175.187
   14.500000000	 -7.147	 41.333	 -9.032	155.711	 -9.049	155.639	-27.680	153.697
   14.600000000	 -6.897	 37.941	 -9.077	145.374	 -9.095	145.301	-27.979	 98.488
   14.700000000	 -6.577	 35.219	 -9.141	135.143	 -9.148	135.033	-24.444	 63.714
   14.800000000	 -6.430	 32.709	 -9.171	125.010	 -9.189	124.906	-21.407	 44.146
   14.900000000	 -6.296	 29.972	 -9.208	114.989	 -9.220	114.920	-19.165	 34.126
   15.000000000	 -6.252	 28.431	 -9.222	105.130	 -9.241	105.044	-17.760	 26.430
   15.100000000	 -6.317	 26.292	 -9.216	 95.350	 -9.232	 95.250	-16.874	 20.596
   15.200000000	 -6.499	 24.970	 -9.187	 85.606	 -9.201	 85.543	-16.493	 16.247
   15.300000000	 -6.750	 23.729	 -9.136	 75.853	 -9.151	 75.813	-16.406	 13.703
   15.400000000	 -7.107	 22.511	 -9.073	 66.138	 -9.084	 66.059	-16.654	 12.145
   15.500000000	 -7.602	 21.915	 -8.990	 56.304	 -9.014	 56.285	-17.108	 12.207
   15.600000000	 -8.148	 21.299	 -8.915	 46.436	 -8.934	 46.394	-17.733	 15.441
   15.700000000	 -8.787	 20.698	 -8.835	 36.503	 -8.848	 36.449	-18.314	 20.461
   15.800000000	 -9.524	 19.832	 -8.753	 26.371	 -8.773	 26.350	-18.791	 27.420
   15.900000000	-10.253	 19.057	 -8.687	 16.221	 -8.707	 16.181	-18.887	 34.709
   16.000000000	-11.053	 17.046	 -8.628	  5.939	 -8.646	  5.889	-18.749	 42.998
   16.100000000	-11.931	 13.501	 -8.571	 -4.517	 -8.593	 -4.504	-18.682	 47.839
   16.200000000	-12.783	  8.760	 -8.529	-14.963	 -8.556	-14.946	-18.250	 51.760
   16.300000000	-13.596	  1.448	 -8.498	-25.551	 -8.527	-25.539	-18.209	 54.908
   16.400000000	-14.283	 -8.404	 -8.480	-36.225	 -8.507	-36.193	-18.190	 55.904
   16.500000000	-14.853	-20.438	 -8.472	-46.991	 -8.496	-46.921	-18.093	 56.546
   16.600000000	-14.833	-32.933	 -8.466	-57.717	 -8.498	-57.651	-18.234	 54.999
   16.700000000	-14.673	-47.098	 -8.478	-68.510	 -8.509	-68.450	-18.267	 51.196
   16.800000000	-13.973	-56.084	 -8.502	-79.198	 -8.529	-79.147	-18.730	 48.837
   16.900000000	-13.461	-66.550	 -8.528	-89.963	 -8.557	-89.906	-19.061	 34.887
   17.000000000	-12.607	-72.129	 -8.574	-100.562	 -8.604	-100.491	-18.734	 24.182
   17.100000000	-12.321	-78.752	 -8.616	-111.141	 -8.646	-111.088	-18.734	  5.604
   17.200000000	-11.497	-83.272	 -8.686	-121.707	 -8.716	-121.643	-17.267	 -9.732
   17.300000000	-11.314	-86.001	 -8.746	-132.030	 -8.769	-131.992	-16.233	-23.373
   17.400000000	-10.974	-89.583	 -8.821	-142.378	 -8.851	-142.333	-14.761	-36.077
   17.500000000	-10.999	-92.537	 -8.891	-152.600	 -8.917	-152.545	-13.498	-45.381
   17.600000000	-11.172	-95.664	 -8.960	-162.772	 -8.984	-162.759	-12.348	-52.830
   17.700000000	-11.639	-98.684	 -9.025	-172.993	 -9.045	-172.943	-11.437	-58.476
   17.800000000	-12.391	-101.788	 -9.075	176.798	 -9.103	176.821	-10.790	-63.108
   17.900000000	-13.593	-104.169	 -9.119	166.470	 -9.147	166.459	-10.368	-66.672
   18.000000000	-15.561	-107.388	 -9.154	156.026	 -9.178	155.984	-10.054	-69.179
   18.100000000	-18.541	-106.836	 -9.186	145.307	 -9.211	145.320	 -9.910	-71.329
   18.200000000	-23.740	-99.311	 -9.223	134.472	 -9.250	134.462	 -9.923	-73.038
   18.300000000	-30.465	-44.617	 -9.278	123.527	 -9.302	123.548	-10.025	-74.028
   18.400000000	-23.653	 17.425	 -9.351	112.462	 -9.382	112.473	-10.200	-75.625
   18.500000000	-18.949	 24.785	 -9.453	101.508	 -9.482	101.526	-10.473	-78.061
   18.600000000	-16.049	 24.748	 -9.589	 90.657	 -9.616	 90.691	-10.912	-81.348
   18.700000000	-14.499	 23.443	 -9.730	 80.253	 -9.763	 80.265	-11.654	-86.282
   18.800000000	-13.741	 23.027	 -9.894	 70.421	 -9.916	 70.411	-12.642	-93.514
   18.900000000	-13.530	 24.286	 -9.969	 61.336	 -9.988	 61.357	-14.170	-103.936
   19.000000000	-13.435	 29.512	 -9.850	 52.556	 -9.877	 52.590	-16.802	-119.374
   19.100000000	-12.956	 34.535	 -9.539	 43.003	 -9.574	 43.075	-20.306	-141.397
   19.200000000	-12.327	 39.464	 -9.176	 32.174	 -9.209	 32.258	-23.760	-175.595
   19.300000000	-11.913	 38.965	 -8.882	 20.172	 -8.917	 20.293	-23.484	135.412
   19.400000000	-11.724	 39.420	 -8.692	  7.742	 -8.727	  7.854	-21.448	108.450
   19.500000000	-12.374	 37.946	 -8.565	 -4.879	 -8.598	 -4.792	-19.501	 89.788
   19.600000000	-12.824	 36.864	 -8.490	-17.593	 -8.521	-17.510	-18.294	 80.090
   19.700000000	-13.861	 36.681	 -8.420	-30.423	 -8.459	-30.345	-17.952	 70.048
   19.800000000	-15.180	 35.452	 -8.367	-43.533	 -8.410	-43.422	-18.167	 63.207
   19.900000000	-17.121	 36.389	 -8.334	-56.947	 -8.372	-56.809	-19.324	 57.257
   20.000000000	-19.038	 39.745	 -8.325	-70.531	 -8.364	-70.429	-21.193	 52.304
