! Date: Wednesday, June 05, 2013  1:50 PM
! Filename: C:\Data\Mike_Arnold\TGP2105-SM\Over_Temp\TGP2105-SM_EVB01_25C_Phase14.s2p 
! Comments: 
!^VDC(V):5.000
!^VDC(mA):0.127
!%Freq(GHz),S11(dB),S11(ang),S21(dB),S21(ang),S12(dB),S12(ang),S22(dB),S22(ang)
# GHz   S   DB   R   50
    5.000000000	 -7.126	108.720	 -7.770	-153.694	 -7.783	-153.705	 -6.229	 99.959
    5.100000000	 -7.878	 95.878	 -7.513	-168.777	 -7.530	-168.799	 -6.337	 92.609
    5.200000000	 -8.995	 82.479	 -7.222	176.071	 -7.239	176.046	 -6.653	 85.371
    5.300000000	-10.566	 67.655	 -6.934	160.746	 -6.951	160.702	 -7.133	 78.861
    5.400000000	-12.874	 50.866	 -6.660	145.145	 -6.675	145.100	 -7.814	 72.944
    5.500000000	-16.480	 29.920	 -6.436	129.403	 -6.454	129.356	 -8.648	 68.325
    5.600000000	-22.228	 -4.350	 -6.275	113.647	 -6.288	113.610	 -9.597	 65.467
    5.700000000	-25.423	-89.418	 -6.196	 98.043	 -6.208	 98.016	-10.475	 63.972
    5.800000000	-19.536	-141.974	 -6.178	 82.758	 -6.192	 82.738	-11.220	 63.691
    5.900000000	-15.677	-165.642	 -6.210	 67.916	 -6.222	 67.886	-11.854	 63.464
    6.000000000	-13.447	177.786	 -6.272	 53.569	 -6.290	 53.499	-12.354	 62.705
    6.100000000	-12.132	164.481	 -6.359	 39.675	 -6.370	 39.640	-12.906	 60.606
    6.200000000	-11.309	152.327	 -6.445	 26.415	 -6.464	 26.410	-13.679	 58.443
    6.300000000	-10.926	140.110	 -6.467	 13.885	 -6.481	 13.847	-14.425	 57.254
    6.400000000	-11.165	129.039	 -6.330	  1.261	 -6.349	  1.244	-14.921	 54.296
    6.500000000	-11.755	120.340	 -6.206	-12.090	 -6.218	-12.119	-15.790	 47.869
    6.600000000	-12.408	113.374	 -6.127	-25.480	 -6.145	-25.525	-17.315	 40.927
    6.700000000	-13.284	106.831	 -6.083	-38.926	 -6.101	-38.931	-19.426	 35.616
    6.800000000	-14.315	101.401	 -6.051	-52.318	 -6.075	-52.275	-22.129	 33.715
    6.900000000	-15.414	 97.731	 -6.051	-65.529	 -6.079	-65.498	-25.352	 39.585
    7.000000000	-16.556	 94.260	 -6.073	-78.629	 -6.095	-78.608	-27.221	 56.841
    7.100000000	-17.721	 92.152	 -6.106	-91.643	 -6.127	-91.549	-26.643	 73.626
    7.200000000	-18.692	 91.325	 -6.147	-104.433	 -6.167	-104.405	-24.805	 79.247
    7.300000000	-19.428	 90.253	 -6.196	-117.143	 -6.220	-117.088	-22.803	 75.679
    7.400000000	-19.937	 88.669	 -6.252	-129.745	 -6.277	-129.674	-21.128	 66.265
    7.500000000	-20.168	 86.306	 -6.314	-142.169	 -6.340	-142.104	-19.748	 55.703
    7.600000000	-19.980	 82.314	 -6.382	-154.497	 -6.405	-154.431	-18.425	 44.832
    7.700000000	-19.605	 76.686	 -6.445	-166.644	 -6.474	-166.602	-17.190	 33.971
    7.800000000	-19.014	 69.868	 -6.511	-178.678	 -6.532	-178.631	-16.160	 23.870
    7.900000000	-18.324	 62.624	 -6.566	169.401	 -6.591	169.476	-15.216	 15.023
    8.000000000	-17.522	 54.211	 -6.624	157.621	 -6.654	157.676	-14.394	  7.076
    8.100000000	-16.832	 46.084	 -6.676	145.924	 -6.704	146.031	-13.777	 -0.834
    8.200000000	-16.207	 37.797	 -6.717	134.345	 -6.746	134.455	-13.389	 -8.170
    8.300000000	-15.715	 29.793	 -6.741	122.868	 -6.769	122.994	-13.169	-14.885
    8.400000000	-15.420	 21.811	 -6.751	111.436	 -6.781	111.495	-13.177	-22.070
    8.500000000	-15.448	 14.616	 -6.746	 99.963	 -6.775	100.058	-13.481	-29.595
    8.600000000	-15.664	  7.758	 -6.725	 88.439	 -6.758	 88.511	-14.138	-37.062
    8.700000000	-16.165	  1.672	 -6.699	 76.782	 -6.727	 76.864	-15.173	-45.607
    8.800000000	-17.051	 -3.826	 -6.672	 65.011	 -6.703	 65.089	-16.704	-55.717
    8.900000000	-18.342	 -7.581	 -6.652	 53.168	 -6.684	 53.238	-19.087	-68.570
    9.000000000	-19.836	 -8.833	 -6.646	 41.217	 -6.680	 41.309	-22.081	-87.753
    9.100000000	-21.548	 -7.694	 -6.661	 29.226	 -6.692	 29.309	-25.557	-122.878
    9.200000000	-23.337	 -3.596	 -6.692	 17.243	 -6.720	 17.339	-25.052	-174.384
    9.300000000	-24.934	  2.011	 -6.738	  5.299	 -6.767	  5.384	-22.132	155.027
    9.400000000	-26.309	  4.783	 -6.793	 -6.562	 -6.821	 -6.482	-19.379	139.087
    9.500000000	-28.489	 -0.145	 -6.853	-18.320	 -6.885	-18.256	-17.480	131.124
    9.600000000	-31.646	-16.344	 -6.919	-29.998	 -6.953	-29.882	-16.134	125.881
    9.700000000	-33.541	-72.525	 -6.990	-41.616	 -7.020	-41.541	-15.084	122.348
    9.800000000	-28.210	-122.948	 -7.065	-53.161	 -7.090	-53.089	-14.242	121.096
    9.900000000	-23.139	-142.956	 -7.134	-64.674	 -7.168	-64.562	-13.531	120.362
   10.000000000	-22.481	-155.831	 -7.171	-76.349	 -7.204	-76.224	-13.535	118.624
   10.100000000	-19.726	-167.527	 -7.233	-87.787	 -7.267	-87.651	-13.133	117.684
   10.200000000	-17.309	-178.364	 -7.313	-99.211	 -7.345	-99.096	-12.750	115.829
   10.300000000	-15.620	173.109	 -7.393	-110.506	 -7.424	-110.378	-12.351	113.830
   10.400000000	-14.193	164.614	 -7.476	-121.688	 -7.512	-121.605	-12.060	111.120
   10.500000000	-13.088	157.625	 -7.573	-132.832	 -7.605	-132.710	-11.748	106.935
   10.600000000	-12.243	150.266	 -7.664	-143.811	 -7.703	-143.722	-11.614	103.025
   10.700000000	-11.651	143.744	 -7.771	-154.586	 -7.789	-154.643	-11.530	 97.575
   10.800000000	-11.168	137.476	 -7.866	-165.477	 -7.881	-165.478	-11.484	 91.874
   10.900000000	-10.941	131.562	 -7.949	-176.196	 -7.966	-176.233	-11.569	 85.378
   11.000000000	-10.784	125.830	 -8.026	173.090	 -8.043	173.060	-11.631	 78.555
   11.100000000	-10.860	120.263	 -8.093	162.444	 -8.112	162.423	-11.720	 71.222
   11.200000000	-11.007	115.074	 -8.153	151.837	 -8.174	151.785	-11.812	 63.894
   11.300000000	-11.361	110.140	 -8.202	141.237	 -8.217	141.171	-11.866	 56.790
   11.400000000	-11.852	105.284	 -8.241	130.645	 -8.257	130.636	-11.903	 49.879
   11.500000000	-12.525	101.210	 -8.271	120.075	 -8.290	120.009	-11.922	 43.423
   11.600000000	-13.415	 97.375	 -8.300	109.497	 -8.315	109.464	-11.898	 37.622
   11.700000000	-14.565	 94.728	 -8.316	 98.912	 -8.332	 98.849	-11.822	 32.289
   11.800000000	-15.987	 93.888	 -8.329	 88.287	 -8.343	 88.289	-11.750	 27.722
   11.900000000	-17.569	 95.671	 -8.337	 77.751	 -8.353	 77.749	-11.656	 23.772
   12.000000000	-19.418	101.277	 -8.347	 67.197	 -8.369	 67.126	-11.506	 20.447
   12.100000000	-21.011	113.930	 -8.360	 56.601	 -8.378	 56.523	-11.396	 17.122
   12.200000000	-21.395	131.671	 -8.374	 46.036	 -8.395	 45.972	-11.225	 13.944
   12.300000000	-20.447	145.289	 -8.393	 35.511	 -8.408	 35.409	-11.094	 10.929
   12.400000000	-18.961	153.750	 -8.412	 24.922	 -8.430	 24.873	-10.959	  7.659
   12.500000000	-17.553	156.134	 -8.427	 14.380	 -8.446	 14.316	-10.900	  4.241
   12.600000000	-16.277	155.221	 -8.444	  3.869	 -8.463	  3.803	-10.829	  0.662
   12.700000000	-15.447	152.400	 -8.454	 -6.677	 -8.473	 -6.711	-10.858	 -3.300
   12.800000000	-14.703	147.918	 -8.467	-17.190	 -8.481	-17.256	-10.919	 -7.652
   12.900000000	-14.175	142.026	 -8.479	-27.753	 -8.493	-27.790	-11.030	-12.105
   13.000000000	-13.831	135.658	 -8.478	-38.294	 -8.495	-38.338	-11.204	-16.965
   13.100000000	-13.571	128.886	 -8.483	-48.868	 -8.493	-48.891	-11.414	-22.052
   13.200000000	-13.276	121.402	 -8.484	-59.389	 -8.500	-59.450	-11.618	-27.436
   13.300000000	-13.133	113.243	 -8.488	-69.987	 -8.496	-70.029	-11.843	-33.135
   13.400000000	-12.900	105.266	 -8.482	-80.531	 -8.493	-80.584	-12.087	-39.260
   13.500000000	-12.663	 96.889	 -8.476	-91.097	 -8.498	-91.146	-12.278	-44.874
   13.600000000	-12.338	 88.488	 -8.484	-101.686	 -8.494	-101.736	-12.512	-51.034
   13.700000000	-12.067	 80.683	 -8.486	-112.201	 -8.494	-112.290	-12.690	-56.702
   13.800000000	-11.705	 73.517	 -8.490	-122.758	 -8.500	-122.836	-12.952	-62.125
   13.900000000	-11.274	 67.462	 -8.499	-133.369	 -8.509	-133.431	-13.268	-67.190
   14.000000000	-10.860	 61.604	 -8.513	-143.938	 -8.523	-144.010	-13.710	-71.100
   14.100000000	-10.415	 57.413	 -8.533	-154.493	 -8.546	-154.594	-14.250	-73.864
   14.200000000	 -9.947	 53.541	 -8.552	-165.149	 -8.563	-165.222	-14.918	-75.540
   14.300000000	 -9.428	 50.672	 -8.581	-175.789	 -8.592	-175.873	-15.799	-74.855
   14.400000000	 -8.915	 48.188	 -8.617	173.570	 -8.631	173.503	-16.737	-71.408
   14.500000000	 -8.323	 45.932	 -8.665	162.922	 -8.683	162.848	-17.401	-65.128
   14.600000000	 -7.859	 43.847	 -8.716	152.331	 -8.731	152.287	-17.739	-55.939
   14.700000000	 -7.289	 42.028	 -8.789	141.849	 -8.805	141.818	-17.527	-47.331
   14.800000000	 -6.891	 40.122	 -8.848	131.554	 -8.856	131.487	-16.716	-41.072
   14.900000000	 -6.525	 37.661	 -8.910	121.386	 -8.926	121.328	-16.002	-37.389
   15.000000000	 -6.221	 36.118	 -8.959	111.388	 -8.973	111.327	-15.364	-36.872
   15.100000000	 -6.057	 33.787	 -8.998	101.576	 -9.011	101.495	-14.933	-38.559
   15.200000000	 -6.005	 32.052	 -9.006	 91.885	 -9.019	 91.799	-14.801	-42.137
   15.300000000	 -6.033	 30.152	 -8.995	 82.248	 -9.012	 82.188	-15.008	-46.286
   15.400000000	 -6.168	 28.079	 -8.963	 72.624	 -8.984	 72.598	-15.486	-52.270
   15.500000000	 -6.448	 26.330	 -8.910	 63.008	 -8.930	 63.000	-16.259	-59.561
   15.600000000	 -6.794	 24.255	 -8.842	 53.360	 -8.870	 53.325	-17.521	-68.707
   15.700000000	 -7.262	 21.828	 -8.780	 43.601	 -8.799	 43.615	-19.047	-80.743
   15.800000000	 -7.854	 18.849	 -8.701	 33.728	 -8.721	 33.644	-20.708	-97.872
   15.900000000	 -8.494	 15.576	 -8.638	 23.748	 -8.658	 23.717	-22.040	-120.330
   16.000000000	 -9.248	 10.983	 -8.576	 13.614	 -8.592	 13.554	-22.188	-148.889
   16.100000000	-10.101	  4.735	 -8.521	  3.310	 -8.543	  3.319	-20.935	-169.836
   16.200000000	-10.981	 -2.802	 -8.484	 -7.056	 -8.508	 -6.995	-19.542	173.213
   16.300000000	-11.810	-12.558	 -8.464	-17.510	 -8.490	-17.468	-17.938	162.945
   16.400000000	-12.493	-24.386	 -8.451	-27.942	 -8.479	-27.919	-16.753	155.543
   16.500000000	-13.033	-37.899	 -8.452	-38.408	 -8.483	-38.359	-15.749	148.794
   16.600000000	-13.102	-50.884	 -8.455	-48.833	 -8.490	-48.815	-15.020	143.929
   16.700000000	-12.998	-65.026	 -8.469	-59.281	 -8.497	-59.234	-14.586	138.598
   16.800000000	-12.664	-74.010	 -8.479	-69.506	 -8.507	-69.463	-14.023	134.941
   16.900000000	-12.443	-84.358	 -8.469	-79.786	 -8.503	-79.742	-14.453	130.575
   17.000000000	-12.107	-89.665	 -8.469	-89.942	 -8.496	-89.894	-14.624	123.732
   17.100000000	-12.227	-96.445	 -8.441	-100.094	 -8.471	-100.039	-15.530	119.785
   17.200000000	-11.934	-99.685	 -8.421	-110.333	 -8.453	-110.277	-16.799	109.538
   17.300000000	-12.323	-101.477	 -8.385	-120.478	 -8.420	-120.432	-18.263	100.244
   17.400000000	-12.474	-102.894	 -8.367	-130.742	 -8.389	-130.695	-20.637	 85.672
   17.500000000	-12.998	-103.368	 -8.334	-141.063	 -8.361	-141.020	-22.865	 62.462
   17.600000000	-13.605	-103.179	 -8.311	-151.514	 -8.339	-151.475	-23.838	 28.257
   17.700000000	-14.469	-102.090	 -8.301	-162.047	 -8.323	-162.027	-22.331	 -1.226
   17.800000000	-15.553	-99.930	 -8.295	-172.723	 -8.326	-172.694	-20.383	-18.135
   17.900000000	-17.006	-95.129	 -8.303	176.508	 -8.332	176.526	-18.792	-26.839
   18.000000000	-19.140	-87.920	 -8.318	165.584	 -8.349	165.609	-17.398	-31.217
   18.100000000	-21.207	-69.573	 -8.353	154.516	 -8.376	154.549	-16.430	-33.058
   18.200000000	-22.052	-40.665	 -8.386	143.430	 -8.420	143.403	-15.705	-32.998
   18.300000000	-20.363	-17.143	 -8.462	132.247	 -8.493	132.238	-14.961	-31.634
   18.400000000	-17.895	 -2.837	 -8.546	121.029	 -8.577	121.032	-14.399	-31.047
   18.500000000	-16.079	  2.155	 -8.655	109.943	 -8.683	109.913	-14.040	-31.142
   18.600000000	-14.678	  3.930	 -8.787	 99.026	 -8.815	 99.043	-13.902	-31.723
   18.700000000	-14.025	  4.215	 -8.928	 88.423	 -8.950	 88.474	-14.255	-32.350
   18.800000000	-13.944	  4.874	 -9.055	 78.266	 -9.090	 78.312	-15.086	-33.536
   18.900000000	-14.387	  6.898	 -9.125	 68.680	 -9.160	 68.691	-16.772	-32.223
   19.000000000	-15.136	 13.474	 -9.055	 59.309	 -9.090	 59.301	-19.323	-18.236
   19.100000000	-15.505	 22.460	 -8.835	 49.233	 -8.875	 49.346	-19.800	  8.846
   19.200000000	-15.531	 34.740	 -8.593	 38.082	 -8.627	 38.209	-17.829	 25.876
   19.300000000	-15.296	 41.612	 -8.421	 26.112	 -8.458	 26.218	-15.637	 33.909
   19.400000000	-14.757	 50.459	 -8.355	 13.802	 -8.390	 13.914	-14.214	 33.817
   19.500000000	-14.876	 56.760	 -8.348	  1.511	 -8.381	  1.602	-12.993	 31.100
   19.600000000	-14.249	 60.542	 -8.384	-10.774	 -8.418	-10.676	-12.348	 27.552
   19.700000000	-13.967	 64.022	 -8.418	-23.041	 -8.450	-22.938	-11.889	 21.162
   19.800000000	-13.876	 63.922	 -8.442	-35.461	 -8.481	-35.376	-11.784	 14.122
   19.900000000	-14.065	 63.493	 -8.477	-48.069	 -8.514	-47.933	-11.945	  4.881
   20.000000000	-14.273	 60.707	 -8.515	-60.858	 -8.551	-60.772	-12.230	 -5.637
