! Date: Wednesday, June 05, 2013  1:51 PM
! Filename: C:\Data\Mike_Arnold\TGP2105-SM\Over_Temp\TGP2105-SM_EVB01_25C_Phase33.s2p 
! Comments: 
!^VDC(V):5.000
!^VDC(mA):0.022
!%Freq(GHz),S11(dB),S11(ang),S21(dB),S21(ang),S12(dB),S12(ang),S22(dB),S22(ang)
# GHz   S   DB   R   50
    5.000000000	-14.378	-121.289	 -9.020	-55.648	 -9.041	-55.712	 -5.540	102.054
    5.100000000	-11.041	-142.670	 -9.202	-71.493	 -9.213	-71.537	 -5.520	 97.659
    5.200000000	 -8.833	-159.462	 -9.417	-86.578	 -9.433	-86.608	 -5.489	 92.925
    5.300000000	 -7.368	-173.898	 -9.639	-100.777	 -9.656	-100.840	 -5.427	 87.961
    5.400000000	 -6.375	173.353	 -9.814	-114.239	 -9.832	-114.275	 -5.424	 82.320
    5.500000000	 -5.681	162.071	 -9.923	-126.941	 -9.939	-126.933	 -5.470	 76.424
    5.600000000	 -5.195	151.509	 -9.906	-139.303	 -9.922	-139.340	 -5.576	 70.485
    5.700000000	 -4.879	141.637	 -9.826	-151.870	 -9.831	-151.921	 -5.674	 63.720
    5.800000000	 -4.696	132.444	 -9.704	-164.351	 -9.716	-164.390	 -5.880	 55.946
    5.900000000	 -4.587	123.602	 -9.539	-176.659	 -9.548	-176.701	 -6.264	 47.251
    6.000000000	 -4.591	114.847	 -9.306	170.985	 -9.319	170.912	 -6.789	 37.870
    6.100000000	 -4.730	106.175	 -9.021	158.402	 -9.041	158.378	 -7.489	 27.479
    6.200000000	 -4.956	 97.873	 -8.708	145.646	 -8.718	145.616	 -8.412	 15.941
    6.300000000	 -5.245	 89.604	 -8.378	132.583	 -8.390	132.532	 -9.549	  3.281
    6.400000000	 -5.658	 81.141	 -8.049	119.105	 -8.061	119.074	-10.906	-10.840
    6.500000000	 -6.172	 72.942	 -7.741	105.462	 -7.753	105.454	-12.515	-26.951
    6.600000000	 -6.739	 65.076	 -7.455	 91.623	 -7.470	 91.588	-14.360	-45.068
    6.700000000	 -7.365	 56.761	 -7.216	 77.670	 -7.232	 77.596	-16.342	-65.380
    6.800000000	 -8.042	 48.359	 -6.999	 63.521	 -7.026	 63.568	-18.291	-88.659
    6.900000000	 -8.780	 40.089	 -6.834	 49.550	 -6.862	 49.592	-20.149	-114.267
    7.000000000	 -9.499	 31.367	 -6.699	 35.616	 -6.730	 35.650	-21.988	-140.556
    7.100000000	-10.251	 22.432	 -6.590	 21.805	 -6.618	 21.815	-23.865	-167.925
    7.200000000	-11.028	 13.563	 -6.506	  8.061	 -6.532	  8.087	-25.834	162.026
    7.300000000	-11.782	  4.803	 -6.443	 -5.582	 -6.467	 -5.502	-27.387	123.819
    7.400000000	-12.516	 -3.693	 -6.394	-19.051	 -6.421	-19.009	-27.369	 79.018
    7.500000000	-13.235	-11.840	 -6.362	-32.412	 -6.392	-32.354	-25.478	 41.592
    7.600000000	-13.911	-18.908	 -6.345	-45.597	 -6.374	-45.562	-23.070	 16.144
    7.700000000	-14.549	-25.350	 -6.344	-58.649	 -6.365	-58.577	-20.979	 -2.620
    7.800000000	-15.175	-30.959	 -6.335	-71.527	 -6.361	-71.476	-19.486	-17.929
    7.900000000	-15.859	-35.945	 -6.335	-84.315	 -6.360	-84.257	-18.516	-30.389
    8.000000000	-16.545	-39.799	 -6.338	-96.950	 -6.365	-96.884	-18.006	-41.200
    8.100000000	-17.387	-42.949	 -6.340	-109.509	 -6.369	-109.421	-17.927	-52.353
    8.200000000	-18.385	-45.081	 -6.342	-121.961	 -6.374	-121.900	-18.396	-63.806
    8.300000000	-19.600	-45.093	 -6.351	-134.372	 -6.381	-134.283	-19.493	-75.656
    8.400000000	-20.820	-42.558	 -6.367	-146.761	 -6.393	-146.681	-21.130	-90.069
    8.500000000	-22.175	-36.800	 -6.392	-159.106	 -6.418	-158.991	-23.471	-110.608
    8.600000000	-22.900	-27.505	 -6.424	-171.365	 -6.452	-171.287	-26.060	-144.282
    8.700000000	-22.899	-18.970	 -6.468	176.449	 -6.499	176.506	-25.889	172.256
    8.800000000	-22.561	-15.748	 -6.516	164.318	 -6.546	164.385	-23.339	141.904
    8.900000000	-22.371	-16.963	 -6.575	152.289	 -6.603	152.379	-20.611	124.630
    9.000000000	-22.484	-23.513	 -6.628	140.326	 -6.652	140.379	-18.748	115.031
    9.100000000	-23.049	-36.335	 -6.677	128.384	 -6.711	128.470	-17.256	108.873
    9.200000000	-24.151	-58.641	 -6.737	116.505	 -6.770	116.604	-15.993	106.542
    9.300000000	-24.686	-91.313	 -6.797	104.632	 -6.826	104.719	-15.012	104.686
    9.400000000	-23.133	-127.268	 -6.867	 92.806	 -6.901	 92.880	-14.008	104.221
    9.500000000	-20.226	-154.870	 -6.956	 81.031	 -6.985	 81.109	-13.104	104.374
    9.600000000	-17.668	-174.184	 -7.060	 69.385	 -7.091	 69.460	-12.226	103.775
    9.700000000	-15.566	171.936	 -7.175	 57.899	 -7.202	 58.002	-11.375	102.275
    9.800000000	-13.932	160.349	 -7.292	 46.639	 -7.321	 46.690	-10.704	100.720
    9.900000000	-12.752	150.226	 -7.410	 35.604	 -7.445	 35.657	-10.167	 98.304
   10.000000000	-12.510	135.318	 -7.495	 23.987	 -7.527	 24.062	-10.036	 94.780
   10.100000000	-11.996	125.050	 -7.592	 13.065	 -7.631	 13.134	 -9.847	 91.037
   10.200000000	-11.565	116.198	 -7.682	  2.279	 -7.717	  2.393	 -9.723	 86.509
   10.300000000	-11.473	107.366	 -7.763	 -8.371	 -7.799	 -8.232	 -9.714	 82.089
   10.400000000	-11.511	 99.214	 -7.824	-18.927	 -7.861	-18.789	 -9.836	 77.100
   10.500000000	-11.851	 91.720	 -7.871	-29.348	 -7.910	-29.246	 -9.935	 71.762
   10.600000000	-12.359	 84.174	 -7.909	-39.824	 -7.947	-39.751	-10.229	 66.536
   10.700000000	-13.188	 76.663	 -7.948	-50.197	 -7.964	-50.214	-10.499	 60.716
   10.800000000	-14.308	 69.915	 -7.968	-60.706	 -7.989	-60.723	-10.785	 55.006
   10.900000000	-15.945	 62.319	 -7.978	-71.279	 -7.999	-71.315	-11.083	 48.740
   11.000000000	-18.198	 55.882	 -8.000	-81.889	 -8.018	-81.925	-11.318	 42.806
   11.100000000	-21.688	 47.562	 -8.015	-92.558	 -8.040	-92.607	-11.463	 36.634
   11.200000000	-28.394	 40.953	 -8.045	-103.298	 -8.069	-103.316	-11.554	 30.703
   11.300000000	-40.747	-137.876	 -8.079	-114.037	 -8.101	-114.068	-11.554	 25.113
   11.400000000	-24.947	-151.438	 -8.124	-124.793	 -8.149	-124.833	-11.464	 19.674
   11.500000000	-19.523	-159.378	 -8.189	-135.524	 -8.205	-135.575	-11.329	 14.250
   11.600000000	-16.356	-166.775	 -8.257	-146.190	 -8.274	-146.263	-11.142	  9.102
   11.700000000	-14.091	-173.777	 -8.334	-156.850	 -8.356	-156.869	-10.935	  3.936
   11.800000000	-12.388	179.095	 -8.422	-167.385	 -8.445	-167.413	-10.753	 -1.160
   11.900000000	-11.083	171.641	 -8.508	-177.809	 -8.531	-177.856	-10.614	 -6.181
   12.000000000	-10.122	164.598	 -8.600	171.830	 -8.622	171.798	-10.522	-11.120
   12.100000000	 -9.339	157.667	 -8.687	161.586	 -8.697	161.523	-10.519	-16.542
   12.200000000	 -8.735	150.825	 -8.766	151.443	 -8.783	151.329	-10.560	-21.887
   12.300000000	 -8.308	143.693	 -8.831	141.291	 -8.849	141.214	-10.720	-27.435
   12.400000000	 -7.998	136.908	 -8.895	131.202	 -8.904	131.121	-10.950	-33.179
   12.500000000	 -7.781	129.792	 -8.940	121.120	 -8.951	121.007	-11.308	-39.338
   12.600000000	 -7.621	122.723	 -8.984	111.027	 -8.994	110.924	-11.748	-45.645
   12.700000000	 -7.576	115.281	 -9.007	100.828	 -9.023	100.764	-12.309	-52.569
   12.800000000	 -7.536	107.799	 -9.030	 90.665	 -9.039	 90.580	-12.928	-59.995
   12.900000000	 -7.508	 99.979	 -9.040	 80.430	 -9.057	 80.355	-13.648	-67.924
   13.000000000	 -7.517	 91.965	 -9.051	 70.148	 -9.066	 70.084	-14.458	-76.729
   13.100000000	 -7.533	 83.895	 -9.061	 59.838	 -9.077	 59.782	-15.315	-86.259
   13.200000000	 -7.497	 75.912	 -9.069	 49.577	 -9.088	 49.469	-16.191	-96.391
   13.300000000	 -7.448	 67.560	 -9.073	 39.250	 -9.093	 39.232	-17.117	-107.371
   13.400000000	 -7.381	 59.644	 -9.085	 29.033	 -9.096	 28.962	-18.031	-119.256
   13.500000000	 -7.278	 51.832	 -9.083	 18.763	 -9.093	 18.674	-19.144	-130.794
   13.600000000	 -7.129	 44.375	 -9.092	  8.495	 -9.105	  8.434	-20.296	-143.914
   13.700000000	 -7.009	 37.222	 -9.100	 -1.730	 -9.110	 -1.780	-21.835	-157.148
   13.800000000	 -6.857	 30.757	 -9.115	-11.901	 -9.120	-11.994	-23.908	-174.693
   13.900000000	 -6.719	 25.127	 -9.116	-22.058	 -9.127	-22.126	-26.668	161.357
   14.000000000	 -6.560	 19.629	 -9.132	-32.215	 -9.142	-32.317	-28.827	117.755
   14.100000000	 -6.444	 14.970	 -9.148	-42.307	 -9.152	-42.388	-27.042	 67.623
   14.200000000	 -6.324	 10.517	 -9.160	-52.421	 -9.169	-52.478	-23.411	 38.933
   14.300000000	 -6.234	  6.651	 -9.177	-62.459	 -9.183	-62.497	-20.306	 22.479
   14.400000000	 -6.197	  3.025	 -9.170	-72.408	 -9.196	-72.473	-17.997	 10.897
   14.500000000	 -6.166	 -0.169	 -9.179	-82.318	 -9.192	-82.418	-16.331	  0.451
   14.600000000	 -6.256	 -3.669	 -9.160	-92.178	 -9.174	-92.270	-15.088	 -7.423
   14.700000000	 -6.376	 -6.204	 -9.121	-102.001	 -9.138	-102.050	-14.319	-14.874
   14.800000000	 -6.633	 -9.258	 -9.061	-111.814	 -9.075	-111.882	-13.793	-22.009
   14.900000000	 -6.910	-12.184	 -8.978	-121.630	 -8.996	-121.679	-13.681	-28.051
   15.000000000	 -7.404	-14.282	 -8.866	-131.480	 -8.882	-131.558	-13.921	-34.268
   15.100000000	 -7.949	-17.056	 -8.742	-141.464	 -8.759	-141.524	-14.470	-40.283
   15.200000000	 -8.714	-19.409	 -8.600	-151.577	 -8.618	-151.633	-15.452	-46.421
   15.300000000	 -9.569	-21.615	 -8.464	-161.818	 -8.476	-161.865	-16.899	-51.888
   15.400000000	-10.525	-24.161	 -8.330	-172.172	 -8.342	-172.284	-18.964	-58.196
   15.500000000	-11.741	-26.843	 -8.200	177.253	 -8.224	177.240	-21.904	-65.189
   15.600000000	-12.996	-30.088	 -8.102	166.634	 -8.120	166.624	-27.063	-76.590
   15.700000000	-14.354	-35.198	 -8.021	155.959	 -8.042	155.956	-37.259	-123.323
   15.800000000	-15.727	-43.344	 -7.964	145.161	 -7.979	145.125	-30.262	136.785
   15.900000000	-17.046	-54.032	 -7.932	134.362	 -7.949	134.311	-24.051	120.388
   16.000000000	-17.850	-69.617	 -7.921	123.496	 -7.944	123.453	-20.226	113.973
   16.100000000	-17.804	-87.839	 -7.927	112.595	 -7.960	112.607	-18.020	109.473
   16.200000000	-17.152	-104.435	 -7.957	101.762	 -7.989	101.809	-16.233	103.498
   16.300000000	-16.056	-117.598	 -7.996	 90.976	 -8.028	 91.012	-15.012	 99.073
   16.400000000	-14.929	-127.447	 -8.039	 80.254	 -8.073	 80.295	-14.191	 93.216
   16.500000000	-13.903	-135.622	 -8.089	 69.588	 -8.116	 69.646	-13.555	 86.814
   16.600000000	-13.244	-141.041	 -8.121	 58.973	 -8.147	 59.058	-13.353	 79.622
   16.700000000	-12.502	-146.075	 -8.151	 48.394	 -8.184	 48.460	-13.295	 70.993
   16.800000000	-12.432	-149.491	 -8.163	 37.961	 -8.193	 38.029	-13.621	 63.950
   16.900000000	-12.104	-153.570	 -8.169	 27.452	 -8.197	 27.494	-14.222	 50.482
   17.000000000	-12.317	-155.876	 -8.154	 17.038	 -8.186	 17.083	-14.537	 38.567
   17.100000000	-12.446	-161.495	 -8.139	  6.534	 -8.173	  6.618	-15.259	 22.481
   17.200000000	-12.868	-163.722	 -8.124	 -3.930	 -8.153	 -3.887	-15.033	  6.058
   17.300000000	-13.898	-170.586	 -8.090	-14.415	 -8.128	-14.374	-14.907	 -8.403
   17.400000000	-15.039	-176.979	 -8.071	-24.964	 -8.097	-24.894	-14.287	-22.754
   17.500000000	-16.789	171.036	 -8.056	-35.538	 -8.079	-35.498	-13.540	-33.097
   17.600000000	-19.025	152.315	 -8.042	-46.239	 -8.072	-46.213	-12.688	-41.217
   17.700000000	-20.916	119.065	 -8.048	-56.991	 -8.068	-56.991	-11.873	-46.655
   17.800000000	-20.159	 78.045	 -8.061	-67.832	 -8.089	-67.810	-11.179	-50.824
   17.900000000	-17.306	 48.195	 -8.100	-78.739	 -8.123	-78.754	-10.589	-53.833
   18.000000000	-14.618	 32.001	 -8.150	-89.578	 -8.174	-89.517	-10.015	-56.325
   18.100000000	-12.481	 19.681	 -8.204	-100.383	 -8.233	-100.346	 -9.591	-58.813
   18.200000000	-10.969	 11.067	 -8.267	-111.047	 -8.284	-111.020	 -9.354	-61.444
   18.300000000	 -9.977	  3.321	 -8.302	-121.566	 -8.329	-121.569	 -9.257	-63.620
   18.400000000	 -9.286	 -2.396	 -8.322	-132.017	 -8.342	-132.042	 -9.348	-66.445
   18.500000000	 -9.008	 -7.889	 -8.296	-142.514	 -8.321	-142.483	 -9.647	-69.550
   18.600000000	 -8.955	-12.390	 -8.246	-152.990	 -8.272	-152.967	-10.187	-72.553
   18.700000000	 -9.253	-16.321	 -8.155	-163.580	 -8.183	-163.568	-11.038	-75.488
   18.800000000	 -9.858	-19.523	 -8.046	-174.315	 -8.072	-174.331	-12.066	-78.284
   18.900000000	-10.776	-22.357	 -7.927	174.659	 -7.949	174.682	-13.350	-81.029
   19.000000000	-12.125	-24.004	 -7.809	163.404	 -7.836	163.401	-15.098	-83.116
   19.100000000	-13.754	-25.062	 -7.715	151.875	 -7.750	151.948	-16.927	-84.808
   19.200000000	-16.477	-23.709	 -7.655	140.287	 -7.687	140.340	-18.601	-86.715
   19.300000000	-19.690	-21.091	 -7.616	128.518	 -7.649	128.606	-20.961	-92.397
   19.400000000	-25.253	  2.539	 -7.603	116.598	 -7.638	116.679	-22.425	-103.459
   19.500000000	-29.267	 68.353	 -7.626	104.499	 -7.663	104.602	-23.882	-121.217
   19.600000000	-22.475	 98.247	 -7.677	 92.278	 -7.715	 92.385	-23.441	-149.705
   19.700000000	-18.497	105.219	 -7.766	 79.968	 -7.801	 80.096	-21.787	-171.184
   19.800000000	-16.243	102.885	 -7.891	 67.547	 -7.924	 67.651	-19.506	171.198
   19.900000000	-14.800	 98.792	 -8.032	 55.130	 -8.064	 55.231	-17.536	160.094
   20.000000000	-13.896	 90.757	 -8.189	 42.725	 -8.227	 42.846	-16.112	150.742
