! Date: Wednesday, June 05, 2013  1:53 PM
! Filename: C:\Data\Mike_Arnold\TGP2105-SM\Over_Temp\TGP2105-SM_EVB01_25C_Phase63.s2p 
! Comments: 
!^VDC(V):5.000
!^VDC(mA):0.137
!%Freq(GHz),S11(dB),S11(ang),S21(dB),S21(ang),S12(dB),S12(ang),S22(dB),S22(ang)
# GHz   S   DB   R   50
    5.000000000	-11.275	100.509	 -7.136	143.216	 -7.149	143.167	-10.293	-171.114
    5.100000000	-12.890	 99.144	 -6.911	124.774	 -6.925	124.736	 -9.937	-171.804
    5.200000000	-14.114	100.468	 -6.769	107.034	 -6.790	107.014	 -9.327	-174.930
    5.300000000	-14.943	101.601	 -6.693	 89.957	 -6.706	 89.964	 -8.714	179.197
    5.400000000	-15.710	101.250	 -6.645	 73.642	 -6.658	 73.609	 -8.278	172.061
    5.500000000	-16.705	101.617	 -6.590	 58.019	 -6.603	 57.959	 -8.045	164.170
    5.600000000	-17.486	103.222	 -6.497	 42.951	 -6.512	 42.904	 -8.016	156.367
    5.700000000	-18.316	102.189	 -6.349	 27.783	 -6.359	 27.793	 -8.244	148.980
    5.800000000	-20.434	100.982	 -6.216	 12.508	 -6.228	 12.507	 -8.630	142.857
    5.900000000	-23.670	113.856	 -6.141	 -2.612	 -6.153	 -2.651	 -9.124	138.112
    6.000000000	-24.605	149.866	 -6.101	-17.543	 -6.115	-17.566	 -9.625	134.424
    6.100000000	-21.082	174.694	 -6.088	-32.169	 -6.095	-32.220	-10.127	131.958
    6.200000000	-17.335	178.305	 -6.088	-46.492	 -6.100	-46.507	-10.515	130.669
    6.300000000	-14.751	172.997	 -6.118	-60.517	 -6.130	-60.525	-10.747	129.272
    6.400000000	-13.041	165.711	 -6.147	-74.197	 -6.157	-74.200	-10.856	127.035
    6.500000000	-11.815	157.432	 -6.171	-87.600	 -6.182	-87.604	-10.963	123.884
    6.600000000	-10.925	148.172	 -6.187	-100.645	 -6.205	-100.687	-11.056	119.601
    6.700000000	-10.456	138.441	 -6.171	-113.597	 -6.186	-113.589	-11.251	113.523
    6.800000000	-10.239	128.637	 -6.120	-126.468	 -6.143	-126.425	-11.623	106.024
    6.900000000	-10.213	118.751	 -6.064	-139.258	 -6.089	-139.220	-12.164	 97.427
    7.000000000	-10.404	108.274	 -5.997	-152.100	 -6.020	-152.049	-12.889	 86.956
    7.100000000	-10.755	 97.661	 -5.920	-164.963	 -5.948	-164.901	-13.834	 74.778
    7.200000000	-11.213	 86.958	 -5.854	-177.862	 -5.876	-177.807	-14.901	 60.684
    7.300000000	-11.735	 75.977	 -5.792	169.212	 -5.813	169.259	-15.952	 44.710
    7.400000000	-12.303	 64.677	 -5.739	156.310	 -5.762	156.357	-16.872	 26.432
    7.500000000	-12.882	 53.408	 -5.705	143.410	 -5.726	143.474	-17.565	  6.831
    7.600000000	-13.353	 42.159	 -5.678	130.652	 -5.700	130.687	-17.907	-11.762
    7.700000000	-13.769	 31.072	 -5.662	117.971	 -5.687	118.009	-17.976	-28.802
    7.800000000	-14.133	 20.614	 -5.651	105.369	 -5.673	105.432	-18.045	-44.293
    7.900000000	-14.507	 10.757	 -5.644	 92.896	 -5.667	 92.985	-18.300	-57.384
    8.000000000	-14.823	  1.421	 -5.634	 80.545	 -5.658	 80.609	-18.905	-68.820
    8.100000000	-15.295	 -7.242	 -5.629	 68.223	 -5.659	 68.295	-19.807	-80.223
    8.200000000	-15.877	-14.894	 -5.626	 55.969	 -5.656	 56.050	-21.439	-92.532
    8.300000000	-16.643	-21.186	 -5.629	 43.791	 -5.655	 43.882	-24.182	-107.104
    8.400000000	-17.564	-26.319	 -5.633	 31.653	 -5.662	 31.716	-28.336	-130.432
    8.500000000	-18.877	-29.967	 -5.649	 19.578	 -5.671	 19.643	-32.468	170.697
    8.600000000	-20.277	-30.872	 -5.665	  7.566	 -5.697	  7.623	-27.995	108.832
    8.700000000	-21.739	-29.259	 -5.695	 -4.385	 -5.725	 -4.327	-23.664	 85.664
    8.800000000	-23.219	-27.235	 -5.719	-16.269	 -5.751	-16.217	-20.957	 72.070
    8.900000000	-24.739	-24.323	 -5.758	-28.038	 -5.783	-27.977	-19.201	 63.164
    9.000000000	-26.326	-22.686	 -5.786	-39.760	 -5.810	-39.687	-18.345	 54.536
    9.100000000	-28.531	-25.586	 -5.810	-51.397	 -5.838	-51.327	-17.974	 47.743
    9.200000000	-33.015	-40.700	 -5.831	-62.991	 -5.855	-62.917	-18.350	 43.353
    9.300000000	-39.096	-108.685	 -5.850	-74.571	 -5.875	-74.520	-19.151	 39.241
    9.400000000	-31.336	-173.018	 -5.868	-86.171	 -5.898	-86.075	-20.513	 38.977
    9.500000000	-25.441	171.039	 -5.896	-97.719	 -5.926	-97.642	-22.686	 43.342
    9.600000000	-21.940	160.374	 -5.926	-109.219	 -5.957	-109.154	-24.862	 55.699
    9.700000000	-19.628	153.569	 -5.969	-120.643	 -5.999	-120.589	-25.826	 77.290
    9.800000000	-17.960	147.316	 -6.011	-131.973	 -6.048	-131.898	-25.297	100.341
    9.900000000	-16.934	141.614	 -6.067	-143.186	 -6.093	-143.094	-23.963	113.719
   10.000000000	-17.182	128.654	 -6.103	-154.518	 -6.128	-154.436	-24.922	122.597
   10.100000000	-16.990	122.843	 -6.137	-165.629	 -6.169	-165.515	-24.847	129.704
   10.200000000	-16.807	119.819	 -6.174	-176.622	 -6.200	-176.542	-25.274	134.385
   10.300000000	-17.040	117.594	 -6.206	172.420	 -6.240	172.497	-25.943	145.013
   10.400000000	-17.162	117.786	 -6.245	161.488	 -6.274	161.555	-26.697	162.483
   10.500000000	-17.383	120.541	 -6.274	150.648	 -6.299	150.683	-26.316	-179.322
   10.600000000	-17.276	124.141	 -6.314	139.759	 -6.345	139.832	-24.053	-160.736
   10.700000000	-17.018	128.206	 -6.364	128.993	 -6.381	128.972	-21.890	-151.494
   10.800000000	-16.358	131.819	 -6.412	118.134	 -6.425	118.117	-19.748	-149.126
   10.900000000	-15.724	133.933	 -6.467	107.347	 -6.482	107.334	-18.046	-149.259
   11.000000000	-14.924	134.364	 -6.522	 96.573	 -6.543	 96.524	-16.724	-152.219
   11.100000000	-14.363	133.591	 -6.581	 85.837	 -6.602	 85.815	-15.773	-156.332
   11.200000000	-13.778	131.936	 -6.644	 75.123	 -6.661	 75.093	-15.020	-161.432
   11.300000000	-13.394	129.657	 -6.705	 64.456	 -6.726	 64.432	-14.505	-167.539
   11.400000000	-13.120	126.655	 -6.763	 53.798	 -6.784	 53.768	-14.156	-174.020
   11.500000000	-12.976	123.676	 -6.822	 43.198	 -6.841	 43.132	-13.944	179.034
   11.600000000	-12.991	120.094	 -6.877	 32.593	 -6.899	 32.552	-13.814	171.747
   11.700000000	-13.179	116.628	 -6.931	 22.001	 -6.954	 21.973	-13.763	164.171
   11.800000000	-13.506	113.330	 -6.984	 11.398	 -6.998	 11.429	-13.705	156.591
   11.900000000	-13.954	109.699	 -7.030	  0.855	 -7.045	  0.814	-13.624	149.093
   12.000000000	-14.697	106.160	 -7.081	 -9.717	 -7.098	 -9.736	-13.497	141.725
   12.100000000	-15.712	103.423	 -7.123	-20.322	 -7.146	-20.390	-13.342	135.272
   12.200000000	-17.017	102.146	 -7.179	-30.972	 -7.192	-31.001	-13.137	129.099
   12.300000000	-18.632	102.087	 -7.229	-41.637	 -7.248	-41.697	-12.847	123.451
   12.400000000	-20.739	107.238	 -7.282	-52.326	 -7.302	-52.397	-12.534	118.361
   12.500000000	-22.767	119.602	 -7.342	-63.086	 -7.360	-63.120	-12.191	113.847
   12.600000000	-23.400	140.712	 -7.413	-73.850	 -7.426	-73.900	-11.817	109.397
   12.700000000	-22.237	159.620	 -7.477	-84.654	 -7.496	-84.725	-11.438	105.450
   12.800000000	-20.012	167.757	 -7.551	-95.492	 -7.567	-95.524	-11.102	101.516
   12.900000000	-18.049	167.999	 -7.629	-106.335	 -7.646	-106.383	-10.791	 97.492
   13.000000000	-16.459	164.634	 -7.704	-117.140	 -7.722	-117.205	-10.535	 93.661
   13.100000000	-15.156	158.773	 -7.787	-127.974	 -7.799	-128.020	-10.339	 89.709
   13.200000000	-14.019	150.968	 -7.865	-138.798	 -7.879	-138.844	-10.195	 85.653
   13.300000000	-13.168	142.045	 -7.938	-149.576	 -7.953	-149.635	-10.129	 81.542
   13.400000000	-12.346	132.598	 -8.004	-160.350	 -8.022	-160.418	-10.136	 77.395
   13.500000000	-11.600	122.349	 -8.084	-171.203	 -8.098	-171.284	-10.160	 72.598
   13.600000000	-10.886	111.556	 -8.164	177.988	 -8.179	177.875	-10.254	 67.847
   13.700000000	-10.248	101.412	 -8.251	167.195	 -8.259	167.091	-10.392	 62.308
   13.800000000	 -9.590	 91.374	 -8.349	156.382	 -8.351	156.303	-10.513	 56.620
   13.900000000	 -8.932	 82.150	 -8.444	145.642	 -8.463	145.545	-10.672	 50.105
   14.000000000	 -8.351	 72.926	 -8.559	134.993	 -8.574	134.890	-10.804	 43.325
   14.100000000	 -7.811	 65.005	 -8.687	124.399	 -8.692	124.327	-10.960	 35.811
   14.200000000	 -7.346	 57.463	 -8.797	113.998	 -8.806	113.909	-11.165	 28.317
   14.300000000	 -6.941	 50.894	 -8.906	103.696	 -8.914	103.599	-11.376	 21.057
   14.400000000	 -6.646	 45.031	 -9.006	 93.515	 -9.014	 93.403	-11.628	 14.240
   14.500000000	 -6.370	 39.952	 -9.084	 83.374	 -9.100	 83.290	-12.010	  7.239
   14.600000000	 -6.283	 35.511	 -9.134	 73.365	 -9.149	 73.307	-12.466	  1.797
   14.700000000	 -6.166	 32.189	 -9.167	 63.382	 -9.179	 63.304	-13.167	 -2.705
   14.800000000	 -6.229	 29.451	 -9.158	 53.439	 -9.170	 53.306	-13.963	 -5.926
   14.900000000	 -6.302	 27.056	 -9.135	 43.384	 -9.145	 43.300	-15.053	 -5.952
   15.000000000	 -6.426	 26.223	 -9.085	 33.303	 -9.101	 33.220	-16.321	 -2.738
   15.100000000	 -6.605	 25.226	 -9.029	 23.144	 -9.043	 23.052	-17.426	  5.393
   15.200000000	 -6.823	 25.268	 -8.972	 12.928	 -8.987	 12.833	-18.016	 18.122
   15.300000000	 -7.011	 25.439	 -8.919	  2.612	 -8.929	  2.529	-17.454	 31.912
   15.400000000	 -7.217	 25.397	 -8.864	 -7.703	 -8.885	 -7.833	-16.267	 41.258
   15.500000000	 -7.478	 25.583	 -8.827	-18.063	 -8.845	-18.100	-14.908	 45.728
   15.600000000	 -7.737	 25.040	 -8.792	-28.347	 -8.812	-28.397	-13.718	 47.732
   15.700000000	 -8.081	 23.754	 -8.774	-38.614	 -8.786	-38.676	-12.798	 47.256
   15.800000000	 -8.565	 21.496	 -8.743	-48.963	 -8.759	-48.986	-12.185	 45.757
   15.900000000	 -9.104	 18.680	 -8.722	-59.302	 -8.737	-59.340	-11.775	 43.476
   16.000000000	 -9.809	 14.322	 -8.689	-69.677	 -8.712	-69.754	-11.586	 41.522
   16.100000000	-10.657	  8.347	 -8.661	-80.295	 -8.693	-80.291	-11.651	 38.203
   16.200000000	-11.574	  1.264	 -8.645	-90.934	 -8.670	-90.909	-11.738	 35.017
   16.300000000	-12.482	 -7.881	 -8.624	-101.707	 -8.652	-101.689	-12.125	 31.251
   16.400000000	-13.253	-18.862	 -8.615	-112.632	 -8.643	-112.594	-12.619	 26.243
   16.500000000	-13.873	-31.427	 -8.618	-123.565	 -8.650	-123.530	-13.235	 20.785
   16.600000000	-13.926	-43.375	 -8.627	-134.547	 -8.656	-134.530	-14.078	 12.992
   16.700000000	-13.771	-56.700	 -8.652	-145.570	 -8.681	-145.571	-14.959	  3.630
   16.800000000	-13.229	-64.593	 -8.673	-156.561	 -8.712	-156.504	-16.541	 -8.500
   16.900000000	-12.727	-74.440	 -8.723	-167.492	 -8.748	-167.490	-17.144	-27.336
   17.000000000	-12.014	-79.814	 -8.759	-178.284	 -8.786	-178.233	-17.991	-44.323
   17.100000000	-11.769	-86.686	 -8.801	170.997	 -8.831	171.057	-17.804	-67.043
   17.200000000	-11.133	-91.501	 -8.843	160.436	 -8.878	160.471	-17.348	-81.775
   17.300000000	-11.147	-94.810	 -8.867	150.009	 -8.896	150.026	-17.046	-97.288
   17.400000000	-11.058	-98.669	 -8.878	139.577	 -8.907	139.625	-16.483	-108.308
   17.500000000	-11.392	-101.884	 -8.867	129.222	 -8.898	129.221	-16.408	-117.359
   17.600000000	-11.907	-104.722	 -8.837	118.820	 -8.865	118.795	-16.635	-124.128
   17.700000000	-12.768	-106.887	 -8.786	108.195	 -8.810	108.184	-17.334	-129.009
   17.800000000	-13.925	-108.185	 -8.718	 97.392	 -8.743	 97.428	-18.500	-133.769
   17.900000000	-15.509	-107.702	 -8.654	 86.411	 -8.675	 86.357	-20.348	-137.861
   18.000000000	-17.817	-106.955	 -8.572	 75.112	 -8.598	 75.097	-23.152	-140.693
   18.100000000	-20.970	-99.848	 -8.502	 63.580	 -8.528	 63.631	-27.692	-145.332
   18.200000000	-25.662	-81.151	 -8.443	 51.946	 -8.472	 51.947	-36.967	-176.324
   18.300000000	-28.558	-28.225	 -8.400	 40.106	 -8.427	 40.122	-31.541	 66.052
   18.400000000	-23.701	 18.101	 -8.371	 28.162	 -8.398	 28.159	-24.350	 55.708
   18.500000000	-19.533	 31.443	 -8.360	 16.221	 -8.394	 16.151	-20.184	 52.908
   18.600000000	-16.337	 35.598	 -8.375	  4.225	 -8.401	  4.215	-17.162	 50.700
   18.700000000	-14.115	 37.018	 -8.402	 -7.680	 -8.427	 -7.640	-14.818	 48.963
   18.800000000	-12.457	 36.731	 -8.437	-19.416	 -8.468	-19.399	-13.102	 45.980
   18.900000000	-11.267	 35.202	 -8.484	-31.005	 -8.508	-31.002	-11.828	 43.055
   19.000000000	-10.451	 33.456	 -8.521	-42.433	 -8.551	-42.439	-10.803	 40.918
   19.100000000	 -9.963	 30.447	 -8.558	-53.788	 -8.594	-53.694	-10.108	 38.296
   19.200000000	 -9.858	 28.754	 -8.559	-64.920	 -8.601	-64.785	 -9.714	 35.275
   19.300000000	-10.053	 24.700	 -8.531	-76.099	 -8.565	-76.039	 -9.482	 33.904
   19.400000000	-10.558	 22.785	 -8.475	-87.536	 -8.508	-87.456	 -9.561	 31.774
   19.500000000	-11.752	 18.781	 -8.407	-99.285	 -8.438	-99.206	 -9.621	 30.722
   19.600000000	-12.922	 16.427	 -8.339	-111.273	 -8.377	-111.131	 -9.872	 30.694
   19.700000000	-14.856	 14.899	 -8.274	-123.537	 -8.304	-123.462	-10.054	 30.475
   19.800000000	-17.160	 13.906	 -8.210	-136.150	 -8.241	-136.058	-10.201	 31.030
   19.900000000	-20.394	 16.888	 -8.154	-149.122	 -8.192	-149.012	-10.312	 30.801
   20.000000000	-23.538	 27.315	 -8.133	-162.264	 -8.168	-162.198	-10.287	 29.686
