! Date: Wednesday, June 05, 2013  1:52 PM
! Filename: C:\Data\Mike_Arnold\TGP2105-SM\Over_Temp\TGP2105-SM_EVB01_25C_Phase47.s2p 
! Comments: 
!^VDC(V):5.000
!^VDC(mA):0.128
!%Freq(GHz),S11(dB),S11(ang),S21(dB),S21(ang),S12(dB),S12(ang),S22(dB),S22(ang)
# GHz   S   DB   R   50
    5.000000000	 -7.867	115.507	 -8.000	 48.365	 -8.018	 48.333	 -7.471	100.114
    5.100000000	 -8.313	104.452	 -7.837	 32.438	 -7.853	 32.386	 -7.203	 93.912
    5.200000000	 -9.044	 92.517	 -7.638	 16.821	 -7.650	 16.774	 -7.178	 87.063
    5.300000000	-10.133	 79.085	 -7.411	  1.289	 -7.430	  1.269	 -7.333	 80.278
    5.400000000	-11.791	 63.841	 -7.169	-14.273	 -7.189	-14.302	 -7.743	 73.394
    5.500000000	-14.403	 46.252	 -6.930	-29.846	 -6.944	-29.868	 -8.393	 67.089
    5.600000000	-18.341	 24.224	 -6.686	-45.523	 -6.699	-45.558	 -9.301	 62.257
    5.700000000	-23.803	-18.132	 -6.474	-61.557	 -6.488	-61.577	-10.245	 59.198
    5.800000000	-23.294	-97.829	 -6.369	-77.628	 -6.376	-77.671	-11.143	 57.605
    5.900000000	-18.142	-139.187	 -6.333	-93.393	 -6.347	-93.433	-11.965	 56.683
    6.000000000	-14.876	-160.903	 -6.350	-108.689	 -6.367	-108.735	-12.588	 55.916
    6.100000000	-12.862	-176.304	 -6.403	-123.517	 -6.413	-123.529	-13.098	 54.001
    6.200000000	-11.536	170.630	 -6.449	-137.850	 -6.461	-137.869	-13.646	 50.628
    6.300000000	-10.718	158.550	 -6.489	-151.875	 -6.502	-151.891	-14.272	 45.623
    6.400000000	-10.347	147.978	 -6.506	-165.636	 -6.519	-165.664	-15.066	 38.421
    6.500000000	-10.220	138.541	 -6.505	-179.199	 -6.521	-179.222	-16.207	 28.858
    6.600000000	-10.261	129.653	 -6.495	167.312	 -6.510	167.303	-17.731	 17.683
    6.700000000	-10.533	121.091	 -6.468	153.901	 -6.487	153.876	-19.623	  3.436
    6.800000000	-10.947	113.210	 -6.436	140.449	 -6.457	140.497	-21.955	-15.749
    6.900000000	-11.415	105.898	 -6.407	127.134	 -6.435	127.172	-24.581	-42.181
    7.000000000	-11.969	 98.116	 -6.392	113.836	 -6.416	113.859	-26.647	-74.984
    7.100000000	-12.569	 90.422	 -6.378	100.609	 -6.399	100.635	-27.195	-111.829
    7.200000000	-13.170	 82.769	 -6.367	 87.466	 -6.393	 87.486	-26.608	-143.808
    7.300000000	-13.759	 74.599	 -6.367	 74.372	 -6.393	 74.442	-25.956	-171.262
    7.400000000	-14.297	 65.978	 -6.372	 61.373	 -6.397	 61.454	-25.601	164.127
    7.500000000	-14.790	 57.220	 -6.379	 48.509	 -6.409	 48.548	-25.188	140.087
    7.600000000	-15.121	 48.373	 -6.398	 35.704	 -6.425	 35.762	-24.466	115.600
    7.700000000	-15.329	 39.432	 -6.422	 23.075	 -6.448	 23.142	-23.431	 91.671
    7.800000000	-15.401	 30.849	 -6.442	 10.594	 -6.462	 10.620	-22.136	 72.038
    7.900000000	-15.392	 22.954	 -6.464	 -1.787	 -6.487	 -1.745	-20.608	 55.912
    8.000000000	-15.251	 15.173	 -6.476	-14.059	 -6.502	-13.979	-19.139	 43.124
    8.100000000	-15.143	  7.553	 -6.490	-26.218	 -6.518	-26.115	-18.017	 31.978
    8.200000000	-15.042	 -0.076	 -6.493	-38.259	 -6.523	-38.186	-17.198	 23.111
    8.300000000	-15.034	 -7.575	 -6.493	-50.188	 -6.517	-50.092	-16.600	 15.645
    8.400000000	-15.142	-15.885	 -6.476	-62.137	 -6.509	-62.046	-16.376	  8.751
    8.500000000	-15.614	-24.636	 -6.456	-74.045	 -6.482	-73.970	-16.607	  2.575
    8.600000000	-16.317	-34.070	 -6.423	-86.011	 -6.452	-85.886	-17.202	 -1.718
    8.700000000	-17.418	-44.646	 -6.395	-98.015	 -6.422	-97.940	-18.389	 -4.878
    8.800000000	-19.085	-57.920	 -6.370	-110.097	 -6.396	-110.040	-20.229	 -5.223
    8.900000000	-21.572	-75.760	 -6.358	-122.288	 -6.387	-122.204	-23.040	  3.016
    9.000000000	-24.694	-102.066	 -6.370	-134.447	 -6.398	-134.374	-25.673	 25.262
    9.100000000	-26.958	-144.869	 -6.403	-146.601	 -6.428	-146.549	-24.971	 59.627
    9.200000000	-25.514	169.744	 -6.451	-158.613	 -6.487	-158.547	-22.048	 80.555
    9.300000000	-22.999	142.743	 -6.519	-170.512	 -6.546	-170.425	-19.479	 85.942
    9.400000000	-21.262	126.444	 -6.595	177.778	 -6.622	177.870	-17.644	 87.646
    9.500000000	-20.362	116.573	 -6.663	166.238	 -6.689	166.343	-16.527	 87.958
    9.600000000	-20.106	109.112	 -6.724	154.864	 -6.749	154.959	-15.823	 87.530
    9.700000000	-20.636	105.998	 -6.771	143.594	 -6.801	143.711	-15.362	 87.561
    9.800000000	-21.619	108.635	 -6.805	132.413	 -6.838	132.494	-15.199	 89.204
    9.900000000	-22.691	118.474	 -6.841	121.257	 -6.870	121.329	-15.123	 91.411
   10.000000000	-23.396	110.269	 -6.864	109.825	 -6.895	109.928	-15.604	 89.812
   10.100000000	-23.537	123.055	 -6.881	 98.630	 -6.914	 98.712	-15.746	 91.771
   10.200000000	-22.049	137.158	 -6.909	 87.476	 -6.940	 87.566	-15.729	 93.409
   10.300000000	-20.352	144.939	 -6.938	 76.456	 -6.967	 76.543	-15.589	 95.372
   10.400000000	-18.406	147.283	 -6.967	 65.398	 -6.995	 65.514	-15.420	 95.986
   10.500000000	-16.800	147.631	 -7.008	 54.492	 -7.038	 54.579	-15.037	 94.720
   10.600000000	-15.480	144.960	 -7.056	 43.660	 -7.085	 43.715	-14.842	 93.119
   10.700000000	-14.500	141.908	 -7.111	 32.989	 -7.128	 32.951	-14.638	 89.095
   10.800000000	-13.619	138.141	 -7.163	 22.285	 -7.183	 22.223	-14.454	 84.410
   10.900000000	-13.093	134.173	 -7.216	 11.656	 -7.238	 11.607	-14.427	 78.206
   11.000000000	-12.630	129.839	 -7.272	  1.092	 -7.290	  1.053	-14.343	 71.390
   11.100000000	-12.449	125.396	 -7.322	 -9.402	 -7.341	 -9.454	-14.298	 63.810
   11.200000000	-12.329	121.153	 -7.370	-19.850	 -7.387	-19.876	-14.279	 56.024
   11.300000000	-12.434	116.747	 -7.417	-30.251	 -7.435	-30.261	-14.233	 48.613
   11.400000000	-12.700	112.384	 -7.455	-40.573	 -7.472	-40.627	-14.168	 41.409
   11.500000000	-13.124	108.566	 -7.489	-50.903	 -7.505	-50.983	-14.134	 34.673
   11.600000000	-13.769	104.752	 -7.520	-61.222	 -7.533	-61.271	-14.074	 28.824
   11.700000000	-14.681	101.788	 -7.545	-71.511	 -7.561	-71.560	-13.979	 23.761
   11.800000000	-15.837	100.314	 -7.563	-81.837	 -7.582	-81.859	-13.931	 19.602
   11.900000000	-17.161	100.718	 -7.583	-92.130	 -7.604	-92.150	-13.870	 16.272
   12.000000000	-18.839	103.785	 -7.603	-102.472	 -7.617	-102.458	-13.761	 13.840
   12.100000000	-20.512	112.864	 -7.615	-112.793	 -7.635	-112.853	-13.698	 11.570
   12.200000000	-21.478	128.282	 -7.643	-123.185	 -7.656	-123.223	-13.556	  9.677
   12.300000000	-21.136	143.469	 -7.661	-133.549	 -7.677	-133.627	-13.442	  7.918
   12.400000000	-19.863	155.368	 -7.690	-143.985	 -7.705	-144.043	-13.281	  5.920
   12.500000000	-18.364	160.238	 -7.724	-154.451	 -7.737	-154.522	-13.188	  3.651
   12.600000000	-16.922	160.966	 -7.758	-164.932	 -7.770	-164.963	-13.067	  1.080
   12.700000000	-15.882	159.231	 -7.787	-175.402	 -7.803	-175.469	-13.051	 -2.070
   12.800000000	-14.966	155.314	 -7.815	174.079	 -7.832	173.997	-13.078	 -5.748
   12.900000000	-14.282	149.767	 -7.844	163.512	 -7.860	163.453	-13.151	 -9.685
   13.000000000	-13.781	143.668	 -7.874	152.922	 -7.886	152.870	-13.301	-14.269
   13.100000000	-13.375	136.918	 -7.902	142.325	 -7.914	142.269	-13.495	-19.150
   13.200000000	-12.971	129.458	 -7.935	131.737	 -7.945	131.678	-13.695	-24.508
   13.300000000	-12.692	121.272	 -7.948	121.169	 -7.960	121.130	-13.924	-30.251
   13.400000000	-12.334	113.041	 -7.958	110.522	 -7.971	110.502	-14.185	-36.640
   13.500000000	-11.993	104.238	 -7.974	 99.878	 -7.988	 99.819	-14.362	-42.445
   13.600000000	-11.591	 95.182	 -7.992	 89.215	 -8.006	 89.151	-14.597	-48.838
   13.700000000	-11.240	 86.747	 -8.017	 78.557	 -8.034	 78.473	-14.745	-55.127
   13.800000000	-10.819	 78.618	 -8.046	 67.910	 -8.057	 67.833	-15.008	-61.000
   13.900000000	-10.360	 71.591	 -8.082	 57.256	 -8.091	 57.189	-15.311	-66.475
   14.000000000	 -9.933	 64.691	 -8.116	 46.595	 -8.124	 46.513	-15.812	-70.746
   14.100000000	 -9.504	 59.269	 -8.148	 35.975	 -8.163	 35.905	-16.433	-73.945
   14.200000000	 -9.077	 54.329	 -8.186	 25.317	 -8.207	 25.295	-17.328	-75.854
   14.300000000	 -8.634	 50.423	 -8.237	 14.712	 -8.249	 14.623	-18.600	-74.411
   14.400000000	 -8.223	 47.129	 -8.290	  4.077	 -8.300	  4.017	-20.105	-68.030
   14.500000000	 -7.747	 44.299	 -8.347	 -6.534	 -8.365	 -6.599	-21.088	-55.879
   14.600000000	 -7.401	 41.821	 -8.404	-17.021	 -8.420	-17.076	-21.127	-37.826
   14.700000000	 -6.934	 39.847	 -8.482	-27.511	 -8.496	-27.553	-19.872	-23.312
   14.800000000	 -6.629	 37.910	 -8.546	-37.774	 -8.564	-37.855	-17.966	-16.210
   14.900000000	 -6.324	 35.476	 -8.617	-47.953	 -8.631	-48.032	-16.411	-13.251
   15.000000000	 -6.083	 33.991	 -8.671	-57.902	 -8.688	-57.964	-15.178	-14.150
   15.100000000	 -5.962	 31.735	 -8.711	-67.696	 -8.725	-67.779	-14.314	-17.030
   15.200000000	 -5.945	 30.035	 -8.724	-77.399	 -8.741	-77.461	-13.851	-21.382
   15.300000000	 -6.009	 28.120	 -8.715	-86.962	 -8.729	-87.053	-13.676	-26.072
   15.400000000	 -6.187	 25.987	 -8.684	-96.519	 -8.699	-96.610	-13.827	-32.161
   15.500000000	 -6.508	 24.235	 -8.621	-106.155	 -8.640	-106.198	-14.244	-39.195
   15.600000000	 -6.915	 22.082	 -8.552	-115.837	 -8.576	-115.879	-15.095	-47.042
   15.700000000	 -7.448	 19.703	 -8.475	-125.679	 -8.494	-125.721	-16.212	-56.461
   15.800000000	 -8.126	 16.824	 -8.391	-135.700	 -8.408	-135.712	-17.630	-68.887
   15.900000000	 -8.856	 13.748	 -8.322	-145.790	 -8.339	-145.836	-19.183	-85.024
   16.000000000	 -9.705	  9.520	 -8.258	-156.111	 -8.275	-156.199	-20.632	-108.144
   16.100000000	-10.648	  3.713	 -8.206	-166.639	 -8.232	-166.585	-20.617	-133.130
   16.200000000	-11.613	 -3.139	 -8.180	-177.184	 -8.204	-177.154	-19.889	-156.342
   16.300000000	-12.504	-12.184	 -8.168	172.223	 -8.193	172.252	-18.247	-173.509
   16.400000000	-13.238	-23.359	 -8.170	161.555	 -8.196	161.603	-16.802	174.565
   16.500000000	-13.802	-36.185	 -8.181	150.896	 -8.209	150.965	-15.520	164.626
   16.600000000	-13.851	-48.458	 -8.195	140.336	 -8.231	140.372	-14.508	157.240
   16.700000000	-13.720	-61.998	 -8.222	129.773	 -8.250	129.858	-13.803	149.967
   16.800000000	-13.274	-70.104	 -8.244	119.399	 -8.277	119.455	-12.986	144.093
   16.900000000	-12.954	-79.748	 -8.243	109.040	 -8.273	109.081	-13.078	138.382
   17.000000000	-12.427	-84.345	 -8.243	 98.731	 -8.273	 98.794	-12.991	130.125
   17.100000000	-12.372	-90.467	 -8.221	 88.502	 -8.251	 88.558	-13.464	124.296
   17.200000000	-11.850	-93.395	 -8.204	 78.139	 -8.229	 78.186	-14.207	113.147
   17.300000000	-11.941	-94.948	 -8.166	 67.908	 -8.190	 67.956	-15.027	102.535
   17.400000000	-11.799	-96.780	 -8.135	 57.478	 -8.160	 57.537	-16.321	 88.300
   17.500000000	-11.972	-98.005	 -8.094	 47.135	 -8.124	 47.152	-17.367	 69.801
   17.600000000	-12.223	-99.375	 -8.060	 36.571	 -8.091	 36.595	-17.908	 47.267
   17.700000000	-12.686	-100.639	 -8.041	 26.019	 -8.068	 26.010	-17.420	 24.804
   17.800000000	-13.381	-102.318	 -8.022	 15.338	 -8.051	 15.346	-16.391	  7.645
   17.900000000	-14.482	-103.579	 -8.002	  4.604	 -8.033	  4.594	-15.216	 -4.462
   18.000000000	-16.323	-106.339	 -7.988	 -6.242	 -8.018	 -6.213	-14.045	-12.785
   18.100000000	-19.200	-106.138	 -7.970	-17.202	 -8.003	-17.210	-13.139	-18.346
   18.200000000	-24.551	-102.018	 -7.964	-28.298	 -7.996	-28.242	-12.425	-21.798
   18.300000000	-34.707	-42.987	 -7.964	-39.350	 -7.988	-39.332	-11.737	-23.748
   18.400000000	-24.384	 34.252	 -7.963	-50.488	 -7.983	-50.480	-11.226	-25.586
   18.500000000	-18.877	 38.828	 -7.963	-61.611	 -7.994	-61.590	-10.855	-27.400
   18.600000000	-15.553	 37.264	 -7.973	-72.633	 -8.006	-72.628	-10.629	-29.137
   18.700000000	-13.505	 35.213	 -7.974	-83.594	 -7.995	-83.567	-10.625	-30.771
   18.800000000	-12.171	 33.160	 -7.959	-94.439	 -7.993	-94.418	-10.768	-33.167
   18.900000000	-11.338	 30.981	 -7.945	-105.303	 -7.968	-105.279	-11.168	-35.711
   19.000000000	-10.890	 29.766	 -7.902	-116.182	 -7.930	-116.141	-11.949	-37.231
   19.100000000	-10.679	 28.183	 -7.867	-127.112	 -7.907	-127.008	-12.900	-38.576
   19.200000000	-10.787	 28.843	 -7.817	-137.962	 -7.857	-137.845	-14.072	-39.795
   19.300000000	-11.052	 27.683	 -7.752	-148.985	 -7.785	-148.874	-15.780	-38.042
   19.400000000	-11.402	 29.193	 -7.686	-160.211	 -7.723	-160.115	-17.498	-35.760
   19.500000000	-12.299	 28.836	 -7.617	-171.716	 -7.648	-171.677	-18.942	-28.092
   19.600000000	-12.807	 29.229	 -7.566	176.507	 -7.603	176.589	-20.349	-19.519
   19.700000000	-13.778	 29.505	 -7.526	164.549	 -7.564	164.653	-20.586	-13.686
   19.800000000	-14.832	 27.829	 -7.498	152.421	 -7.534	152.495	-20.847	-11.469
   19.900000000	-16.388	 25.920	 -7.487	139.982	 -7.510	140.067	-21.072	-17.866
   20.000000000	-17.947	 22.853	 -7.468	127.416	 -7.508	127.542	-21.208	-28.302
