! Date: Wednesday, June 05, 2013  1:50 PM
! Filename: C:\Data\Mike_Arnold\TGP2105-SM\Over_Temp\TGP2105-SM_EVB01_25C_Phase12.s2p 
! Comments: 
!^VDC(V):5.000
!^VDC(mA):0.118
!%Freq(GHz),S11(dB),S11(ang),S21(dB),S21(ang),S12(dB),S12(ang),S22(dB),S22(ang)
# GHz   S   DB   R   50
    5.000000000	 -5.685	101.488	 -8.846	-167.331	 -8.862	-167.365	 -4.557	 98.946
    5.100000000	 -6.498	 86.854	 -8.443	178.602	 -8.451	178.554	 -4.787	 92.091
    5.200000000	 -7.622	 71.141	 -8.007	164.127	 -8.017	164.118	 -5.150	 85.472
    5.300000000	 -9.137	 53.362	 -7.587	149.229	 -7.603	149.233	 -5.600	 79.546
    5.400000000	-11.199	 32.243	 -7.203	133.897	 -7.218	133.880	 -6.156	 74.121
    5.500000000	-13.932	  4.715	 -6.893	118.291	 -6.911	118.288	 -6.779	 69.669
    5.600000000	-16.788	-34.509	 -6.670	102.685	 -6.688	102.623	 -7.421	 66.300
    5.700000000	-17.411	-84.885	 -6.547	 87.164	 -6.565	 87.159	 -7.980	 63.447
    5.800000000	-15.376	-125.015	 -6.498	 72.053	 -6.509	 72.008	 -8.453	 60.712
    5.900000000	-13.206	-152.264	 -6.493	 57.345	 -6.507	 57.350	 -8.889	 57.563
    6.000000000	-11.646	-171.889	 -6.523	 43.163	 -6.538	 43.121	 -9.307	 53.697
    6.100000000	-10.634	172.711	 -6.570	 29.493	 -6.584	 29.450	 -9.816	 48.750
    6.200000000	 -9.980	159.375	 -6.608	 16.386	 -6.624	 16.371	-10.500	 43.535
    6.300000000	 -9.675	146.637	 -6.584	  3.912	 -6.598	  3.891	-11.202	 38.697
    6.400000000	 -9.834	135.562	 -6.424	 -8.716	 -6.438	 -8.717	-11.753	 32.406
    6.500000000	-10.202	126.443	 -6.276	-21.964	 -6.290	-21.982	-12.517	 23.256
    6.600000000	-10.593	118.413	 -6.180	-35.229	 -6.190	-35.257	-13.656	 13.042
    6.700000000	-11.158	110.388	 -6.097	-48.533	 -6.116	-48.542	-15.086	  2.818
    6.800000000	-11.845	102.841	 -6.024	-61.851	 -6.053	-61.786	-16.751	 -7.461
    6.900000000	-12.609	 95.874	 -5.983	-74.981	 -6.007	-74.943	-18.669	-17.099
    7.000000000	-13.478	 88.308	 -5.959	-88.060	 -5.982	-88.047	-20.595	-24.235
    7.100000000	-14.445	 80.741	 -5.942	-101.116	 -5.969	-101.032	-22.406	-28.105
    7.200000000	-15.470	 73.478	 -5.939	-114.002	 -5.959	-113.967	-23.826	-27.504
    7.300000000	-16.534	 65.716	 -5.945	-126.873	 -5.971	-126.792	-24.324	-21.724
    7.400000000	-17.616	 57.690	 -5.964	-139.598	 -5.991	-139.547	-23.422	-16.584
    7.500000000	-18.697	 50.118	 -5.993	-152.266	 -6.014	-152.209	-22.019	-15.417
    7.600000000	-19.595	 43.110	 -6.025	-164.797	 -6.047	-164.744	-20.474	-16.989
    7.700000000	-20.317	 36.828	 -6.061	-177.197	 -6.085	-177.152	-18.956	-20.427
    7.800000000	-20.799	 31.778	 -6.104	170.451	 -6.126	170.530	-17.713	-25.877
    7.900000000	-21.083	 28.441	 -6.138	158.270	 -6.168	158.326	-16.748	-31.297
    8.000000000	-20.920	 25.244	 -6.178	146.142	 -6.208	146.179	-16.021	-36.681
    8.100000000	-20.804	 22.604	 -6.217	134.050	 -6.251	134.182	-15.478	-43.353
    8.200000000	-20.566	 19.773	 -6.250	122.044	 -6.276	122.141	-15.242	-50.765
    8.300000000	-20.405	 17.745	 -6.285	110.120	 -6.312	110.178	-15.296	-58.494
    8.400000000	-20.362	 15.572	 -6.310	 98.180	 -6.336	 98.282	-15.573	-68.031
    8.500000000	-20.685	 15.800	 -6.334	 86.224	 -6.362	 86.310	-16.158	-79.974
    8.600000000	-20.998	 17.938	 -6.369	 74.215	 -6.395	 74.295	-17.098	-94.785
    8.700000000	-21.221	 22.454	 -6.409	 62.115	 -6.437	 62.210	-18.063	-114.255
    8.800000000	-21.234	 28.783	 -6.463	 50.013	 -6.492	 50.084	-18.638	-138.552
    8.900000000	-20.716	 35.931	 -6.539	 37.957	 -6.566	 38.036	-18.291	-166.344
    9.000000000	-19.778	 39.605	 -6.634	 25.956	 -6.661	 26.044	-17.130	170.510
    9.100000000	-18.882	 39.327	 -6.736	 14.044	 -6.765	 14.129	-15.651	151.833
    9.200000000	-18.263	 36.254	 -6.851	  2.295	 -6.881	  2.376	-14.145	138.408
    9.300000000	-17.980	 30.495	 -6.959	 -9.331	 -6.995	 -9.246	-13.038	127.854
    9.400000000	-18.119	 21.748	 -7.062	-20.847	 -7.098	-20.753	-12.108	119.920
    9.500000000	-18.879	  9.436	 -7.161	-32.230	 -7.190	-32.145	-11.435	114.268
    9.600000000	-19.985	 -6.827	 -7.243	-43.595	 -7.279	-43.517	-10.937	109.682
    9.700000000	-21.283	-31.799	 -7.327	-54.917	 -7.356	-54.844	-10.520	106.071
    9.800000000	-21.726	-66.141	 -7.399	-66.253	 -7.435	-66.136	-10.219	103.841
    9.900000000	-20.229	-100.362	 -7.476	-77.573	 -7.510	-77.460	 -9.975	101.862
   10.000000000	-19.634	-118.029	 -7.515	-89.169	 -7.549	-89.062	-10.099	 98.620
   10.100000000	-17.676	-139.762	 -7.578	-100.551	 -7.608	-100.440	-10.028	 96.214
   10.200000000	-15.699	-157.910	 -7.658	-111.890	 -7.692	-111.779	 -9.929	 93.251
   10.300000000	-14.144	-171.443	 -7.745	-123.118	 -7.778	-122.979	 -9.861	 90.302
   10.400000000	-12.788	176.460	 -7.837	-134.300	 -7.878	-134.191	 -9.848	 86.621
   10.500000000	-11.716	166.652	 -7.943	-145.333	 -7.977	-145.231	 -9.764	 82.045
   10.600000000	-10.918	157.248	 -8.053	-156.233	 -8.078	-156.121	 -9.860	 77.411
   10.700000000	-10.353	148.974	 -8.157	-166.935	 -8.181	-166.966	 -9.925	 71.611
   10.800000000	 -9.888	141.199	 -8.260	-177.634	 -8.281	-177.673	-10.027	 65.643
   10.900000000	 -9.676	133.990	 -8.351	171.743	 -8.364	171.706	-10.191	 58.790
   11.000000000	 -9.536	127.061	 -8.431	161.156	 -8.451	161.134	-10.323	 51.831
   11.100000000	 -9.622	120.413	 -8.498	150.669	 -8.518	150.647	-10.441	 44.534
   11.200000000	 -9.794	114.122	 -8.554	140.176	 -8.573	140.125	-10.567	 37.287
   11.300000000	-10.150	107.990	 -8.596	129.768	 -8.613	129.727	-10.662	 30.396
   11.400000000	-10.660	101.963	 -8.626	119.331	 -8.645	119.282	-10.738	 23.697
   11.500000000	-11.358	 96.542	 -8.639	108.882	 -8.653	108.877	-10.820	 17.417
   11.600000000	-12.262	 91.054	 -8.642	 98.467	 -8.661	 98.413	-10.898	 11.756
   11.700000000	-13.464	 86.366	 -8.638	 87.996	 -8.662	 87.939	-10.943	  6.657
   11.800000000	-15.004	 82.756	 -8.630	 77.486	 -8.649	 77.489	-11.015	  2.170
   11.900000000	-16.846	 80.811	 -8.616	 66.996	 -8.635	 66.960	-11.092	 -1.786
   12.000000000	-19.317	 81.606	 -8.596	 56.495	 -8.618	 56.443	-11.156	 -5.202
   12.100000000	-22.448	 90.256	 -8.588	 45.900	 -8.597	 45.824	-11.247	 -8.626
   12.200000000	-25.140	114.840	 -8.573	 35.315	 -8.586	 35.251	-11.306	-11.796
   12.300000000	-24.497	144.917	 -8.562	 24.737	 -8.578	 24.687	-11.405	-14.924
   12.400000000	-21.888	162.723	 -8.557	 14.109	 -8.571	 14.045	-11.506	-18.345
   12.500000000	-19.490	167.240	 -8.547	  3.502	 -8.566	  3.494	-11.670	-22.022
   12.600000000	-17.572	166.584	 -8.548	 -7.083	 -8.563	 -7.121	-11.835	-25.798
   12.700000000	-16.296	163.623	 -8.541	-17.733	 -8.559	-17.766	-12.095	-30.301
   12.800000000	-15.240	158.687	 -8.539	-28.371	 -8.558	-28.426	-12.371	-35.179
   12.900000000	-14.479	152.512	 -8.541	-39.039	 -8.556	-39.089	-12.715	-40.363
   13.000000000	-13.923	145.905	 -8.534	-49.698	 -8.551	-49.748	-13.104	-46.232
   13.100000000	-13.477	138.707	 -8.529	-60.399	 -8.547	-60.414	-13.517	-52.486
   13.200000000	-13.043	130.837	 -8.529	-71.035	 -8.545	-71.130	-13.921	-59.061
   13.300000000	-12.747	122.319	 -8.526	-81.746	 -8.537	-81.807	-14.320	-66.117
   13.400000000	-12.393	113.868	 -8.526	-92.412	 -8.539	-92.486	-14.705	-73.777
   13.500000000	-12.033	104.899	 -8.523	-103.078	 -8.534	-103.140	-15.075	-80.654
   13.600000000	-11.614	 95.849	 -8.526	-113.788	 -8.541	-113.870	-15.460	-88.250
   13.700000000	-11.246	 87.312	 -8.531	-124.465	 -8.548	-124.532	-15.825	-95.167
   13.800000000	-10.791	 79.266	 -8.548	-135.140	 -8.559	-135.188	-16.388	-102.036
   13.900000000	-10.293	 72.213	 -8.559	-145.783	 -8.573	-145.871	-17.057	-108.677
   14.000000000	 -9.821	 65.235	 -8.589	-156.503	 -8.601	-156.582	-18.149	-114.905
   14.100000000	 -9.335	 59.709	 -8.614	-167.153	 -8.627	-167.257	-19.640	-119.777
   14.200000000	 -8.849	 54.495	 -8.653	-177.829	 -8.667	-177.907	-21.834	-124.263
   14.300000000	 -8.361	 50.194	 -8.702	171.519	 -8.709	171.447	-25.577	-126.886
   14.400000000	 -7.917	 46.347	 -8.749	160.884	 -8.765	160.810	-33.218	-117.226
   14.500000000	 -7.442	 42.941	 -8.819	150.292	 -8.825	150.236	-35.243	-11.609
   14.600000000	 -7.121	 39.765	 -8.868	139.869	 -8.880	139.791	-26.271	 10.719
   14.700000000	 -6.722	 37.162	 -8.939	129.498	 -8.956	129.448	-22.024	 10.620
   14.800000000	 -6.508	 34.700	 -8.985	119.274	 -9.000	119.225	-19.284	  6.160
   14.900000000	 -6.313	 31.940	 -9.031	109.229	 -9.044	109.175	-17.602	  2.673
   15.000000000	 -6.214	 30.330	 -9.062	 99.317	 -9.077	 99.249	-16.573	 -1.642
   15.100000000	 -6.226	 28.115	 -9.060	 89.504	 -9.075	 89.433	-16.010	 -5.935
   15.200000000	 -6.352	 26.660	 -9.036	 79.756	 -9.052	 79.717	-15.941	-10.018
   15.300000000	 -6.554	 25.257	 -8.998	 70.045	 -9.011	 69.986	-16.220	-12.923
   15.400000000	 -6.849	 23.835	 -8.935	 60.371	 -8.948	 60.273	-16.892	-15.561
   15.500000000	 -7.286	 22.967	 -8.858	 50.504	 -8.873	 50.488	-17.900	-17.180
   15.600000000	 -7.771	 21.973	 -8.778	 40.670	 -8.798	 40.628	-19.459	-15.817
   15.700000000	 -8.349	 20.862	 -8.696	 30.671	 -8.715	 30.668	-21.314	-11.114
   15.800000000	 -9.045	 19.343	 -8.610	 20.618	 -8.639	 20.574	-23.469	 -1.411
   15.900000000	 -9.736	 17.685	 -8.542	 10.439	 -8.564	 10.404	-25.095	 15.737
   16.000000000	-10.532	 14.700	 -8.480	  0.181	 -8.504	  0.124	-25.561	 40.007
   16.100000000	-11.425	 10.111	 -8.426	-10.300	 -8.451	-10.280	-25.095	 56.557
   16.200000000	-12.327	  4.260	 -8.385	-20.774	 -8.411	-20.730	-23.609	 67.696
   16.300000000	-13.191	 -4.002	 -8.351	-31.345	 -8.378	-31.356	-22.744	 76.093
   16.400000000	-13.929	-14.630	 -8.331	-42.035	 -8.362	-42.011	-22.086	 80.055
   16.500000000	-14.538	-27.223	 -8.321	-52.715	 -8.350	-52.719	-21.382	 82.039
   16.600000000	-14.584	-39.842	 -8.316	-63.442	 -8.351	-63.381	-21.245	 81.762
   16.700000000	-14.459	-53.940	 -8.330	-74.196	 -8.364	-74.139	-21.195	 77.961
   16.800000000	-13.899	-62.459	 -8.341	-84.840	 -8.378	-84.773	-21.595	 77.511
   16.900000000	-13.483	-72.445	 -8.363	-95.524	 -8.395	-95.468	-23.154	 61.669
   17.000000000	-12.772	-77.337	 -8.385	-106.095	 -8.420	-106.036	-23.504	 45.920
   17.100000000	-12.593	-83.490	 -8.414	-116.605	 -8.447	-116.557	-24.825	 15.082
   17.200000000	-11.854	-87.160	 -8.465	-127.166	 -8.489	-127.104	-22.395	-12.485
   17.300000000	-11.767	-89.126	 -8.497	-137.531	 -8.528	-137.478	-20.457	-33.058
   17.400000000	-11.483	-91.893	 -8.548	-147.911	 -8.577	-147.849	-17.992	-48.418
   17.500000000	-11.567	-94.130	 -8.595	-158.176	 -8.626	-158.167	-16.146	-58.052
   17.600000000	-11.795	-96.504	 -8.643	-168.498	 -8.673	-168.475	-14.607	-65.174
   17.700000000	-12.310	-98.657	 -8.686	-178.818	 -8.716	-178.788	-13.494	-70.082
   17.800000000	-13.121	-100.633	 -8.716	170.797	 -8.747	170.843	-12.764	-74.206
   17.900000000	-14.391	-101.517	 -8.752	160.302	 -8.776	160.291	-12.369	-77.233
   18.000000000	-16.425	-102.326	 -8.764	149.634	 -8.792	149.633	-12.121	-79.018
   18.100000000	-19.331	-97.352	 -8.787	138.745	 -8.813	138.776	-12.108	-80.493
   18.200000000	-23.710	-79.778	 -8.815	127.726	 -8.842	127.716	-12.265	-81.516
   18.300000000	-25.797	-33.512	 -8.864	116.568	 -8.894	116.587	-12.562	-81.594
   18.400000000	-21.809	  4.107	 -8.933	105.283	 -8.958	105.278	-12.966	-82.580
   18.500000000	-18.477	 13.821	 -9.028	 94.080	 -9.057	 94.108	-13.522	-84.698
   18.600000000	-16.142	 16.364	 -9.159	 82.955	 -9.185	 82.986	-14.355	-88.160
   18.700000000	-14.904	 16.899	 -9.312	 72.206	 -9.341	 72.214	-15.760	-94.440
   18.800000000	-14.360	 18.097	 -9.482	 62.004	 -9.508	 61.985	-17.757	-105.283
   18.900000000	-14.319	 20.981	 -9.588	 52.431	 -9.613	 52.477	-20.945	-125.966
   19.000000000	-14.367	 28.270	 -9.537	 43.368	 -9.564	 43.365	-24.930	-176.994
   19.100000000	-13.878	 35.556	 -9.296	 33.659	 -9.330	 33.782	-22.712	121.418
   19.200000000	-13.090	 42.787	 -8.992	 22.800	 -9.030	 22.899	-19.186	 93.410
   19.300000000	-12.455	 43.652	 -8.761	 10.917	 -8.800	 11.005	-16.419	 79.501
   19.400000000	-11.988	 45.002	 -8.620	 -1.361	 -8.654	 -1.261	-15.032	 69.784
   19.500000000	-12.359	 44.224	 -8.533	-13.856	 -8.570	-13.716	-13.969	 61.058
   19.600000000	-12.478	 42.872	 -8.487	-26.308	 -8.522	-26.218	-13.475	 54.924
   19.700000000	-13.181	 42.178	 -8.440	-38.917	 -8.480	-38.817	-13.378	 47.347
   19.800000000	-14.159	 39.758	 -8.395	-51.810	 -8.430	-51.673	-13.662	 40.931
   19.900000000	-15.663	 38.492	 -8.354	-64.948	 -8.389	-64.874	-14.449	 33.790
   20.000000000	-17.260	 37.831	 -8.334	-78.446	 -8.375	-78.318	-15.531	 26.712
