! Date: Wednesday, June 05, 2013  1:50 PM
! Filename: C:\Data\Mike_Arnold\TGP2105-SM\Over_Temp\TGP2105-SM_EVB01_25C_Phase16.s2p 
! Comments: 
!^VDC(V):5.000
!^VDC(mA):0.027
!%Freq(GHz),S11(dB),S11(ang),S21(dB),S21(ang),S12(dB),S12(ang),S22(dB),S22(ang)
# GHz   S   DB   R   50
    5.000000000	-17.332	-166.751	 -6.570	-161.035	 -6.585	-161.055	-10.288	-141.088
    5.100000000	-13.998	-167.251	 -6.722	-177.714	 -6.733	-177.734	-10.042	-144.896
    5.200000000	-11.510	-173.120	 -6.919	166.302	 -6.932	166.297	 -9.560	-148.723
    5.300000000	 -9.738	178.807	 -7.149	150.977	 -7.170	150.984	 -8.945	-154.040
    5.400000000	 -8.434	170.156	 -7.394	136.426	 -7.407	136.412	 -8.307	-160.172
    5.500000000	 -7.432	161.606	 -7.630	122.608	 -7.644	122.601	 -7.723	-167.129
    5.600000000	 -6.665	152.759	 -7.848	109.440	 -7.864	109.429	 -7.194	-174.561
    5.700000000	 -6.122	143.944	 -8.023	 96.832	 -8.034	 96.819	 -6.815	177.565
    5.800000000	 -5.761	135.520	 -8.141	 84.804	 -8.151	 84.783	 -6.535	169.623
    5.900000000	 -5.485	127.278	 -8.195	 73.147	 -8.209	 73.133	 -6.380	161.737
    6.000000000	 -5.335	118.803	 -8.193	 61.738	 -8.207	 61.676	 -6.352	153.635
    6.100000000	 -5.343	110.261	 -8.103	 50.545	 -8.121	 50.554	 -6.496	145.526
    6.200000000	 -5.468	101.851	 -7.936	 39.481	 -7.952	 39.433	 -6.796	137.613
    6.300000000	 -5.690	 93.376	 -7.670	 28.330	 -7.686	 28.292	 -7.268	129.906
    6.400000000	 -6.059	 84.831	 -7.302	 16.396	 -7.318	 16.397	 -7.841	122.135
    6.500000000	 -6.534	 76.267	 -6.973	  3.826	 -6.991	  3.806	 -8.626	113.619
    6.600000000	 -7.130	 67.750	 -6.668	 -8.974	 -6.683	 -8.987	 -9.753	104.516
    6.700000000	 -7.879	 58.806	 -6.394	-22.165	 -6.407	-22.175	-11.325	 95.160
    6.800000000	 -8.812	 50.083	 -6.140	-35.704	 -6.161	-35.614	-13.503	 85.877
    6.900000000	 -9.914	 42.241	 -5.949	-49.307	 -5.974	-49.232	-16.602	 77.718
    7.000000000	-11.033	 35.110	 -5.820	-63.019	 -5.848	-62.932	-21.229	 71.600
    7.100000000	-12.189	 29.098	 -5.746	-76.672	 -5.771	-76.612	-30.108	 80.634
    7.200000000	-13.254	 24.587	 -5.720	-90.206	 -5.744	-90.153	-30.389	-171.843
    7.300000000	-14.080	 21.015	 -5.730	-103.596	 -5.754	-103.487	-22.884	-164.800
    7.400000000	-14.601	 17.888	 -5.769	-116.713	 -5.790	-116.654	-19.503	-171.260
    7.500000000	-14.883	 14.759	 -5.820	-129.685	 -5.847	-129.611	-17.533	179.222
    7.600000000	-14.872	 11.550	 -5.886	-142.421	 -5.914	-142.387	-16.305	168.036
    7.700000000	-14.702	  7.689	 -5.962	-154.997	 -5.984	-154.919	-15.547	155.690
    7.800000000	-14.423	  3.415	 -6.034	-167.381	 -6.059	-167.320	-14.969	142.653
    7.900000000	-14.139	 -1.011	 -6.107	-179.646	 -6.136	-179.582	-14.445	128.533
    8.000000000	-13.775	 -5.632	 -6.182	168.199	 -6.208	168.262	-13.901	113.724
    8.100000000	-13.487	-10.834	 -6.260	156.201	 -6.292	156.312	-13.390	 99.664
    8.200000000	-13.207	-16.498	 -6.335	144.306	 -6.365	144.409	-12.825	 86.389
    8.300000000	-13.037	-22.306	 -6.403	132.564	 -6.433	132.684	-12.231	 74.124
    8.400000000	-12.948	-29.236	 -6.460	120.899	 -6.489	120.999	-11.744	 63.169
    8.500000000	-13.095	-37.060	 -6.502	109.312	 -6.530	109.417	-11.390	 53.657
    8.600000000	-13.386	-45.739	 -6.531	 97.728	 -6.564	 97.832	-11.099	 45.684
    8.700000000	-13.878	-55.808	 -6.545	 86.096	 -6.575	 86.234	-10.983	 38.782
    8.800000000	-14.575	-68.100	 -6.552	 74.386	 -6.581	 74.515	-10.997	 32.865
    8.900000000	-15.515	-82.847	 -6.548	 62.665	 -6.579	 62.782	-11.115	 28.549
    9.000000000	-16.490	-100.305	 -6.549	 50.832	 -6.579	 50.931	-11.296	 24.382
    9.100000000	-17.285	-120.939	 -6.557	 38.979	 -6.587	 39.043	-11.493	 21.172
    9.200000000	-17.544	-143.860	 -6.571	 27.064	 -6.603	 27.139	-11.796	 18.398
    9.300000000	-17.198	-165.845	 -6.594	 15.107	 -6.622	 15.202	-12.028	 14.963
    9.400000000	-16.503	175.940	 -6.623	  3.201	 -6.651	  3.347	-12.323	 11.107
    9.500000000	-15.663	162.062	 -6.652	 -8.613	 -6.681	 -8.495	-12.753	  5.518
    9.600000000	-14.912	150.742	 -6.689	-20.420	 -6.717	-20.327	-13.219	 -1.480
    9.700000000	-14.357	142.813	 -6.713	-32.149	 -6.750	-32.021	-13.820	-10.316
    9.800000000	-13.870	137.024	 -6.754	-43.869	 -6.781	-43.753	-14.593	-22.242
    9.900000000	-13.482	132.240	 -6.790	-55.568	 -6.819	-55.493	-15.269	-37.331
   10.000000000	-13.385	119.167	 -6.868	-67.360	 -6.896	-67.286	-14.651	-51.391
   10.100000000	-13.166	112.833	 -6.925	-79.029	 -6.958	-78.909	-14.444	-67.267
   10.200000000	-12.925	107.607	 -6.982	-90.603	 -7.016	-90.474	-14.011	-81.572
   10.300000000	-12.921	101.778	 -7.046	-102.062	 -7.079	-101.945	-13.428	-95.136
   10.400000000	-12.968	 96.272	 -7.115	-113.442	 -7.146	-113.318	-12.729	-106.836
   10.500000000	-13.306	 91.053	 -7.173	-124.699	 -7.208	-124.566	-12.221	-116.707
   10.600000000	-13.756	 85.556	 -7.243	-135.943	 -7.274	-135.850	-11.593	-125.458
   10.700000000	-14.558	 79.876	 -7.312	-147.024	 -7.333	-147.043	-11.186	-132.565
   10.800000000	-15.658	 75.279	 -7.370	-158.195	 -7.390	-158.228	-10.817	-139.345
   10.900000000	-17.337	 70.175	 -7.429	-169.329	 -7.445	-169.361	-10.506	-144.937
   11.000000000	-19.625	 67.885	 -7.482	179.451	 -7.502	179.459	-10.271	-150.458
   11.100000000	-23.283	 68.178	 -7.536	168.291	 -7.554	168.273	-10.094	-155.577
   11.200000000	-29.095	 88.555	 -7.589	157.090	 -7.613	157.062	 -9.924	-160.694
   11.300000000	-29.788	160.401	 -7.652	145.830	 -7.671	145.831	 -9.763	-166.118
   11.400000000	-23.328	-175.503	 -7.722	134.576	 -7.744	134.577	 -9.610	-171.862
   11.500000000	-19.042	-173.470	 -7.804	123.340	 -7.824	123.345	 -9.445	-177.965
   11.600000000	-16.258	-176.419	 -7.895	112.174	 -7.917	112.135	 -9.276	175.368
   11.700000000	-14.159	179.309	 -8.006	100.982	 -8.014	100.959	 -9.113	168.171
   11.800000000	-12.513	173.969	 -8.123	 89.933	 -8.140	 89.903	 -8.924	160.643
   11.900000000	-11.211	167.833	 -8.250	 78.958	 -8.269	 78.908	 -8.717	152.686
   12.000000000	-10.216	161.737	 -8.392	 68.102	 -8.412	 68.087	 -8.502	144.476
   12.100000000	 -9.383	155.430	 -8.541	 57.403	 -8.557	 57.332	 -8.289	136.415
   12.200000000	 -8.719	148.967	 -8.695	 46.832	 -8.709	 46.790	 -8.086	128.366
   12.300000000	 -8.215	142.009	 -8.851	 36.408	 -8.859	 36.374	 -7.874	120.574
   12.400000000	 -7.841	135.150	 -8.997	 26.161	 -9.008	 26.098	 -7.707	113.027
   12.500000000	 -7.566	127.833	 -9.138	 16.004	 -9.156	 15.930	 -7.562	105.934
   12.600000000	 -7.363	120.439	 -9.271	  5.930	 -9.291	  5.870	 -7.444	 99.032
   12.700000000	 -7.280	112.524	 -9.382	 -4.061	 -9.396	 -4.076	 -7.383	 92.681
   12.800000000	 -7.218	104.565	 -9.483	-13.973	 -9.496	-14.025	 -7.379	 86.593
   12.900000000	 -7.189	 96.200	 -9.574	-23.836	 -9.591	-23.889	 -7.416	 80.691
   13.000000000	 -7.206	 87.609	 -9.646	-33.707	 -9.662	-33.757	 -7.519	 75.125
   13.100000000	 -7.245	 78.982	 -9.699	-43.542	 -9.715	-43.600	 -7.685	 69.625
   13.200000000	 -7.250	 70.475	 -9.749	-53.366	 -9.769	-53.464	 -7.914	 64.165
   13.300000000	 -7.255	 61.674	 -9.790	-63.196	 -9.804	-63.285	 -8.209	 58.721
   13.400000000	 -7.262	 53.370	 -9.816	-73.017	 -9.828	-73.094	 -8.596	 53.387
   13.500000000	 -7.236	 45.274	 -9.840	-82.823	 -9.851	-82.902	 -9.016	 47.686
   13.600000000	 -7.174	 37.656	 -9.858	-92.641	 -9.865	-92.692	 -9.543	 42.045
   13.700000000	 -7.153	 30.368	 -9.868	-102.421	 -9.880	-102.500	-10.109	 35.943
   13.800000000	 -7.121	 23.794	 -9.870	-112.215	 -9.883	-112.255	-10.735	 30.170
   13.900000000	 -7.112	 18.259	 -9.866	-121.972	 -9.876	-122.022	-11.416	 24.252
   14.000000000	 -7.102	 12.859	 -9.860	-131.768	 -9.863	-131.813	-12.090	 18.835
   14.100000000	 -7.161	  8.554	 -9.832	-141.575	 -9.846	-141.655	-12.781	 13.742
   14.200000000	 -7.224	  4.699	 -9.806	-151.455	 -9.816	-151.550	-13.508	  9.637
   14.300000000	 -7.327	  1.831	 -9.768	-161.439	 -9.781	-161.491	-14.168	  7.389
   14.400000000	 -7.455	 -0.501	 -9.727	-171.432	 -9.737	-171.511	-14.713	  6.894
   14.500000000	 -7.559	 -1.932	 -9.676	178.414	 -9.693	178.363	-15.116	  7.437
   14.600000000	 -7.736	 -3.402	 -9.626	168.220	 -9.645	168.191	-15.179	 10.046
   14.700000000	 -7.842	 -3.530	 -9.591	158.004	 -9.599	157.921	-15.022	 13.227
   14.800000000	 -8.013	 -4.185	 -9.539	147.731	 -9.554	147.634	-14.527	 15.046
   14.900000000	 -8.093	 -4.993	 -9.498	137.446	 -9.517	137.385	-13.947	 16.937
   15.000000000	 -8.291	 -5.142	 -9.456	127.207	 -9.471	127.189	-13.378	 17.246
   15.100000000	 -8.487	 -6.677	 -9.413	117.026	 -9.425	116.992	-12.902	 16.437
   15.200000000	 -8.850	 -8.255	 -9.361	106.898	 -9.377	106.832	-12.624	 15.075
   15.300000000	 -9.281	-10.508	 -9.308	 96.796	 -9.315	 96.721	-12.457	 13.685
   15.400000000	 -9.852	-13.781	 -9.245	 86.643	 -9.265	 86.615	-12.496	 11.884
   15.500000000	-10.719	-17.826	 -9.168	 76.477	 -9.191	 76.461	-12.712	 10.028
   15.600000000	-11.729	-22.991	 -9.099	 66.245	 -9.125	 66.250	-13.138	  9.095
   15.700000000	-12.970	-30.145	 -9.039	 55.967	 -9.057	 55.945	-13.690	  8.298
   15.800000000	-14.392	-40.239	 -8.979	 45.546	 -8.990	 45.557	-14.477	  7.785
   15.900000000	-15.904	-52.582	 -8.924	 35.066	 -8.947	 35.041	-15.399	  7.725
   16.000000000	-17.109	-69.397	 -8.888	 24.446	 -8.904	 24.420	-16.653	  9.167
   16.100000000	-17.504	-88.695	 -8.859	 13.726	 -8.888	 13.739	-18.218	  9.270
   16.200000000	-17.263	-106.686	 -8.850	  2.962	 -8.873	  3.030	-20.021	 12.061
   16.300000000	-16.458	-120.650	 -8.846	 -7.803	 -8.879	 -7.765	-22.946	 16.712
   16.400000000	-15.505	-130.632	 -8.857	-18.599	 -8.886	-18.559	-26.953	 28.345
   16.500000000	-14.589	-138.598	 -8.869	-29.436	 -8.896	-29.377	-30.415	 69.992
   16.600000000	-14.034	-143.749	 -8.875	-40.181	 -8.902	-40.114	-27.843	116.831
   16.700000000	-13.346	-148.655	 -8.885	-50.946	 -8.913	-50.865	-23.831	129.931
   16.800000000	-13.379	-151.818	 -8.874	-61.585	 -8.902	-61.518	-20.388	135.785
   16.900000000	-13.193	-156.273	 -8.855	-72.282	 -8.883	-72.228	-19.375	135.092
   17.000000000	-13.720	-158.184	 -8.811	-82.959	 -8.844	-82.854	-18.010	128.935
   17.100000000	-14.213	-163.819	 -8.768	-93.665	 -8.797	-93.612	-17.701	126.602
   17.200000000	-15.260	-164.018	 -8.707	-104.526	 -8.739	-104.475	-17.802	116.564
   17.300000000	-17.192	-168.296	 -8.650	-115.441	 -8.671	-115.385	-17.887	108.652
   17.400000000	-19.608	-168.144	 -8.590	-126.537	 -8.623	-126.512	-18.673	 98.038
   17.500000000	-23.744	-168.569	 -8.553	-137.795	 -8.581	-137.795	-19.252	 84.575
   17.600000000	-31.773	-156.552	 -8.524	-149.174	 -8.555	-149.135	-19.702	 68.407
   17.700000000	-33.774	-31.631	 -8.526	-160.773	 -8.556	-160.697	-19.450	 51.122
   17.800000000	-24.695	-15.166	 -8.558	-172.407	 -8.583	-172.352	-18.628	 37.053
   17.900000000	-20.257	-12.914	 -8.610	175.842	 -8.637	175.886	-17.423	 26.877
   18.000000000	-17.829	-11.622	 -8.680	164.068	 -8.709	164.137	-16.021	 19.228
   18.100000000	-15.816	-11.832	 -8.778	152.271	 -8.804	152.237	-14.674	 14.037
   18.200000000	-14.468	-12.167	 -8.894	140.380	 -8.918	140.420	-13.463	 10.553
   18.300000000	-13.554	-13.831	 -9.034	128.567	 -9.059	128.591	-12.233	  7.558
   18.400000000	-12.931	-14.504	 -9.186	116.822	 -9.218	116.861	-11.265	  4.541
   18.500000000	-12.808	-16.412	 -9.355	105.168	 -9.379	105.206	-10.514	  1.401
   18.600000000	-12.986	-17.562	 -9.556	 93.707	 -9.584	 93.721	 -9.932	 -1.718
   18.700000000	-13.789	-17.745	 -9.775	 82.541	 -9.803	 82.597	 -9.596	 -4.777
   18.800000000	-15.235	-14.612	-10.026	 71.984	-10.049	 72.013	 -9.515	 -8.946
   18.900000000	-17.039	 -4.501	-10.232	 62.360	-10.265	 62.385	 -9.827	-13.743
   19.000000000	-18.028	 15.749	-10.265	 53.623	-10.296	 53.653	-10.772	-17.325
   19.100000000	-17.170	 32.349	-10.016	 44.438	-10.054	 44.585	-12.405	-18.485
   19.200000000	-16.111	 45.294	 -9.638	 33.709	 -9.674	 33.839	-14.443	-13.447
   19.300000000	-15.366	 51.670	 -9.313	 21.373	 -9.352	 21.547	-16.009	  3.058
   19.400000000	-14.283	 59.910	 -9.146	  8.221	 -9.182	  8.397	-15.865	 19.224
   19.500000000	-13.713	 65.231	 -9.100	 -4.954	 -9.140	 -4.828	-14.500	 28.800
   19.600000000	-12.602	 65.819	 -9.128	-18.086	 -9.168	-17.982	-13.405	 32.446
   19.700000000	-11.952	 65.181	 -9.196	-31.102	 -9.232	-30.970	-12.565	 30.555
   19.800000000	-11.605	 61.045	 -9.265	-44.055	 -9.302	-43.924	-12.191	 27.235
   19.900000000	-11.600	 55.910	 -9.340	-57.107	 -9.374	-57.011	-12.243	 21.799
   20.000000000	-11.640	 48.342	 -9.421	-70.286	 -9.460	-70.120	-12.551	 15.312
