! Date: Wednesday, June 05, 2013  1:52 PM
! Filename: C:\Data\Mike_Arnold\TGP2105-SM\Over_Temp\TGP2105-SM_EVB01_25C_Phase49.s2p 
! Comments: 
!^VDC(V):5.000
!^VDC(mA):0.034
!%Freq(GHz),S11(dB),S11(ang),S21(dB),S21(ang),S12(dB),S12(ang),S22(dB),S22(ang)
# GHz   S   DB   R   50
    5.000000000	-16.417	-167.276	 -7.261	 36.026	 -7.274	 36.009	-10.521	-143.798
    5.100000000	-13.628	-168.357	 -7.423	 18.659	 -7.435	 18.643	-10.319	-147.414
    5.200000000	-11.377	-173.508	 -7.640	  2.019	 -7.654	  1.984	 -9.902	-150.564
    5.300000000	 -9.675	179.112	 -7.904	-13.903	 -7.921	-13.934	 -9.309	-154.836
    5.400000000	 -8.392	170.911	 -8.185	-28.891	 -8.196	-28.932	 -8.660	-159.903
    5.500000000	 -7.408	162.648	 -8.441	-42.869	 -8.453	-42.932	 -8.046	-165.788
    5.600000000	 -6.676	154.300	 -8.602	-56.263	 -8.618	-56.313	 -7.478	-171.834
    5.700000000	 -6.094	146.354	 -8.711	-69.739	 -8.719	-69.806	 -6.942	-178.115
    5.800000000	 -5.619	138.515	 -8.845	-82.838	 -8.859	-82.891	 -6.416	174.878
    5.900000000	 -5.217	130.449	 -8.975	-95.237	 -8.989	-95.304	 -6.026	167.568
    6.000000000	 -4.951	122.077	 -9.038	-107.105	 -9.047	-107.174	 -5.764	159.811
    6.100000000	 -4.828	113.603	 -9.014	-118.658	 -9.028	-118.728	 -5.649	152.115
    6.200000000	 -4.784	105.251	 -8.900	-129.950	 -8.913	-129.995	 -5.639	144.421
    6.300000000	 -4.813	 96.570	 -8.721	-141.322	 -8.735	-141.336	 -5.752	136.493
    6.400000000	 -4.964	 87.452	 -8.459	-152.841	 -8.474	-152.874	 -5.998	128.152
    6.500000000	 -5.225	 78.099	 -8.140	-164.637	 -8.152	-164.666	 -6.412	119.600
    6.600000000	 -5.568	 68.584	 -7.797	-176.700	 -7.808	-176.777	 -6.971	110.731
    6.700000000	 -6.035	 58.244	 -7.418	170.746	 -7.430	170.740	 -7.740	101.213
    6.800000000	 -6.640	 47.487	 -7.031	157.671	 -7.055	157.759	 -8.752	 91.064
    6.900000000	 -7.393	 36.655	 -6.674	144.360	 -6.698	144.409	-10.049	 80.654
    7.000000000	 -8.233	 25.555	 -6.373	130.654	 -6.393	130.724	-11.653	 69.389
    7.100000000	 -9.202	 14.459	 -6.118	116.788	 -6.141	116.837	-13.664	 57.393
    7.200000000	-10.274	  3.684	 -5.911	102.812	 -5.939	102.853	-16.186	 44.753
    7.300000000	-11.403	 -6.464	 -5.768	 88.887	 -5.797	 88.949	-19.260	 31.507
    7.400000000	-12.550	-15.793	 -5.675	 75.086	 -5.694	 75.119	-23.174	 16.854
    7.500000000	-13.763	-24.092	 -5.614	 61.404	 -5.634	 61.436	-28.782	 -0.300
    7.600000000	-14.981	-30.605	 -5.584	 47.904	 -5.612	 47.940	-40.362	-18.395
    7.700000000	-16.219	-35.218	 -5.587	 34.663	 -5.607	 34.708	-38.483	144.081
    7.800000000	-17.402	-37.214	 -5.594	 21.571	 -5.618	 21.635	-29.842	126.977
    7.900000000	-18.564	-36.496	 -5.624	  8.698	 -5.644	  8.743	-25.351	108.153
    8.000000000	-19.337	-32.642	 -5.657	 -3.991	 -5.686	 -3.939	-22.058	 90.859
    8.100000000	-19.702	-27.394	 -5.704	-16.525	 -5.731	-16.447	-19.670	 76.107
    8.200000000	-19.506	-22.577	 -5.757	-28.836	 -5.781	-28.774	-17.715	 63.797
    8.300000000	-18.975	-19.654	 -5.821	-40.978	 -5.844	-40.912	-16.088	 53.055
    8.400000000	-18.346	-20.055	 -5.871	-52.912	 -5.897	-52.837	-14.926	 43.403
    8.500000000	-18.056	-23.133	 -5.919	-64.708	 -5.945	-64.645	-14.129	 34.948
    8.600000000	-17.954	-28.218	 -5.954	-76.413	 -5.981	-76.347	-13.583	 27.864
    8.700000000	-18.216	-34.968	 -5.979	-88.043	 -6.005	-87.971	-13.338	 21.427
    8.800000000	-18.925	-44.622	 -5.990	-99.693	 -6.018	-99.598	-13.357	 15.868
    8.900000000	-20.185	-56.995	 -5.996	-111.297	 -6.019	-111.220	-13.629	 12.074
    9.000000000	-21.931	-72.717	 -6.000	-122.970	 -6.024	-122.884	-14.029	  8.367
    9.100000000	-23.790	-96.513	 -6.004	-134.684	 -6.030	-134.599	-14.514	  6.172
    9.200000000	-24.780	-130.160	 -6.012	-146.390	 -6.038	-146.317	-15.183	  4.787
    9.300000000	-23.827	-162.913	 -6.022	-158.091	 -6.051	-158.009	-15.679	  3.135
    9.400000000	-21.924	174.251	 -6.047	-169.774	 -6.077	-169.710	-16.244	  1.248
    9.500000000	-20.072	160.715	 -6.079	178.604	 -6.106	178.640	-16.880	 -3.291
    9.600000000	-18.643	151.131	 -6.106	166.988	 -6.145	167.075	-17.534	-10.184
    9.700000000	-17.551	145.828	 -6.144	155.480	 -6.169	155.574	-18.253	-20.326
    9.800000000	-16.553	142.492	 -6.176	143.958	 -6.206	144.041	-19.018	-35.929
    9.900000000	-15.704	140.241	 -6.222	132.461	 -6.259	132.548	-19.291	-56.384
   10.000000000	-15.303	127.695	 -6.296	120.917	 -6.327	121.028	-17.675	-70.632
   10.100000000	-14.677	122.593	 -6.367	109.539	 -6.394	109.645	-16.588	-87.126
   10.200000000	-13.993	118.133	 -6.440	 98.301	 -6.470	 98.361	-15.433	-100.574
   10.300000000	-13.600	112.930	 -6.518	 87.121	 -6.550	 87.200	-14.280	-112.567
   10.400000000	-13.253	107.640	 -6.606	 75.998	 -6.632	 76.123	-13.192	-122.294
   10.500000000	-13.196	102.491	 -6.687	 65.056	 -6.718	 65.166	-12.442	-130.991
   10.600000000	-13.247	 96.680	 -6.776	 54.167	 -6.804	 54.281	-11.643	-138.402
   10.700000000	-13.630	 90.691	 -6.866	 43.476	 -6.879	 43.463	-11.162	-144.831
   10.800000000	-14.209	 85.262	 -6.933	 32.653	 -6.955	 32.634	-10.740	-151.017
   10.900000000	-15.236	 79.205	 -7.003	 21.907	 -7.024	 21.857	-10.439	-156.201
   11.000000000	-16.608	 74.267	 -7.070	 11.085	 -7.088	 11.037	-10.223	-161.500
   11.100000000	-18.725	 69.030	 -7.134	  0.254	 -7.149	  0.204	-10.094	-166.478
   11.200000000	-21.889	 67.240	 -7.196	-10.648	 -7.214	-10.693	 -9.985	-171.335
   11.300000000	-27.553	 73.658	 -7.264	-21.618	 -7.280	-21.650	 -9.892	-176.484
   11.400000000	-34.063	146.664	 -7.337	-32.638	 -7.356	-32.674	 -9.799	178.155
   11.500000000	-25.083	-167.866	 -7.431	-43.692	 -7.444	-43.732	 -9.680	172.525
   11.600000000	-20.015	-165.418	 -7.532	-54.725	 -7.548	-54.824	 -9.538	166.408
   11.700000000	-16.698	-168.567	 -7.644	-65.813	 -7.662	-65.847	 -9.386	159.845
   11.800000000	-14.288	-173.729	 -7.779	-76.824	 -7.803	-76.860	 -9.173	152.928
   11.900000000	-12.497	179.958	 -7.933	-87.791	 -7.954	-87.816	 -8.929	145.596
   12.000000000	-11.104	173.523	 -8.104	-98.669	 -8.124	-98.711	 -8.664	137.975
   12.100000000	 -9.965	166.785	 -8.282	-109.449	 -8.300	-109.515	 -8.396	130.496
   12.200000000	 -9.050	159.880	 -8.473	-120.065	 -8.487	-120.148	 -8.130	122.927
   12.300000000	 -8.350	152.497	 -8.669	-130.631	 -8.683	-130.689	 -7.864	115.509
   12.400000000	 -7.797	145.200	 -8.862	-141.022	 -8.882	-141.082	 -7.637	108.294
   12.500000000	 -7.368	137.422	 -9.052	-151.276	 -9.069	-151.327	 -7.441	101.418
   12.600000000	 -7.032	129.584	 -9.232	-161.439	 -9.248	-161.486	 -7.278	 94.721
   12.700000000	 -6.833	121.317	 -9.394	-171.522	 -9.414	-171.597	 -7.179	 88.455
   12.800000000	 -6.669	112.895	 -9.540	178.442	 -9.564	178.371	 -7.137	 82.372
   12.900000000	 -6.551	104.116	 -9.679	168.465	 -9.698	168.379	 -7.142	 76.441
   13.000000000	 -6.484	 95.079	 -9.787	158.524	 -9.808	158.463	 -7.210	 70.712
   13.100000000	 -6.451	 85.961	 -9.889	148.556	 -9.904	148.514	 -7.338	 65.018
   13.200000000	 -6.397	 76.957	 -9.978	138.732	 -9.990	138.634	 -7.529	 59.282
   13.300000000	 -6.357	 67.642	-10.042	128.847	-10.055	128.769	 -7.792	 53.505
   13.400000000	 -6.308	 58.759	-10.080	119.016	-10.095	118.916	 -8.137	 47.723
   13.500000000	 -6.242	 50.022	-10.127	109.188	-10.137	109.064	 -8.500	 41.493
   13.600000000	 -6.155	 41.611	-10.155	 99.340	-10.161	 99.241	 -8.959	 35.182
   13.700000000	 -6.111	 33.591	-10.167	 89.585	-10.175	 89.497	 -9.453	 28.343
   13.800000000	 -6.067	 26.222	-10.165	 79.801	-10.172	 79.741	-10.007	 21.576
   13.900000000	 -6.053	 19.745	-10.146	 70.094	-10.153	 70.014	-10.611	 14.439
   14.000000000	 -6.055	 13.449	-10.116	 60.365	-10.131	 60.274	-11.237	  7.632
   14.100000000	 -6.135	  8.106	-10.066	 50.676	-10.077	 50.609	-11.902	  0.773
   14.200000000	 -6.243	  3.215	 -9.990	 40.903	-10.004	 40.802	-12.672	 -5.534
   14.300000000	 -6.416	 -0.752	 -9.895	 31.003	 -9.905	 30.934	-13.535	-10.222
   14.400000000	 -6.651	 -4.167	 -9.784	 21.029	 -9.795	 20.984	-14.512	-13.247
   14.500000000	 -6.911	 -6.479	 -9.653	 10.843	 -9.670	 10.781	-15.577	-14.613
   14.600000000	 -7.269	 -8.685	 -9.519	  0.544	 -9.530	  0.490	-16.619	-11.403
   14.700000000	 -7.607	 -9.195	 -9.385	 -9.937	 -9.393	 -9.967	-17.471	 -4.361
   14.800000000	 -8.007	 -9.766	 -9.250	-20.563	 -9.261	-20.644	-17.522	  4.595
   14.900000000	 -8.278	 -9.941	 -9.135	-31.293	 -9.156	-31.325	-16.929	 14.388
   15.000000000	 -8.650	 -9.115	 -9.031	-42.044	 -9.046	-42.120	-15.887	 20.573
   15.100000000	 -8.932	 -9.474	 -8.949	-52.778	 -8.962	-52.833	-14.785	 23.215
   15.200000000	 -9.315	 -9.908	 -8.869	-63.497	 -8.890	-63.594	-13.897	 23.688
   15.300000000	 -9.710	-11.071	 -8.813	-74.189	 -8.828	-74.259	-13.170	 22.880
   15.400000000	-10.196	-13.496	 -8.752	-84.810	 -8.772	-84.865	-12.736	 20.986
   15.500000000	-10.961	-16.879	 -8.699	-95.481	 -8.722	-95.503	-12.508	 18.508
   15.600000000	-11.816	-21.635	 -8.656	-106.054	 -8.672	-106.068	-12.516	 16.489
   15.700000000	-12.896	-28.432	 -8.615	-116.676	 -8.632	-116.736	-12.695	 14.092
   15.800000000	-14.108	-38.113	 -8.578	-127.452	 -8.598	-127.464	-13.099	 11.617
   15.900000000	-15.360	-49.962	 -8.560	-138.256	 -8.575	-138.269	-13.658	  8.832
   16.000000000	-16.311	-65.747	 -8.551	-149.127	 -8.569	-149.141	-14.514	  6.313
   16.100000000	-16.560	-83.783	 -8.553	-160.169	 -8.577	-160.137	-15.651	  1.300
   16.200000000	-16.222	-100.596	 -8.575	-171.188	 -8.601	-171.128	-17.055	 -3.455
   16.300000000	-15.388	-114.048	 -8.610	177.730	 -8.637	177.765	-19.264	-11.951
   16.400000000	-14.379	-124.255	 -8.660	166.659	 -8.689	166.672	-22.143	-26.192
   16.500000000	-13.397	-132.744	 -8.719	155.588	 -8.748	155.631	-26.160	-52.342
   16.600000000	-12.700	-138.589	 -8.779	144.610	 -8.809	144.676	-27.460	-106.907
   16.700000000	-11.928	-144.442	 -8.848	133.740	 -8.874	133.771	-24.315	-146.392
   16.800000000	-11.745	-148.599	 -8.896	122.957	 -8.925	123.036	-20.221	-168.703
   16.900000000	-11.403	-154.166	 -8.933	112.323	 -8.960	112.379	-18.274	-175.314
   17.000000000	-11.633	-157.919	 -8.937	101.756	 -8.966	101.844	-16.855	173.558
   17.100000000	-11.841	-165.020	 -8.931	 91.251	 -8.960	 91.288	-15.791	169.189
   17.200000000	-12.486	-168.870	 -8.896	 80.655	 -8.922	 80.703	-15.655	161.506
   17.300000000	-13.718	-177.252	 -8.832	 70.043	 -8.856	 70.088	-15.380	154.817
   17.400000000	-15.225	175.033	 -8.760	 59.296	 -8.788	 59.310	-15.669	149.035
   17.500000000	-17.378	161.519	 -8.682	 48.341	 -8.704	 48.375	-16.083	141.624
   17.600000000	-20.042	140.301	 -8.595	 37.196	 -8.626	 37.191	-16.748	133.164
   17.700000000	-21.891	103.276	 -8.539	 25.782	 -8.563	 25.805	-17.443	122.187
   17.800000000	-20.571	 63.509	 -8.497	 14.237	 -8.518	 14.245	-17.783	109.035
   17.900000000	-17.599	 38.254	 -8.475	  2.525	 -8.504	  2.568	-17.567	 94.132
   18.000000000	-15.094	 25.589	 -8.484	 -9.164	 -8.508	 -9.199	-16.779	 78.539
   18.100000000	-13.038	 16.022	 -8.522	-20.940	 -8.543	-20.999	-15.539	 65.626
   18.200000000	-11.525	  9.477	 -8.568	-32.663	 -8.592	-32.662	-14.103	 55.200
   18.300000000	-10.458	  3.544	 -8.619	-44.270	 -8.647	-44.261	-12.634	 46.332
   18.400000000	 -9.614	 -1.016	 -8.682	-55.677	 -8.706	-55.655	-11.399	 39.287
   18.500000000	 -9.158	 -5.889	 -8.717	-66.956	 -8.747	-66.931	-10.416	 33.541
   18.600000000	 -8.901	-10.321	 -8.741	-78.138	 -8.767	-78.087	 -9.611	 28.740
   18.700000000	 -9.005	-14.824	 -8.733	-89.165	 -8.761	-89.144	 -9.006	 25.176
   18.800000000	 -9.444	-19.263	 -8.701	-100.208	 -8.720	-100.179	 -8.623	 21.845
   18.900000000	-10.262	-24.000	 -8.638	-111.383	 -8.671	-111.379	 -8.417	 19.279
   19.000000000	-11.662	-28.500	 -8.569	-122.554	 -8.589	-122.594	 -8.312	 18.371
   19.100000000	-13.588	-33.129	 -8.504	-134.113	 -8.537	-133.979	 -8.263	 17.675
   19.200000000	-17.103	-36.852	 -8.445	-145.665	 -8.486	-145.571	 -8.241	 16.891
   19.300000000	-22.518	-39.439	 -8.407	-157.351	 -8.442	-157.235	 -8.208	 17.394
   19.400000000	-36.377	 45.140	 -8.386	-169.301	 -8.419	-169.200	 -8.225	 16.528
   19.500000000	-23.610	114.164	 -8.411	178.656	 -8.442	178.750	 -8.099	 15.451
   19.600000000	-18.084	107.103	 -8.455	166.512	 -8.489	166.640	 -8.136	 13.748
   19.700000000	-15.303	102.752	 -8.534	154.436	 -8.565	154.517	 -8.134	 10.384
   19.800000000	-13.842	 95.610	 -8.607	142.299	 -8.644	142.400	 -8.277	  6.381
   19.900000000	-13.077	 88.714	 -8.691	130.008	 -8.719	130.116	 -8.543	  0.843
   20.000000000	-12.671	 79.501	 -8.776	117.703	 -8.812	117.800	 -8.864	 -5.498
