! Date: Wednesday, June 05, 2013  1:51 PM
! Filename: C:\Data\Mike_Arnold\TGP2105-SM\Over_Temp\TGP2105-SM_EVB01_25C_Phase40.s2p 
! Comments: 
!^VDC(V):5.000
!^VDC(mA):0.049
!%Freq(GHz),S11(dB),S11(ang),S21(dB),S21(ang),S12(dB),S12(ang),S22(dB),S22(ang)
# GHz   S   DB   R   50
    5.000000000	 -6.503	 77.629	 -9.129	 -0.863	 -9.148	 -0.905	 -4.525	100.221
    5.100000000	 -7.768	 62.374	 -8.700	-15.401	 -8.717	-15.457	 -4.790	 93.764
    5.200000000	 -9.648	 45.059	 -8.279	-30.536	 -8.291	-30.553	 -5.179	 87.739
    5.300000000	-12.378	 23.318	 -7.911	-46.160	 -7.923	-46.198	 -5.624	 82.692
    5.400000000	-16.319	 -9.174	 -7.634	-62.169	 -7.650	-62.194	 -6.120	 78.427
    5.500000000	-19.518	-70.012	 -7.455	-78.130	 -7.472	-78.185	 -6.583	 75.165
    5.600000000	-16.747	-129.233	 -7.355	-93.865	 -7.370	-93.890	 -6.953	 72.927
    5.700000000	-13.263	-159.834	 -7.329	-109.422	 -7.338	-109.488	 -7.101	 70.413
    5.800000000	-10.849	-179.341	 -7.382	-124.528	 -7.396	-124.519	 -7.158	 66.712
    5.900000000	 -9.203	164.967	 -7.473	-138.894	 -7.484	-138.927	 -7.267	 61.812
    6.000000000	 -8.153	151.377	 -7.543	-152.641	 -7.560	-152.682	 -7.433	 55.967
    6.100000000	 -7.537	139.403	 -7.588	-165.961	 -7.601	-166.004	 -7.712	 48.971
    6.200000000	 -7.149	128.602	 -7.577	-178.902	 -7.594	-178.937	 -8.141	 41.091
    6.300000000	 -6.938	118.206	 -7.534	168.227	 -7.548	168.166	 -8.687	 32.399
    6.400000000	 -6.954	108.226	 -7.445	155.398	 -7.457	155.353	 -9.376	 22.768
    6.500000000	 -7.097	 98.793	 -7.317	142.579	 -7.332	142.527	-10.222	 12.047
    6.600000000	 -7.320	 89.586	 -7.187	129.597	 -7.200	129.560	-11.235	  0.672
    6.700000000	 -7.659	 80.018	 -7.041	116.530	 -7.055	116.498	-12.348	-11.486
    6.800000000	 -8.091	 70.395	 -6.892	103.240	 -6.917	103.315	-13.563	-24.586
    6.900000000	 -8.585	 60.868	 -6.761	 89.987	 -6.784	 90.067	-14.899	-37.867
    7.000000000	 -9.096	 50.668	 -6.645	 76.711	 -6.669	 76.774	-16.289	-50.466
    7.100000000	 -9.669	 40.096	 -6.540	 63.391	 -6.563	 63.435	-17.701	-61.971
    7.200000000	-10.274	 29.404	 -6.449	 50.088	 -6.471	 50.157	-19.199	-71.652
    7.300000000	-10.878	 18.480	 -6.367	 36.807	 -6.392	 36.854	-20.892	-77.824
    7.400000000	-11.485	  7.430	 -6.308	 23.560	 -6.333	 23.632	-22.561	-78.322
    7.500000000	-12.115	 -3.469	 -6.257	 10.336	 -6.284	 10.406	-23.849	-72.172
    7.600000000	-12.737	-13.594	 -6.228	 -2.739	 -6.251	 -2.677	-24.171	-60.470
    7.700000000	-13.372	-23.193	 -6.204	-15.741	 -6.226	-15.684	-23.139	-49.241
    7.800000000	-14.057	-31.945	 -6.182	-28.651	 -6.208	-28.571	-21.546	-44.907
    7.900000000	-14.856	-39.998	 -6.175	-41.462	 -6.198	-41.407	-20.087	-44.467
    8.000000000	-15.661	-47.016	 -6.165	-54.173	 -6.190	-54.101	-18.928	-46.697
    8.100000000	-16.651	-53.989	 -6.154	-66.809	 -6.183	-66.758	-18.059	-52.201
    8.200000000	-17.856	-60.698	 -6.149	-79.431	 -6.180	-79.325	-17.689	-59.603
    8.300000000	-19.410	-67.325	 -6.154	-91.957	 -6.178	-91.876	-17.752	-68.430
    8.400000000	-21.463	-74.549	 -6.159	-104.473	 -6.187	-104.418	-18.209	-79.804
    8.500000000	-24.659	-84.885	 -6.178	-117.006	 -6.205	-116.926	-19.035	-95.145
    8.600000000	-30.249	-100.637	 -6.207	-129.518	 -6.238	-129.448	-20.268	-115.750
    8.700000000	-40.956	178.265	 -6.261	-141.984	 -6.287	-141.908	-21.035	-142.894
    8.800000000	-30.627	100.724	 -6.328	-154.370	 -6.359	-154.313	-20.619	-172.746
    8.900000000	-25.115	 85.356	 -6.416	-166.645	 -6.444	-166.553	-18.967	160.785
    9.000000000	-22.346	 73.716	 -6.516	-178.747	 -6.542	-178.680	-17.249	142.676
    9.100000000	-20.865	 63.657	 -6.615	169.298	 -6.643	169.363	-15.673	129.140
    9.200000000	-20.426	 54.465	 -6.717	157.522	 -6.742	157.604	-14.341	120.122
    9.300000000	-20.767	 45.476	 -6.807	145.903	 -6.834	145.970	-13.434	112.778
    9.400000000	-22.137	 35.174	 -6.881	134.342	 -6.915	134.448	-12.678	107.769
    9.500000000	-25.446	 23.163	 -6.959	122.906	 -6.987	123.000	-12.156	104.844
    9.600000000	-32.628	  1.459	 -7.019	111.517	 -7.051	111.633	-11.714	102.621
    9.700000000	-33.709	-131.368	 -7.083	100.169	 -7.112	100.266	-11.283	101.045
    9.800000000	-24.058	-161.121	 -7.147	 88.898	 -7.174	 88.957	-10.890	100.240
    9.900000000	-19.424	-173.336	 -7.214	 77.623	 -7.247	 77.733	-10.545	 99.184
   10.000000000	-18.212	171.871	 -7.253	 66.016	 -7.277	 66.117	-10.603	 96.732
   10.100000000	-16.085	161.776	 -7.310	 54.842	 -7.344	 55.000	-10.437	 94.472
   10.200000000	-14.253	152.526	 -7.386	 43.782	 -7.413	 43.888	-10.258	 91.316
   10.300000000	-13.060	144.090	 -7.460	 32.868	 -7.481	 32.999	-10.146	 88.035
   10.400000000	-12.080	135.862	 -7.527	 22.111	 -7.562	 22.236	-10.127	 83.902
   10.500000000	-11.420	128.721	 -7.599	 11.459	 -7.635	 11.599	-10.077	 78.953
   10.600000000	-10.958	121.412	 -7.668	  1.008	 -7.701	  1.079	-10.228	 73.840
   10.700000000	-10.725	114.546	 -7.732	 -9.296	 -7.750	 -9.326	-10.369	 67.796
   10.800000000	-10.602	108.093	 -7.779	-19.646	 -7.800	-19.677	-10.555	 61.577
   10.900000000	-10.725	101.581	 -7.813	-29.937	 -7.833	-29.977	-10.815	 54.662
   11.000000000	-10.942	 95.440	 -7.847	-40.223	 -7.866	-40.249	-11.041	 47.719
   11.100000000	-11.393	 89.029	 -7.866	-50.466	 -7.885	-50.520	-11.250	 40.574
   11.200000000	-11.985	 83.195	 -7.878	-60.722	 -7.896	-60.769	-11.463	 33.570
   11.300000000	-12.858	 77.199	 -7.882	-70.996	 -7.897	-71.032	-11.643	 27.094
   11.400000000	-13.970	 71.416	 -7.879	-81.291	 -7.900	-81.291	-11.778	 21.057
   11.500000000	-15.477	 66.400	 -7.879	-91.608	 -7.891	-91.639	-11.905	 15.456
   11.600000000	-17.446	 61.710	 -7.867	-101.916	 -7.885	-101.974	-12.004	 10.718
   11.700000000	-20.288	 58.894	 -7.860	-112.331	 -7.879	-112.356	-12.055	  6.541
   11.800000000	-24.669	 62.550	 -7.859	-122.750	 -7.872	-122.770	-12.088	  2.920
   11.900000000	-30.508	 94.271	 -7.855	-133.160	 -7.874	-133.166	-12.107	 -0.155
   12.000000000	-28.380	157.312	 -7.861	-143.536	 -7.881	-143.582	-12.078	 -2.742
   12.100000000	-22.919	173.321	 -7.874	-153.999	 -7.883	-154.071	-12.092	 -5.662
   12.200000000	-19.405	173.344	 -7.886	-164.424	 -7.899	-164.489	-12.053	 -8.410
   12.300000000	-17.148	168.688	 -7.900	-174.865	 -7.917	-174.911	-12.063	-11.248
   12.400000000	-15.502	163.590	 -7.923	174.682	 -7.944	174.652	-12.081	-14.437
   12.500000000	-14.322	157.084	 -7.946	164.245	 -7.962	164.211	-12.180	-18.009
   12.600000000	-13.382	150.171	 -7.975	153.833	 -7.987	153.763	-12.301	-21.793
   12.700000000	-12.780	142.929	 -7.993	143.368	 -8.010	143.286	-12.527	-26.197
   12.800000000	-12.259	135.192	 -8.015	132.835	 -8.029	132.786	-12.790	-31.061
   12.900000000	-11.872	126.783	 -8.032	122.330	 -8.048	122.290	-13.114	-36.264
   13.000000000	-11.590	118.285	 -8.047	111.777	 -8.063	111.731	-13.496	-42.055
   13.100000000	-11.360	109.615	 -8.069	101.233	 -8.082	101.198	-13.926	-48.442
   13.200000000	-11.072	100.756	 -8.088	 90.718	 -8.101	 90.646	-14.357	-55.215
   13.300000000	-10.826	 91.474	 -8.105	 80.189	 -8.117	 80.134	-14.815	-62.465
   13.400000000	-10.535	 82.676	 -8.117	 69.671	 -8.128	 69.603	-15.289	-70.508
   13.500000000	-10.208	 73.753	 -8.128	 59.166	 -8.140	 59.052	-15.765	-77.795
   13.600000000	 -9.831	 65.181	 -8.146	 48.585	 -8.164	 48.555	-16.296	-86.048
   13.700000000	 -9.509	 57.176	 -8.174	 38.130	 -8.185	 38.078	-16.869	-93.402
   13.800000000	 -9.147	 49.917	 -8.202	 27.652	 -8.211	 27.583	-17.725	-100.854
   13.900000000	 -8.789	 43.772	 -8.223	 17.231	 -8.236	 17.159	-18.793	-107.382
   14.000000000	 -8.440	 37.756	 -8.258	  6.756	 -8.273	  6.713	-20.536	-112.646
   14.100000000	 -8.120	 32.967	 -8.296	 -3.619	 -8.305	 -3.655	-23.096	-115.014
   14.200000000	 -7.801	 28.504	 -8.335	-14.012	 -8.346	-14.084	-27.110	-111.363
   14.300000000	 -7.493	 24.861	 -8.380	-24.393	 -8.388	-24.443	-33.723	-73.113
   14.400000000	 -7.232	 21.508	 -8.423	-34.697	 -8.438	-34.776	-29.100	 -4.807
   14.500000000	 -6.943	 18.636	 -8.469	-44.968	 -8.488	-45.064	-23.363	  3.806
   14.600000000	 -6.781	 15.585	 -8.514	-55.153	 -8.531	-55.208	-19.806	  3.742
   14.700000000	 -6.594	 13.296	 -8.562	-65.225	 -8.576	-65.281	-17.497	  0.195
   14.800000000	 -6.557	 10.683	 -8.580	-75.177	 -8.595	-75.251	-15.807	 -5.024
   14.900000000	 -6.528	  7.865	 -8.590	-85.008	 -8.609	-85.119	-14.747	 -9.527
   15.000000000	 -6.655	  5.906	 -8.578	-94.768	 -8.593	-94.856	-14.132	-14.836
   15.100000000	 -6.866	  3.139	 -8.537	-104.508	 -8.555	-104.577	-13.843	-20.143
   15.200000000	 -7.250	  0.865	 -8.473	-114.263	 -8.489	-114.312	-13.955	-25.817
   15.300000000	 -7.716	 -1.504	 -8.394	-124.046	 -8.412	-124.111	-14.387	-30.960
   15.400000000	 -8.312	 -4.145	 -8.301	-133.954	 -8.317	-134.025	-15.150	-36.758
   15.500000000	 -9.124	 -6.635	 -8.188	-143.963	 -8.212	-144.020	-16.255	-42.794
   15.600000000	-10.016	 -9.418	 -8.092	-154.170	 -8.108	-154.146	-17.979	-49.011
   15.700000000	-11.046	-12.890	 -8.000	-164.441	 -8.022	-164.472	-20.274	-56.482
   15.800000000	-12.200	-17.555	 -7.921	-174.935	 -7.940	-174.953	-23.440	-68.212
   15.900000000	-13.398	-22.959	 -7.863	174.537	 -7.882	174.524	-27.874	-90.169
   16.000000000	-14.577	-31.045	 -7.827	163.874	 -7.841	163.834	-30.835	-150.704
   16.100000000	-15.569	-42.382	 -7.802	153.041	 -7.835	153.083	-26.569	169.171
   16.200000000	-16.256	-55.465	 -7.805	142.261	 -7.833	142.283	-22.834	148.652
   16.300000000	-16.305	-69.839	 -7.824	131.424	 -7.852	131.486	-20.026	139.935
   16.400000000	-15.845	-83.175	 -7.844	120.657	 -7.874	120.682	-18.217	132.713
   16.500000000	-15.133	-95.119	 -7.881	109.845	 -7.908	109.906	-16.799	125.361
   16.600000000	-14.388	-102.878	 -7.913	 99.107	 -7.940	 99.192	-15.993	118.688
   16.700000000	-13.508	-110.509	 -7.945	 88.412	 -7.971	 88.488	-15.536	110.558
   16.800000000	-13.063	-113.536	 -7.966	 77.828	 -7.989	 77.931	-15.291	104.668
   16.900000000	-12.501	-118.240	 -7.975	 67.187	 -8.003	 67.240	-16.059	 93.857
   17.000000000	-12.160	-118.913	 -7.978	 56.639	 -8.007	 56.693	-16.476	 81.719
   17.100000000	-11.985	-122.755	 -7.974	 46.077	 -7.999	 46.125	-17.926	 67.299
   17.200000000	-11.585	-123.102	 -7.984	 35.412	 -8.014	 35.476	-18.504	 44.224
   17.300000000	-11.781	-124.868	 -7.977	 24.877	 -8.005	 24.934	-18.903	 21.984
   17.400000000	-11.762	-126.751	 -7.985	 14.292	 -8.010	 14.333	-18.248	 -3.436
   17.500000000	-12.144	-129.820	 -7.986	  3.727	 -8.013	  3.741	-16.932	-21.793
   17.600000000	-12.729	-133.941	 -7.985	 -6.921	 -8.013	 -6.896	-15.471	-35.577
   17.700000000	-13.731	-139.493	 -7.992	-17.555	 -8.019	-17.561	-14.195	-44.575
   17.800000000	-15.223	-146.878	 -7.991	-28.331	 -8.014	-28.302	-13.250	-50.839
   17.900000000	-17.580	-157.701	 -7.984	-39.232	 -8.012	-39.169	-12.558	-55.088
   18.000000000	-20.679	-179.995	 -7.983	-50.226	 -8.006	-50.174	-11.960	-57.890
   18.100000000	-23.724	135.764	 -7.989	-61.347	 -8.009	-61.323	-11.537	-60.149
   18.200000000	-21.209	 85.958	 -7.995	-72.546	 -8.015	-72.550	-11.300	-62.057
   18.300000000	-17.621	 61.497	 -8.011	-83.773	 -8.043	-83.776	-11.181	-63.440
   18.400000000	-14.659	 48.323	 -8.032	-95.009	 -8.055	-94.970	-11.220	-65.731
   18.500000000	-12.795	 40.033	 -8.039	-106.170	 -8.071	-106.155	-11.495	-68.795
   18.600000000	-11.389	 33.655	 -8.049	-117.344	 -8.083	-117.315	-12.053	-72.239
   18.700000000	-10.486	 29.184	 -8.037	-128.400	 -8.064	-128.395	-13.061	-76.336
   18.800000000	 -9.904	 25.896	 -8.015	-139.530	 -8.043	-139.488	-14.425	-81.496
   18.900000000	 -9.577	 23.207	 -7.988	-150.647	 -8.010	-150.649	-16.429	-87.917
   19.000000000	 -9.463	 21.567	 -7.947	-161.887	 -7.978	-161.884	-19.871	-96.315
   19.100000000	 -9.456	 19.492	 -7.916	-173.249	 -7.955	-173.185	-25.223	-110.078
   19.200000000	 -9.728	 18.842	 -7.896	175.495	 -7.934	175.587	-34.687	-159.798
   19.300000000	-10.086	 15.939	 -7.860	164.125	 -7.894	164.224	-27.467	104.815
   19.400000000	-10.674	 14.682	 -7.818	152.661	 -7.855	152.738	-22.728	 88.611
   19.500000000	-11.799	 10.274	 -7.768	140.879	 -7.806	141.019	-19.933	 78.308
   19.600000000	-12.853	  6.697	 -7.732	128.887	 -7.762	129.042	-18.430	 74.143
   19.700000000	-14.655	  1.605	 -7.683	116.656	 -7.725	116.771	-17.808	 68.933
   19.800000000	-16.811	 -6.255	 -7.656	104.157	 -7.695	104.196	-17.546	 66.763
   19.900000000	-20.084	-17.664	 -7.640	 91.276	 -7.675	 91.384	-17.826	 65.395
   20.000000000	-24.184	-33.664	 -7.640	 78.221	 -7.673	 78.344	-18.277	 64.283
