! Date: Wednesday, June 05, 2013  1:49 PM
! Filename: C:\Data\Mike_Arnold\TGP2105-SM\Over_Temp\TGP2105-SM_EVB01_25C_Phase2.s2p 
! Comments: 
!^VDC(V):5.000
!^VDC(mA):0.024
!%Freq(GHz),S11(dB),S11(ang),S21(dB),S21(ang),S12(dB),S12(ang),S22(dB),S22(ang)
# GHz   S   DB   R   50
    5.000000000	-15.425	-151.053	 -7.469	124.229	 -7.483	124.185	 -7.625	100.033
    5.100000000	-11.979	-161.402	 -7.611	108.290	 -7.627	108.236	 -7.612	 97.579
    5.200000000	 -9.731	-172.873	 -7.781	 93.036	 -7.797	 93.026	 -7.508	 94.535
    5.300000000	 -8.256	175.729	 -7.966	 78.503	 -7.980	 78.478	 -7.329	 90.761
    5.400000000	 -7.267	164.846	 -8.112	 64.583	 -8.131	 64.560	 -7.210	 85.827
    5.500000000	 -6.575	154.886	 -8.219	 51.253	 -8.235	 51.217	 -7.171	 80.061
    5.600000000	 -6.116	145.099	 -8.271	 38.293	 -8.282	 38.260	 -7.283	 73.823
    5.700000000	 -5.865	135.700	 -8.264	 25.504	 -8.278	 25.487	 -7.523	 66.726
    5.800000000	 -5.808	126.935	 -8.192	 12.895	 -8.201	 12.844	 -7.947	 58.927
    5.900000000	 -5.842	118.696	 -8.066	  0.209	 -8.085	  0.172	 -8.629	 50.334
    6.000000000	 -6.014	110.553	 -7.919	-12.621	 -7.932	-12.675	 -9.595	 41.114
    6.100000000	 -6.360	102.721	 -7.751	-25.621	 -7.762	-25.614	-10.967	 30.986
    6.200000000	 -6.838	 95.535	 -7.571	-38.618	 -7.584	-38.661	-12.910	 20.305
    6.300000000	 -7.437	 88.931	 -7.374	-51.646	 -7.389	-51.662	-15.466	  9.684
    6.400000000	 -8.195	 83.422	 -7.120	-65.233	 -7.140	-65.294	-18.738	 -2.656
    6.500000000	 -8.912	 79.419	 -6.964	-79.425	 -6.979	-79.472	-23.897	-23.339
    6.600000000	 -9.467	 76.262	 -6.903	-93.403	 -6.918	-93.437	-32.429	-90.651
    6.700000000	 -9.920	 72.499	 -6.887	-107.233	 -6.904	-107.270	-26.445	-179.185
    6.800000000	-10.289	 68.438	 -6.890	-120.880	 -6.913	-120.827	-21.458	155.268
    6.900000000	-10.576	 64.150	 -6.931	-134.205	 -6.950	-134.152	-18.721	138.627
    7.000000000	-10.760	 58.703	 -6.979	-147.315	 -7.003	-147.267	-17.132	123.281
    7.100000000	-10.920	 52.366	 -7.031	-160.245	 -7.054	-160.169	-16.164	108.776
    7.200000000	-11.041	 45.457	 -7.075	-172.970	 -7.105	-172.915	-15.504	 94.383
    7.300000000	-11.112	 37.910	 -7.124	174.418	 -7.156	174.496	-14.979	 79.955
    7.400000000	-11.145	 29.719	 -7.173	161.912	 -7.202	162.014	-14.522	 65.177
    7.500000000	-11.174	 21.199	 -7.216	149.576	 -7.241	149.624	-14.132	 50.933
    7.600000000	-11.141	 12.654	 -7.258	137.320	 -7.284	137.416	-13.700	 37.476
    7.700000000	-11.105	  4.001	 -7.287	125.238	 -7.317	125.294	-13.248	 24.684
    7.800000000	-11.092	 -4.573	 -7.306	113.230	 -7.331	113.293	-12.882	 12.800
    7.900000000	-11.146	-13.081	 -7.311	101.316	 -7.344	101.351	-12.580	  2.313
    8.000000000	-11.222	-21.430	 -7.308	 89.456	 -7.336	 89.506	-12.379	 -7.026
    8.100000000	-11.466	-29.868	 -7.287	 77.592	 -7.318	 77.695	-12.354	-15.940
    8.200000000	-11.831	-38.189	 -7.254	 65.712	 -7.283	 65.817	-12.547	-23.969
    8.300000000	-12.386	-46.410	 -7.208	 53.849	 -7.238	 53.952	-12.980	-30.940
    8.400000000	-13.116	-54.666	 -7.151	 41.897	 -7.183	 42.000	-13.634	-37.530
    8.500000000	-14.149	-63.500	 -7.095	 29.820	 -7.124	 29.891	-14.615	-43.614
    8.600000000	-15.459	-72.104	 -7.046	 17.612	 -7.074	 17.709	-15.985	-48.376
    8.700000000	-17.045	-81.054	 -7.014	  5.307	 -7.037	  5.410	-17.699	-52.652
    8.800000000	-18.848	-91.407	 -6.985	 -7.039	 -7.023	 -6.975	-19.844	-56.311
    8.900000000	-20.885	-103.755	 -6.981	-19.437	 -7.012	-19.340	-22.902	-59.899
    9.000000000	-22.784	-119.191	 -6.990	-31.816	 -7.020	-31.702	-26.621	-65.257
    9.100000000	-23.853	-137.854	 -7.016	-44.165	 -7.046	-44.050	-32.902	-81.497
    9.200000000	-23.487	-157.993	 -7.051	-56.496	 -7.088	-56.405	-34.965	-169.610
    9.300000000	-22.076	-175.201	 -7.098	-68.830	 -7.136	-68.696	-27.926	156.815
    9.400000000	-20.212	172.468	 -7.163	-81.080	 -7.195	-80.955	-23.006	147.423
    9.500000000	-18.231	163.368	 -7.243	-93.224	 -7.276	-93.098	-19.597	143.722
    9.600000000	-16.548	154.663	 -7.334	-105.280	 -7.364	-105.173	-17.113	139.532
    9.700000000	-15.192	147.575	 -7.433	-117.147	 -7.468	-117.063	-15.194	134.871
    9.800000000	-14.083	140.590	 -7.543	-128.872	 -7.569	-128.764	-13.702	131.272
    9.900000000	-13.299	133.835	 -7.648	-140.454	 -7.681	-140.319	-12.594	127.223
   10.000000000	-13.231	120.231	 -7.722	-152.256	 -7.759	-152.151	-12.215	124.068
   10.100000000	-12.977	111.952	 -7.801	-163.532	 -7.830	-163.497	-11.746	119.873
   10.200000000	-12.808	105.040	 -7.871	-174.785	 -7.907	-174.665	-11.432	115.050
   10.300000000	-12.983	 97.771	 -7.938	174.110	 -7.966	174.229	-11.249	110.785
   10.400000000	-13.292	 91.448	 -7.978	163.104	 -8.014	163.204	-11.237	106.331
   10.500000000	-13.949	 85.679	 -8.015	152.157	 -8.049	152.231	-11.240	101.447
   10.600000000	-14.813	 80.395	 -8.036	141.174	 -8.070	141.317	-11.439	 97.419
   10.700000000	-16.107	 75.744	 -8.066	130.344	 -8.084	130.298	-11.637	 92.647
   10.800000000	-17.809	 73.568	 -8.083	119.381	 -8.097	119.335	-11.820	 88.185
   10.900000000	-20.273	 73.125	 -8.093	108.421	 -8.115	108.408	-12.055	 83.250
   11.000000000	-23.461	 81.666	 -8.107	 97.442	 -8.128	 97.395	-12.171	 78.318
   11.100000000	-27.149	108.290	 -8.135	 86.437	 -8.150	 86.438	-12.215	 72.811
   11.200000000	-25.724	151.536	 -8.160	 75.482	 -8.174	 75.421	-12.188	 67.204
   11.300000000	-21.716	170.591	 -8.194	 64.518	 -8.213	 64.472	-12.034	 61.440
   11.400000000	-18.511	174.214	 -8.239	 53.606	 -8.255	 53.595	-11.809	 55.345
   11.500000000	-16.032	173.046	 -8.293	 42.789	 -8.311	 42.734	-11.523	 49.119
   11.600000000	-14.223	169.437	 -8.360	 32.057	 -8.370	 32.028	-11.205	 43.003
   11.700000000	-12.801	165.152	 -8.424	 21.458	 -8.444	 21.434	-10.863	 36.761
   11.800000000	-11.670	160.175	 -8.502	 10.998	 -8.515	 10.974	-10.555	 30.761
   11.900000000	-10.771	154.492	 -8.570	  0.680	 -8.591	  0.604	-10.290	 24.963
   12.000000000	-10.120	148.803	 -8.638	 -9.540	 -8.660	 -9.589	-10.060	 19.361
   12.100000000	 -9.606	143.122	 -8.703	-19.638	 -8.720	-19.704	 -9.947	 13.765
   12.200000000	 -9.229	137.357	 -8.764	-29.617	 -8.773	-29.689	 -9.862	  8.367
   12.300000000	 -8.976	131.235	 -8.810	-39.545	 -8.828	-39.632	 -9.887	  3.156
   12.400000000	 -8.843	125.386	 -8.849	-49.445	 -8.860	-49.497	 -9.978	 -1.978
   12.500000000	 -8.773	119.171	 -8.876	-59.372	 -8.890	-59.416	-10.183	 -7.048
   12.600000000	 -8.764	113.010	 -8.890	-69.198	 -8.906	-69.305	-10.439	-11.912
   12.700000000	 -8.847	106.411	 -8.891	-79.182	 -8.909	-79.228	-10.815	-16.933
   12.800000000	 -8.925	 99.864	 -8.896	-89.167	 -8.908	-89.222	-11.258	-22.010
   12.900000000	 -8.993	 93.039	 -8.890	-99.204	 -8.909	-99.286	-11.770	-26.959
   13.000000000	 -9.081	 86.051	 -8.880	-109.313	 -8.896	-109.391	-12.381	-32.008
   13.100000000	 -9.160	 79.010	 -8.868	-119.478	 -8.883	-119.561	-13.062	-36.977
   13.200000000	 -9.155	 72.171	 -8.864	-129.664	 -8.882	-129.738	-13.785	-41.842
   13.300000000	 -9.124	 64.942	 -8.862	-139.939	 -8.879	-140.023	-14.561	-46.509
   13.400000000	 -9.038	 58.280	 -8.868	-150.193	 -8.879	-150.272	-15.401	-51.046
   13.500000000	 -8.885	 51.710	 -8.870	-160.492	 -8.888	-160.535	-16.216	-53.895
   13.600000000	 -8.650	 45.455	 -8.894	-170.745	 -8.903	-170.798	-17.082	-55.989
   13.700000000	 -8.434	 39.454	 -8.917	179.006	 -8.929	178.951	-17.778	-55.747
   13.800000000	 -8.142	 34.078	 -8.952	168.762	 -8.958	168.702	-18.357	-52.914
   13.900000000	 -7.845	 29.436	 -8.995	158.598	 -9.005	158.498	-18.492	-48.190
   14.000000000	 -7.507	 24.617	 -9.050	148.395	 -9.066	148.326	-18.193	-41.590
   14.100000000	 -7.209	 20.556	 -9.111	138.314	 -9.122	138.210	-17.273	-36.292
   14.200000000	 -6.901	 16.427	 -9.181	128.327	 -9.190	128.220	-16.179	-33.702
   14.300000000	 -6.626	 12.763	 -9.252	118.383	 -9.260	118.314	-15.049	-32.390
   14.400000000	 -6.404	  9.112	 -9.314	108.582	 -9.331	108.488	-14.023	-32.840
   14.500000000	 -6.207	  5.757	 -9.380	 98.875	 -9.391	 98.814	-13.095	-35.329
   14.600000000	 -6.143	  2.040	 -9.415	 89.345	 -9.430	 89.257	-12.416	-37.979
   14.700000000	 -6.107	 -0.885	 -9.432	 79.916	 -9.452	 79.841	-11.959	-41.764
   14.800000000	 -6.224	 -4.315	 -9.419	 70.567	 -9.432	 70.480	-11.624	-45.945
   14.900000000	 -6.369	 -7.862	 -9.384	 61.250	 -9.399	 61.146	-11.599	-50.196
   15.000000000	 -6.710	-10.671	 -9.308	 51.910	 -9.320	 51.855	-11.778	-55.256
   15.100000000	 -7.123	-14.377	 -9.208	 42.536	 -9.220	 42.480	-12.139	-60.607
   15.200000000	 -7.745	-17.876	 -9.076	 33.028	 -9.093	 32.962	-12.759	-66.886
   15.300000000	 -8.476	-21.602	 -8.949	 23.429	 -8.961	 23.382	-13.646	-73.465
   15.400000000	 -9.346	-25.980	 -8.810	 13.690	 -8.824	 13.602	-14.723	-81.464
   15.500000000	-10.489	-31.079	 -8.674	  3.738	 -8.695	  3.712	-16.007	-90.834
   15.600000000	-11.739	-37.135	 -8.556	 -6.268	 -8.578	 -6.292	-17.555	-103.297
   15.700000000	-13.136	-45.408	 -8.460	-16.386	 -8.476	-16.409	-19.056	-119.093
   15.800000000	-14.570	-56.927	 -8.379	-26.601	 -8.400	-26.659	-20.007	-139.267
   15.900000000	-15.914	-71.064	 -8.325	-36.843	 -8.347	-36.900	-20.134	-161.080
   16.000000000	-16.655	-89.044	 -8.294	-47.152	 -8.313	-47.207	-19.178	178.259
   16.100000000	-16.534	-107.666	 -8.277	-57.512	 -8.302	-57.468	-17.909	164.523
   16.200000000	-15.960	-123.738	 -8.278	-67.762	 -8.306	-67.726	-16.739	152.203
   16.300000000	-15.124	-136.179	 -8.283	-77.983	 -8.317	-77.955	-15.605	143.888
   16.400000000	-14.349	-145.481	 -8.288	-88.176	 -8.319	-88.145	-14.851	136.568
   16.500000000	-13.690	-153.202	 -8.288	-98.343	 -8.316	-98.325	-14.254	129.562
   16.600000000	-13.476	-158.875	 -8.267	-108.463	 -8.301	-108.422	-14.047	123.645
   16.700000000	-13.207	-163.630	 -8.241	-118.634	 -8.270	-118.590	-14.127	117.154
   16.800000000	-13.752	-167.596	 -8.190	-128.775	 -8.217	-128.735	-14.302	113.441
   16.900000000	-14.089	-170.986	 -8.122	-139.091	 -8.154	-139.040	-15.487	107.304
   17.000000000	-15.284	-172.169	 -8.050	-149.459	 -8.081	-149.416	-16.442	100.965
   17.100000000	-16.329	-175.950	 -7.981	-159.943	 -8.015	-159.900	-18.534	 97.046
   17.200000000	-18.123	-171.883	 -7.923	-170.639	 -7.953	-170.620	-20.989	 85.676
   17.300000000	-21.086	-172.214	 -7.873	178.685	 -7.899	178.709	-24.040	 77.441
   17.400000000	-24.541	-161.128	 -7.845	167.833	 -7.871	167.899	-28.822	 54.795
   17.500000000	-30.240	-136.138	 -7.837	156.971	 -7.861	156.957	-31.221	 11.263
   17.600000000	-30.824	-66.945	 -7.839	146.004	 -7.871	146.018	-28.204	-25.351
   17.700000000	-25.115	-33.648	 -7.869	134.947	 -7.899	134.946	-24.728	-35.963
   17.800000000	-20.989	-25.355	 -7.920	123.804	 -7.947	123.826	-22.282	-38.311
   17.900000000	-18.028	-22.674	 -7.993	112.640	 -8.021	112.644	-20.242	-38.012
   18.000000000	-16.201	-21.709	 -8.077	101.388	 -8.094	101.439	-18.345	-37.317
   18.100000000	-14.664	-22.647	 -8.172	 90.162	 -8.205	 90.190	-16.923	-37.210
   18.200000000	-13.742	-23.996	 -8.275	 78.880	 -8.307	 78.935	-15.947	-37.743
   18.300000000	-13.267	-26.669	 -8.384	 67.623	 -8.412	 67.653	-15.206	-37.798
   18.400000000	-13.217	-27.943	 -8.502	 56.328	 -8.529	 56.341	-14.903	-38.827
   18.500000000	-13.734	-29.792	 -8.621	 45.002	 -8.644	 45.034	-15.038	-39.856
   18.600000000	-14.697	-29.470	 -8.768	 33.694	 -8.800	 33.685	-15.639	-39.688
   18.700000000	-16.458	-26.395	 -8.950	 22.525	 -8.972	 22.491	-16.961	-37.035
   18.800000000	-18.965	-14.766	 -9.183	 11.691	 -9.209	 11.699	-18.941	-29.495
   18.900000000	-20.783	 12.668	 -9.418	  1.569	 -9.446	  1.599	-20.942	 -6.638
   19.000000000	-19.009	 44.532	 -9.556	 -7.583	 -9.594	 -7.591	-19.007	 27.908
   19.100000000	-16.036	 55.731	 -9.496	-16.815	 -9.537	-16.686	-15.242	 36.611
   19.200000000	-13.845	 60.704	 -9.313	-26.825	 -9.359	-26.749	-12.853	 32.505
   19.300000000	-12.597	 59.411	 -9.153	-37.862	 -9.192	-37.760	-11.490	 27.186
   19.400000000	-11.583	 59.418	 -9.069	-49.475	 -9.101	-49.325	-10.948	 19.523
   19.500000000	-11.397	 58.225	 -9.037	-61.140	 -9.071	-61.028	-10.714	 12.385
   19.600000000	-10.996	 55.582	 -9.037	-72.882	 -9.075	-72.783	-10.992	  5.450
   19.700000000	-11.009	 53.289	 -9.049	-84.670	 -9.084	-84.523	-11.419	 -2.643
   19.800000000	-11.184	 48.916	 -9.053	-96.595	 -9.087	-96.498	-12.177	-10.907
   19.900000000	-11.605	 44.083	 -9.060	-108.774	 -9.102	-108.642	-13.131	-20.953
   20.000000000	-11.950	 37.373	 -9.098	-121.072	 -9.136	-120.997	-14.191	-31.862
