! Date: Wednesday, June 05, 2013  1:51 PM
! Filename: C:\Data\Mike_Arnold\TGP2105-SM\Over_Temp\TGP2105-SM_EVB01_25C_Phase29.s2p 
! Comments: 
!^VDC(V):5.000
!^VDC(mA):0.133
!%Freq(GHz),S11(dB),S11(ang),S21(dB),S21(ang),S12(dB),S12(ang),S22(dB),S22(ang)
# GHz   S   DB   R   50
    5.000000000	 -8.547	120.089	 -6.816	-72.642	 -6.832	-72.667	 -8.210	-141.310
    5.100000000	 -8.824	111.512	 -6.747	-88.924	 -6.767	-88.990	 -7.606	-151.222
    5.200000000	 -9.264	102.209	 -6.668	-104.655	 -6.690	-104.683	 -7.241	-161.090
    5.300000000	 -9.921	 91.714	 -6.575	-120.006	 -6.592	-120.022	 -7.069	-170.963
    5.400000000	-10.926	 79.918	 -6.456	-135.094	 -6.469	-135.138	 -7.085	179.868
    5.500000000	-12.464	 67.030	 -6.326	-150.037	 -6.344	-150.050	 -7.245	171.457
    5.600000000	-14.614	 52.383	 -6.209	-164.834	 -6.223	-164.865	 -7.484	164.183
    5.700000000	-17.829	 33.366	 -6.111	-179.628	 -6.126	-179.694	 -7.827	157.852
    5.800000000	-22.906	 -1.604	 -6.054	165.717	 -6.064	165.688	 -8.181	152.884
    5.900000000	-25.371	-80.981	 -6.029	151.284	 -6.043	151.276	 -8.517	149.174
    6.000000000	-19.948	-131.963	 -6.062	137.213	 -6.075	137.154	 -8.753	145.800
    6.100000000	-16.071	-155.004	 -6.127	123.615	 -6.147	123.608	 -8.938	142.580
    6.200000000	-13.643	-171.925	 -6.211	110.798	 -6.220	110.779	 -9.120	139.152
    6.300000000	-12.253	173.598	 -6.192	 98.729	 -6.211	 98.707	 -9.426	135.854
    6.400000000	-11.468	162.994	 -6.037	 86.296	 -6.053	 86.260	 -9.657	133.353
    6.500000000	-10.769	153.535	 -5.926	 73.293	 -5.940	 73.265	 -9.704	129.916
    6.600000000	-10.236	143.463	 -5.874	 60.451	 -5.884	 60.391	 -9.819	124.505
    6.700000000	-10.066	132.974	 -5.819	 47.824	 -5.832	 47.813	-10.177	117.820
    6.800000000	-10.125	122.439	 -5.737	 35.267	 -5.759	 35.316	-10.770	110.407
    6.900000000	-10.391	112.049	 -5.655	 22.810	 -5.682	 22.837	-11.592	102.551
    7.000000000	-10.873	101.112	 -5.571	 10.280	 -5.593	 10.318	-12.683	 93.727
    7.100000000	-11.546	 90.187	 -5.485	 -2.314	 -5.509	 -2.270	-14.114	 84.264
    7.200000000	-12.350	 79.272	 -5.409	-14.938	 -5.434	-14.916	-15.881	 74.234
    7.300000000	-13.246	 68.110	 -5.352	-27.627	 -5.381	-27.557	-17.973	 63.616
    7.400000000	-14.214	 56.707	 -5.314	-40.260	 -5.338	-40.225	-20.396	 51.580
    7.500000000	-15.236	 45.435	 -5.295	-52.871	 -5.320	-52.828	-23.463	 38.044
    7.600000000	-16.157	 34.214	 -5.293	-65.423	 -5.316	-65.375	-26.960	 23.843
    7.700000000	-17.071	 23.333	 -5.303	-77.836	 -5.325	-77.789	-31.227	  8.971
    7.800000000	-17.982	 13.412	 -5.318	-90.196	 -5.344	-90.149	-38.070	 -2.246
    7.900000000	-18.989	  5.150	 -5.344	-102.470	 -5.373	-102.433	-45.204	 89.382
    8.000000000	-20.038	 -1.478	 -5.381	-114.663	 -5.410	-114.616	-33.140	107.561
    8.100000000	-21.386	 -5.085	 -5.431	-126.762	 -5.456	-126.730	-27.522	100.233
    8.200000000	-22.896	 -3.994	 -5.488	-138.833	 -5.514	-138.742	-23.495	 91.343
    8.300000000	-24.191	  4.748	 -5.559	-150.773	 -5.589	-150.721	-20.262	 82.002
    8.400000000	-24.376	 18.383	 -5.646	-162.658	 -5.667	-162.582	-17.868	 72.936
    8.500000000	-23.413	 32.272	 -5.734	-174.402	 -5.758	-174.341	-15.965	 64.669
    8.600000000	-21.592	 39.127	 -5.828	173.975	 -5.853	174.049	-14.394	 56.783
    8.700000000	-19.935	 39.708	 -5.922	162.475	 -5.951	162.547	-13.258	 49.038
    8.800000000	-18.796	 37.176	 -6.009	151.109	 -6.032	151.140	-12.462	 41.412
    8.900000000	-18.045	 33.189	 -6.082	139.825	 -6.112	139.895	-11.934	 34.607
    9.000000000	-17.688	 27.889	 -6.135	128.583	 -6.162	128.672	-11.693	 27.062
    9.100000000	-17.787	 21.432	 -6.170	117.361	 -6.202	117.439	-11.696	 20.011
    9.200000000	-18.455	 14.715	 -6.186	106.109	 -6.220	106.165	-12.055	 13.122
    9.300000000	-19.603	  7.696	 -6.195	 94.741	 -6.222	 94.784	-12.572	  5.772
    9.400000000	-21.389	 -0.822	 -6.192	 83.267	 -6.217	 83.363	-13.400	 -1.386
    9.500000000	-24.316	-12.329	 -6.190	 71.716	 -6.216	 71.774	-14.569	 -9.437
    9.600000000	-28.543	-29.784	 -6.193	 60.070	 -6.225	 60.201	-15.903	-18.198
    9.700000000	-33.068	-77.759	 -6.204	 48.408	 -6.235	 48.490	-17.395	-27.555
    9.800000000	-30.181	-135.485	 -6.234	 36.698	 -6.263	 36.765	-18.961	-40.684
    9.900000000	-25.683	-156.495	 -6.266	 24.943	 -6.298	 25.066	-20.061	-57.246
   10.000000000	-25.263	-164.588	 -6.315	 13.348	 -6.349	 13.436	-19.165	-71.572
   10.100000000	-22.702	-171.434	 -6.375	  1.677	 -6.407	  1.772	-18.485	-85.440
   10.200000000	-20.049	-178.017	 -6.439	 -9.962	 -6.469	 -9.868	-17.506	-96.207
   10.300000000	-18.126	177.751	 -6.517	-21.524	 -6.548	-21.447	-16.269	-106.034
   10.400000000	-16.307	172.603	 -6.607	-33.079	 -6.640	-33.013	-14.972	-113.723
   10.500000000	-14.743	167.960	 -6.703	-44.582	 -6.741	-44.430	-13.880	-120.727
   10.600000000	-13.442	162.301	 -6.830	-55.979	 -6.860	-55.900	-12.714	-127.364
   10.700000000	-12.400	156.690	 -6.968	-67.139	 -6.986	-67.203	-11.818	-133.521
   10.800000000	-11.463	150.730	 -7.105	-78.389	 -7.123	-78.432	-11.036	-140.060
   10.900000000	-10.840	144.745	 -7.242	-89.485	 -7.263	-89.511	-10.402	-146.172
   11.000000000	-10.300	138.502	 -7.379	-100.511	 -7.405	-100.532	 -9.919	-152.775
   11.100000000	-10.019	132.394	 -7.513	-111.392	 -7.528	-111.461	 -9.605	-159.277
   11.200000000	 -9.820	126.305	 -7.637	-122.285	 -7.651	-122.309	 -9.371	-165.882
   11.300000000	 -9.814	120.302	 -7.747	-133.112	 -7.768	-133.143	 -9.242	-172.822
   11.400000000	 -9.934	114.147	 -7.849	-143.912	 -7.872	-143.940	 -9.194	-179.861
   11.500000000	-10.199	108.321	 -7.941	-154.683	 -7.968	-154.719	 -9.196	173.030
   11.600000000	-10.629	102.148	 -8.028	-165.439	 -8.044	-165.481	 -9.229	165.727
   11.700000000	-11.252	 96.097	 -8.098	-176.257	 -8.115	-176.263	 -9.291	158.398
   11.800000000	-12.095	 90.135	 -8.157	172.922	 -8.175	172.893	 -9.317	151.084
   11.900000000	-13.126	 84.068	 -8.220	162.085	 -8.238	162.034	 -9.324	143.854
   12.000000000	-14.552	 77.664	 -8.279	151.185	 -8.298	151.162	 -9.285	136.730
   12.100000000	-16.508	 71.358	 -8.339	140.252	 -8.353	140.215	 -9.201	130.147
   12.200000000	-19.265	 65.887	 -8.402	129.315	 -8.417	129.257	 -9.074	123.665
   12.300000000	-23.386	 61.578	 -8.471	118.367	 -8.483	118.300	 -8.902	117.537
   12.400000000	-32.216	 67.691	 -8.536	107.364	 -8.552	107.299	 -8.716	111.679
   12.500000000	-33.147	-165.870	 -8.619	 96.377	 -8.628	 96.312	 -8.509	106.245
   12.600000000	-23.940	-158.807	 -8.694	 85.408	 -8.711	 85.372	 -8.294	100.862
   12.700000000	-19.809	-163.125	 -8.774	 74.466	 -8.793	 74.434	 -8.102	 95.800
   12.800000000	-17.141	-171.032	 -8.861	 63.576	 -8.879	 63.458	 -7.945	 90.870
   12.900000000	-15.341	-179.961	 -8.946	 52.681	 -8.959	 52.652	 -7.815	 85.997
   13.000000000	-14.016	170.835	 -9.028	 41.866	 -9.046	 41.823	 -7.725	 81.244
   13.100000000	-12.997	161.267	 -9.111	 31.096	 -9.121	 31.030	 -7.683	 76.480
   13.200000000	-12.140	150.842	 -9.187	 20.344	 -9.203	 20.290	 -7.689	 71.739
   13.300000000	-11.513	140.185	 -9.261	  9.709	 -9.269	  9.631	 -7.735	 66.842
   13.400000000	-10.907	129.449	 -9.319	 -0.877	 -9.337	 -0.950	 -7.843	 62.007
   13.500000000	-10.360	118.231	 -9.385	-11.534	 -9.397	-11.599	 -7.957	 56.611
   13.600000000	 -9.816	106.968	 -9.448	-22.097	 -9.465	-22.196	 -8.126	 51.246
   13.700000000	 -9.346	 96.240	 -9.536	-32.634	 -9.538	-32.748	 -8.303	 45.235
   13.800000000	 -8.850	 85.866	 -9.609	-43.157	 -9.623	-43.255	 -8.483	 39.149
   13.900000000	 -8.346	 76.431	 -9.704	-53.544	 -9.715	-53.624	 -8.685	 32.581
   14.000000000	 -7.914	 67.197	 -9.797	-63.850	 -9.813	-63.893	 -8.858	 25.938
   14.100000000	 -7.509	 59.281	 -9.898	-73.973	 -9.903	-74.092	 -9.030	 18.872
   14.200000000	 -7.174	 51.849	 -9.986	-84.046	 -9.993	-84.152	 -9.232	 11.915
   14.300000000	 -6.893	 45.447	-10.066	-93.977	-10.080	-94.101	 -9.453	  5.385
   14.400000000	 -6.714	 39.853	-10.124	-103.812	-10.140	-103.884	 -9.698	 -0.770
   14.500000000	 -6.553	 35.135	-10.178	-113.597	-10.184	-113.667	-10.013	 -7.008
   14.600000000	 -6.567	 31.049	-10.181	-123.282	-10.201	-123.338	-10.396	-12.029
   14.700000000	 -6.542	 28.242	-10.179	-132.990	-10.192	-133.088	-10.952	-16.563
   14.800000000	 -6.688	 25.999	-10.132	-142.743	-10.145	-142.829	-11.540	-20.306
   14.900000000	 -6.824	 24.109	-10.077	-152.626	-10.089	-152.678	-12.345	-22.304
   15.000000000	 -7.012	 23.963	 -9.992	-162.514	-10.008	-162.579	-13.282	-23.135
   15.100000000	 -7.238	 23.567	 -9.906	-172.537	 -9.920	-172.643	-14.286	-22.015
   15.200000000	 -7.490	 24.256	 -9.812	177.334	 -9.825	177.244	-15.343	-19.083
   15.300000000	 -7.706	 25.071	 -9.723	167.133	 -9.737	167.055	-16.267	-13.445
   15.400000000	 -7.932	 25.681	 -9.639	156.899	 -9.652	156.789	-16.970	 -7.075
   15.500000000	 -8.223	 26.575	 -9.551	146.536	 -9.572	146.517	-17.360	 -0.725
   15.600000000	 -8.504	 26.780	 -9.486	136.208	 -9.499	136.190	-17.685	  5.733
   15.700000000	 -8.871	 26.381	 -9.415	125.815	 -9.433	125.825	-17.943	 10.772
   15.800000000	 -9.372	 25.237	 -9.351	115.411	 -9.369	115.302	-18.407	 14.793
   15.900000000	 -9.913	 23.613	 -9.297	104.813	 -9.316	104.796	-18.995	 18.616
   16.000000000	-10.619	 20.717	 -9.241	 94.163	 -9.256	 94.159	-19.970	 24.783
   16.100000000	-11.439	 16.401	 -9.188	 83.334	 -9.215	 83.354	-21.262	 30.043
   16.200000000	-12.304	 11.100	 -9.157	 72.450	 -9.182	 72.488	-22.245	 39.434
   16.300000000	-13.152	  3.683	 -9.130	 61.416	 -9.156	 61.434	-23.734	 52.109
   16.400000000	-13.870	 -5.892	 -9.116	 50.306	 -9.149	 50.332	-24.905	 66.824
   16.500000000	-14.457	-17.446	 -9.118	 39.103	 -9.153	 39.177	-25.123	 85.558
   16.600000000	-14.423	-29.576	 -9.127	 27.953	 -9.164	 27.995	-25.054	105.097
   16.700000000	-14.235	-43.654	 -9.155	 16.727	 -9.185	 16.825	-24.048	119.927
   16.800000000	-13.464	-52.898	 -9.191	  5.704	 -9.222	  5.745	-21.761	136.385
   16.900000000	-12.880	-64.142	 -9.229	 -5.362	 -9.258	 -5.328	-21.044	145.795
   17.000000000	-12.018	-71.013	 -9.275	-16.210	 -9.307	-16.159	-19.294	146.737
   17.100000000	-11.694	-78.755	 -9.307	-26.936	 -9.336	-26.902	-18.199	150.772
   17.200000000	-10.989	-84.724	 -9.350	-37.677	 -9.380	-37.661	-17.680	146.975
   17.300000000	-10.921	-88.523	 -9.372	-48.196	 -9.398	-48.143	-16.933	142.683
   17.400000000	-10.780	-92.833	 -9.386	-58.739	 -9.409	-58.665	-16.838	137.399
   17.500000000	-11.021	-96.156	 -9.375	-69.225	 -9.399	-69.228	-16.851	128.500
   17.600000000	-11.459	-99.032	 -9.352	-79.890	 -9.378	-79.873	-17.110	117.219
   17.700000000	-12.163	-101.101	 -9.330	-90.726	 -9.354	-90.709	-17.347	102.588
   17.800000000	-13.100	-102.432	 -9.302	-101.701	 -9.331	-101.692	-17.174	 86.537
   17.900000000	-14.379	-102.343	 -9.288	-112.877	 -9.320	-112.848	-16.563	 70.406
   18.000000000	-16.280	-102.226	 -9.284	-124.246	 -9.312	-124.258	-15.612	 55.958
   18.100000000	-18.800	-97.454	 -9.304	-135.808	 -9.325	-135.795	-14.519	 44.944
   18.200000000	-22.570	-85.927	 -9.340	-147.494	 -9.367	-147.466	-13.413	 37.109
   18.300000000	-26.477	-51.416	 -9.419	-159.204	 -9.443	-159.202	-12.245	 31.162
   18.400000000	-24.293	  2.082	 -9.527	-170.904	 -9.550	-170.894	-11.263	 27.079
   18.500000000	-20.124	 20.379	 -9.676	177.464	 -9.695	177.507	-10.370	 23.748
   18.600000000	-16.955	 25.389	 -9.863	166.098	 -9.892	166.149	 -9.541	 20.865
   18.700000000	-15.049	 26.641	-10.085	155.353	-10.111	155.345	 -8.826	 18.267
   18.800000000	-13.919	 27.141	-10.317	145.238	-10.341	145.272	 -8.261	 14.657
   18.900000000	-13.344	 28.501	-10.478	136.132	-10.509	136.135	 -7.934	 10.587
   19.000000000	-12.895	 32.484	-10.442	127.660	-10.469	127.620	 -7.893	  7.007
   19.100000000	-12.173	 35.291	-10.165	118.531	-10.205	118.647	 -8.162	  3.482
   19.200000000	-11.491	 37.285	 -9.784	108.211	 -9.825	108.318	 -8.666	  0.339
   19.300000000	-11.208	 33.830	 -9.430	 96.627	 -9.470	 96.694	 -9.410	 -0.483
   19.400000000	-11.418	 31.782	 -9.154	 84.231	 -9.197	 84.314	-10.344	 -1.376
   19.500000000	-12.648	 27.968	 -8.954	 71.378	 -8.987	 71.445	-11.256	  0.478
   19.600000000	-13.943	 26.972	 -8.808	 58.181	 -8.844	 58.290	-12.273	  4.357
   19.700000000	-16.039	 30.031	 -8.694	 44.692	 -8.744	 44.812	-12.864	  9.204
   19.800000000	-18.227	 37.105	 -8.652	 30.851	 -8.675	 30.958	-13.147	 14.570
   19.900000000	-20.165	 52.060	 -8.637	 16.805	 -8.670	 16.913	-13.103	 17.484
   20.000000000	-20.418	 67.477	 -8.673	  2.667	 -8.713	  2.774	-12.824	 17.952
