! Date: Wednesday, June 05, 2013  1:52 PM
! Filename: C:\Data\Mike_Arnold\TGP2105-SM\Over_Temp\TGP2105-SM_EVB01_25C_Phase54.s2p 
! Comments: 
!^VDC(V):5.000
!^VDC(mA):0.098
!%Freq(GHz),S11(dB),S11(ang),S21(dB),S21(ang),S12(dB),S12(ang),S22(dB),S22(ang)
# GHz   S   DB   R   50
    5.000000000	-32.317	-27.590	 -6.929	 80.913	 -6.944	 80.898	-11.976	-159.453
    5.100000000	-25.345	-101.733	 -6.880	 62.476	 -6.892	 62.443	-11.693	-164.230
    5.200000000	-19.919	-121.840	 -6.890	 44.738	 -6.902	 44.725	-11.525	-168.537
    5.300000000	-16.582	-134.003	 -6.943	 27.642	 -6.959	 27.629	-11.348	-172.846
    5.400000000	-14.139	-144.027	 -7.037	 11.287	 -7.053	 11.247	-11.137	-176.336
    5.500000000	-12.229	-153.888	 -7.145	 -4.280	 -7.160	 -4.277	-10.863	-179.742
    5.600000000	-10.857	-163.702	 -7.196	-19.131	 -7.210	-19.146	-10.528	177.199
    5.700000000	 -9.797	-172.209	 -7.195	-34.062	 -7.208	-34.093	-10.096	174.496
    5.800000000	 -8.813	179.946	 -7.266	-48.825	 -7.276	-48.885	 -9.451	170.894
    5.900000000	 -7.924	171.148	 -7.374	-62.959	 -7.385	-63.012	 -8.829	166.028
    6.000000000	 -7.280	162.062	 -7.468	-76.477	 -7.480	-76.510	 -8.327	159.747
    6.100000000	 -6.857	153.133	 -7.512	-89.417	 -7.532	-89.489	 -8.008	152.770
    6.200000000	 -6.564	144.305	 -7.511	-101.983	 -7.528	-102.020	 -7.833	145.509
    6.300000000	 -6.400	135.211	 -7.456	-114.357	 -7.470	-114.404	 -7.823	137.667
    6.400000000	 -6.423	126.182	 -7.336	-126.677	 -7.354	-126.682	 -8.006	129.099
    6.500000000	 -6.579	117.275	 -7.159	-139.034	 -7.177	-139.036	 -8.408	120.142
    6.600000000	 -6.825	108.353	 -6.967	-151.507	 -6.979	-151.528	 -8.991	110.611
    6.700000000	 -7.258	 98.987	 -6.734	-164.189	 -6.749	-164.231	 -9.842	 99.935
    6.800000000	 -7.846	 89.603	 -6.484	-177.265	 -6.509	-177.207	-11.011	 88.204
    6.900000000	 -8.570	 80.516	 -6.264	169.515	 -6.286	169.584	-12.529	 75.221
    7.000000000	 -9.399	 71.232	 -6.077	156.099	 -6.098	156.139	-14.415	 59.665
    7.100000000	-10.355	 62.198	 -5.920	142.553	 -5.943	142.622	-16.698	 40.331
    7.200000000	-11.359	 53.766	 -5.812	129.020	 -5.831	129.083	-19.178	 14.893
    7.300000000	-12.336	 45.694	 -5.733	115.571	 -5.758	115.626	-21.057	-17.467
    7.400000000	-13.240	 37.962	 -5.690	102.266	 -5.713	102.292	-21.363	-52.066
    7.500000000	-14.059	 30.710	 -5.672	 89.097	 -5.698	 89.130	-20.558	-81.229
    7.600000000	-14.681	 24.026	 -5.674	 76.127	 -5.694	 76.181	-19.699	-103.244
    7.700000000	-15.156	 17.610	 -5.687	 63.361	 -5.707	 63.405	-19.154	-120.849
    7.800000000	-15.484	 11.731	 -5.702	 50.780	 -5.726	 50.827	-18.838	-137.101
    7.900000000	-15.758	  6.689	 -5.721	 38.333	 -5.748	 38.410	-18.935	-153.874
    8.000000000	-15.875	  2.122	 -5.743	 26.035	 -5.764	 26.096	-19.249	-172.427
    8.100000000	-16.014	 -1.966	 -5.770	 13.898	 -5.792	 13.956	-19.488	167.846
    8.200000000	-16.065	 -5.360	 -5.792	  1.774	 -5.823	  1.906	-19.406	146.455
    8.300000000	-16.075	 -8.330	 -5.823	-10.120	 -5.850	-10.013	-18.819	124.702
    8.400000000	-16.021	-11.971	 -5.855	-21.919	 -5.882	-21.859	-18.011	105.909
    8.500000000	-16.146	-16.027	 -5.882	-33.628	 -5.909	-33.552	-17.159	 90.521
    8.600000000	-16.298	-20.769	 -5.911	-45.246	 -5.936	-45.179	-16.256	 78.010
    8.700000000	-16.625	-26.992	 -5.928	-56.850	 -5.953	-56.749	-15.654	 68.013
    8.800000000	-17.251	-35.188	 -5.943	-68.363	 -5.965	-68.287	-15.314	 60.219
    8.900000000	-18.288	-45.546	 -5.948	-79.891	 -5.977	-79.804	-15.157	 55.390
    9.000000000	-19.701	-58.664	 -5.959	-91.431	 -5.984	-91.350	-15.253	 51.399
    9.100000000	-21.439	-77.509	 -5.967	-102.942	 -5.998	-102.895	-15.386	 49.652
    9.200000000	-23.072	-105.493	 -5.988	-114.495	 -6.012	-114.420	-15.648	 50.471
    9.300000000	-23.406	-140.016	 -6.011	-126.022	 -6.033	-125.955	-15.754	 51.366
    9.400000000	-22.051	-169.916	 -6.044	-137.484	 -6.068	-137.411	-15.752	 53.028
    9.500000000	-20.188	169.472	 -6.085	-148.875	 -6.113	-148.797	-15.812	 54.002
    9.600000000	-18.692	154.571	 -6.125	-160.141	 -6.152	-160.041	-15.832	 53.423
    9.700000000	-17.688	145.040	 -6.163	-171.286	 -6.188	-171.242	-15.945	 51.542
    9.800000000	-17.028	138.328	 -6.186	177.612	 -6.214	177.669	-16.498	 48.408
    9.900000000	-16.713	133.826	 -6.210	166.515	 -6.242	166.568	-17.388	 43.153
   10.000000000	-16.809	121.397	 -6.251	155.189	 -6.285	155.255	-18.168	 30.638
   10.100000000	-16.828	117.074	 -6.272	144.057	 -6.306	144.150	-19.451	 17.059
   10.200000000	-16.644	115.276	 -6.300	133.009	 -6.336	133.092	-20.586	 -1.153
   10.300000000	-16.702	113.699	 -6.326	121.956	 -6.352	122.077	-21.499	-25.109
   10.400000000	-16.563	113.085	 -6.358	110.951	 -6.389	111.013	-21.184	-52.001
   10.500000000	-16.539	113.057	 -6.392	 99.953	 -6.423	100.026	-20.180	-73.795
   10.600000000	-16.414	112.350	 -6.440	 88.985	 -6.468	 89.114	-18.576	-92.882
   10.700000000	-16.481	111.186	 -6.494	 78.192	 -6.513	 78.153	-17.255	-105.628
   10.800000000	-16.515	110.458	 -6.546	 67.282	 -6.567	 67.242	-16.136	-116.690
   10.900000000	-16.912	108.879	 -6.601	 56.410	 -6.621	 56.391	-15.192	-124.950
   11.000000000	-17.330	108.214	 -6.657	 45.555	 -6.675	 45.506	-14.531	-132.649
   11.100000000	-18.213	107.708	 -6.708	 34.716	 -6.726	 34.644	-14.077	-139.126
   11.200000000	-19.168	109.519	 -6.760	 23.810	 -6.780	 23.781	-13.713	-145.177
   11.300000000	-20.521	114.046	 -6.814	 12.875	 -6.831	 12.892	-13.467	-151.233
   11.400000000	-21.929	123.246	 -6.866	  1.990	 -6.884	  1.927	-13.281	-157.075
   11.500000000	-22.760	139.935	 -6.924	 -8.993	 -6.940	 -9.032	-13.099	-162.997
   11.600000000	-22.407	158.345	 -6.988	-19.972	 -7.004	-20.046	-12.918	-169.257
   11.700000000	-20.748	173.903	 -7.044	-31.026	 -7.069	-31.048	-12.747	-175.804
   11.800000000	-18.587	-177.471	 -7.128	-42.085	 -7.151	-42.128	-12.489	177.139
   11.900000000	-16.590	-174.790	 -7.221	-53.118	 -7.234	-53.152	-12.181	169.553
   12.000000000	-14.890	-174.521	 -7.315	-64.155	 -7.336	-64.157	-11.828	161.517
   12.100000000	-13.347	-176.304	 -7.435	-75.129	 -7.454	-75.197	-11.417	153.594
   12.200000000	-12.039	-179.451	 -7.560	-86.118	 -7.576	-86.183	-11.012	145.356
   12.300000000	-11.001	176.036	 -7.700	-97.043	 -7.713	-97.084	-10.573	137.199
   12.400000000	-10.105	171.210	 -7.836	-107.908	 -7.852	-107.936	-10.176	129.238
   12.500000000	 -9.387	165.475	 -7.982	-118.674	 -8.001	-118.719	 -9.803	121.702
   12.600000000	 -8.778	159.246	 -8.132	-129.334	 -8.147	-129.387	 -9.488	114.270
   12.700000000	 -8.360	152.631	 -8.267	-139.964	 -8.283	-140.036	 -9.243	107.434
   12.800000000	 -8.007	145.474	 -8.398	-150.530	 -8.413	-150.600	 -9.090	100.865
   12.900000000	 -7.745	137.779	 -8.516	-161.069	 -8.531	-161.130	 -8.999	 94.529
   13.000000000	 -7.580	129.821	 -8.612	-171.575	 -8.632	-171.610	 -9.005	 88.592
   13.100000000	 -7.468	121.573	 -8.712	177.932	 -8.726	177.915	 -9.099	 82.850
   13.200000000	 -7.353	113.083	 -8.788	167.486	 -8.805	167.428	 -9.275	 77.187
   13.300000000	 -7.298	104.208	 -8.854	157.052	 -8.865	156.988	 -9.557	 71.626
   13.400000000	 -7.228	 95.505	 -8.898	146.578	 -8.909	146.493	 -9.964	 66.278
   13.500000000	 -7.131	 86.585	 -8.940	136.095	 -8.952	135.988	-10.415	 60.449
   13.600000000	 -7.001	 77.754	 -8.981	125.553	 -8.995	125.479	-11.016	 54.763
   13.700000000	 -6.912	 69.262	 -9.016	115.081	 -9.023	114.986	-11.721	 48.532
   13.800000000	 -6.783	 61.278	 -9.051	104.560	 -9.060	104.529	-12.513	 42.427
   13.900000000	 -6.636	 54.092	 -9.081	 94.098	 -9.090	 94.023	-13.451	 35.863
   14.000000000	 -6.501	 47.046	 -9.109	 83.621	 -9.122	 83.569	-14.461	 29.855
   14.100000000	 -6.393	 41.154	 -9.139	 73.237	 -9.146	 73.144	-15.647	 23.839
   14.200000000	 -6.298	 35.687	 -9.156	 62.803	 -9.168	 62.745	-17.030	 19.390
   14.300000000	 -6.224	 31.181	 -9.166	 52.383	 -9.180	 52.314	-18.568	 18.421
   14.400000000	 -6.192	 27.348	 -9.167	 41.961	 -9.178	 41.837	-20.105	 22.751
   14.500000000	 -6.128	 24.298	 -9.165	 31.433	 -9.177	 31.392	-21.278	 33.025
   14.600000000	 -6.168	 21.613	 -9.152	 20.926	 -9.167	 20.830	-20.766	 48.940
   14.700000000	 -6.118	 20.109	 -9.151	 10.374	 -9.171	 10.276	-18.955	 61.340
   14.800000000	 -6.153	 18.625	 -9.152	 -0.233	 -9.165	 -0.308	-16.786	 65.073
   14.900000000	 -6.130	 17.086	 -9.162	-10.790	 -9.177	-10.851	-14.670	 65.315
   15.000000000	 -6.142	 16.485	 -9.178	-21.161	 -9.195	-21.270	-12.946	 62.805
   15.100000000	 -6.176	 14.873	 -9.205	-31.463	 -9.224	-31.573	-11.575	 58.884
   15.200000000	 -6.293	 13.486	 -9.233	-41.635	 -9.242	-41.719	-10.524	 54.556
   15.300000000	 -6.455	 11.562	 -9.254	-51.653	 -9.268	-51.719	 -9.683	 49.987
   15.400000000	 -6.717	  8.991	 -9.262	-61.508	 -9.279	-61.601	 -9.104	 45.358
   15.500000000	 -7.166	  6.110	 -9.245	-71.374	 -9.273	-71.362	 -8.714	 40.693
   15.600000000	 -7.715	  2.428	 -9.233	-81.118	 -9.256	-81.150	 -8.484	 36.655
   15.700000000	 -8.450	 -2.272	 -9.200	-90.890	 -9.220	-90.924	 -8.402	 32.631
   15.800000000	 -9.397	 -8.355	 -9.156	-100.832	 -9.173	-100.875	 -8.482	 28.712
   15.900000000	-10.492	-15.252	 -9.105	-110.855	 -9.124	-110.895	 -8.643	 24.812
   16.000000000	-11.745	-24.505	 -9.056	-121.017	 -9.072	-121.073	 -8.948	 21.296
   16.100000000	-13.025	-36.568	 -9.008	-131.429	 -9.037	-131.350	 -9.380	 16.608
   16.200000000	-14.216	-50.678	 -8.977	-141.841	 -9.002	-141.784	 -9.841	 12.132
   16.300000000	-14.965	-66.898	 -8.952	-152.393	 -8.977	-152.392	-10.537	  6.531
   16.400000000	-15.144	-83.073	 -8.931	-163.052	 -8.965	-163.035	-11.310	 -0.249
   16.500000000	-14.931	-98.294	 -8.928	-173.753	 -8.957	-173.710	-12.222	 -7.783
   16.600000000	-14.521	-109.073	 -8.922	175.566	 -8.946	175.628	-13.276	-17.731
   16.700000000	-13.869	-119.356	 -8.927	164.900	 -8.961	164.935	-14.339	-28.862
   16.800000000	-13.732	-124.812	 -8.914	154.315	 -8.944	154.330	-15.833	-44.035
   16.900000000	-13.370	-132.128	 -8.914	143.717	 -8.944	143.757	-16.154	-60.490
   17.000000000	-13.518	-135.227	 -8.885	133.268	 -8.915	133.320	-16.926	-75.608
   17.100000000	-13.810	-142.316	 -8.859	122.835	 -8.884	122.867	-16.659	-92.066
   17.200000000	-14.276	-144.339	 -8.806	112.384	 -8.836	112.442	-16.742	-101.490
   17.300000000	-15.702	-149.188	 -8.734	101.960	 -8.764	101.984	-16.840	-111.774
   17.400000000	-17.285	-151.881	 -8.656	 91.424	 -8.680	 91.412	-16.799	-117.467
   17.500000000	-20.170	-156.075	 -8.571	 80.729	 -8.591	 80.778	-17.114	-121.531
   17.600000000	-25.036	-158.971	 -8.474	 69.902	 -8.497	 69.935	-17.540	-122.414
   17.700000000	-40.347	-148.979	 -8.390	 58.844	 -8.417	 58.893	-18.183	-121.392
   17.800000000	-28.552	  4.883	 -8.315	 47.673	 -8.341	 47.731	-18.965	-120.003
   17.900000000	-21.523	  3.736	 -8.257	 36.333	 -8.286	 36.372	-20.062	-117.769
   18.000000000	-18.177	  3.396	 -8.204	 24.885	 -8.233	 24.948	-21.536	-114.126
   18.100000000	-15.750	  1.520	 -8.168	 13.375	 -8.195	 13.406	-23.812	-109.920
   18.200000000	-14.164	  0.840	 -8.135	  1.772	 -8.172	  1.811	-27.992	-102.020
   18.300000000	-13.038	 -0.256	 -8.114	 -9.846	 -8.142	 -9.818	-34.863	-46.980
   18.400000000	-12.071	  0.070	 -8.098	-21.484	 -8.122	-21.450	-28.520	 21.505
   18.500000000	-11.437	 -0.412	 -8.076	-33.082	 -8.106	-33.038	-22.812	 33.146
   18.600000000	-10.877	 -0.698	 -8.058	-44.655	 -8.087	-44.639	-19.216	 35.441
   18.700000000	-10.579	 -1.245	 -8.038	-56.174	 -8.063	-56.138	-16.792	 36.026
   18.800000000	-10.522	 -1.969	 -8.009	-67.634	 -8.040	-67.652	-15.226	 34.711
   18.900000000	-10.714	 -3.085	 -7.976	-79.127	 -8.004	-79.101	-14.203	 33.851
   19.000000000	-11.272	 -3.798	 -7.948	-90.624	 -7.969	-90.620	-13.453	 35.141
   19.100000000	-12.061	 -4.659	 -7.913	-102.198	 -7.950	-102.098	-12.921	 36.436
   19.200000000	-13.556	 -2.928	 -7.876	-113.791	 -7.916	-113.704	-12.569	 37.961
   19.300000000	-15.302	 -1.332	 -7.853	-125.508	 -7.884	-125.406	-12.076	 41.631
   19.400000000	-17.623	  9.829	 -7.842	-137.432	 -7.874	-137.328	-11.696	 43.852
   19.500000000	-20.459	 25.859	 -7.854	-149.528	 -7.886	-149.443	-11.021	 45.241
   19.600000000	-20.383	 51.012	 -7.897	-161.723	 -7.933	-161.557	-10.478	 46.057
   19.700000000	-19.093	 70.028	 -7.958	-173.896	 -7.993	-173.783	 -9.959	 44.379
   19.800000000	-17.634	 76.301	 -8.025	173.839	 -8.068	173.933	 -9.563	 41.925
   19.900000000	-16.702	 78.383	 -8.089	161.505	 -8.126	161.621	 -9.391	 37.916
   20.000000000	-16.057	 75.197	 -8.155	149.054	 -8.196	149.169	 -9.344	 32.931
