! Date: Wednesday, June 05, 2013  1:52 PM
! Filename: C:\Data\Mike_Arnold\TGP2105-SM\Over_Temp\TGP2105-SM_EVB01_25C_Phase53.s2p 
! Comments: 
!^VDC(V):5.000
!^VDC(mA):0.096
!%Freq(GHz),S11(dB),S11(ang),S21(dB),S21(ang),S12(dB),S12(ang),S22(dB),S22(ang)
# GHz   S   DB   R   50
    5.000000000	-19.926	 36.829	 -7.222	 68.017	 -7.241	 67.980	 -9.352	-137.863
    5.100000000	-22.533	-13.283	 -7.215	 50.190	 -7.231	 50.165	 -9.010	-145.586
    5.200000000	-20.276	-69.025	 -7.258	 32.931	 -7.272	 32.920	 -8.752	-152.396
    5.300000000	-16.510	-101.101	 -7.352	 16.256	 -7.370	 16.218	 -8.486	-159.012
    5.400000000	-13.563	-121.716	 -7.493	  0.299	 -7.508	  0.254	 -8.211	-165.042
    5.500000000	-11.373	-137.915	 -7.640	-14.850	 -7.654	-14.885	 -7.922	-170.853
    5.600000000	 -9.850	-151.719	 -7.742	-29.339	 -7.756	-29.340	 -7.606	-176.294
    5.700000000	 -8.657	-163.429	 -7.801	-43.836	 -7.817	-43.888	 -7.252	178.346
    5.800000000	 -7.639	-174.185	 -7.935	-57.965	 -7.946	-58.021	 -6.821	172.518
    5.900000000	 -6.805	174.988	 -8.074	-71.340	 -8.088	-71.436	 -6.463	166.239
    6.000000000	 -6.240	164.397	 -8.185	-84.123	 -8.197	-84.158	 -6.200	159.327
    6.100000000	 -5.878	154.372	 -8.221	-96.353	 -8.238	-96.380	 -6.065	152.236
    6.200000000	 -5.631	144.726	 -8.196	-108.200	 -8.212	-108.231	 -6.020	145.101
    6.300000000	 -5.495	134.936	 -8.105	-119.947	 -8.115	-119.960	 -6.096	137.663
    6.400000000	 -5.531	125.247	 -7.928	-131.708	 -7.942	-131.758	 -6.310	129.766
    6.500000000	 -5.686	115.693	 -7.698	-143.578	 -7.712	-143.587	 -6.679	121.688
    6.600000000	 -5.926	106.015	 -7.439	-155.581	 -7.456	-155.614	 -7.182	113.223
    6.700000000	 -6.323	 95.735	 -7.126	-167.953	 -7.139	-167.992	 -7.884	104.111
    6.800000000	 -6.874	 85.224	 -6.800	179.235	 -6.825	179.305	 -8.822	 94.482
    6.900000000	 -7.576	 74.681	 -6.486	166.184	 -6.509	166.223	-10.021	 84.552
    7.000000000	 -8.402	 63.665	 -6.215	152.791	 -6.233	152.840	-11.499	 73.771
    7.100000000	 -9.382	 52.534	 -5.974	139.199	 -5.994	139.249	-13.348	 62.572
    7.200000000	-10.492	 41.493	 -5.781	125.491	 -5.804	125.548	-15.633	 50.828
    7.300000000	-11.669	 30.633	 -5.643	111.805	 -5.666	111.860	-18.336	 38.791
    7.400000000	-12.892	 20.008	 -5.543	 98.190	 -5.566	 98.245	-21.634	 25.955
    7.500000000	-14.182	  9.998	 -5.479	 84.691	 -5.509	 84.727	-25.896	 13.780
    7.600000000	-15.452	  1.240	 -5.451	 71.379	 -5.476	 71.403	-31.926	  7.058
    7.700000000	-16.746	 -6.217	 -5.445	 58.237	 -5.470	 58.281	-40.592	 40.796
    7.800000000	-18.025	-11.248	 -5.448	 45.288	 -5.474	 45.347	-34.439	104.983
    7.900000000	-19.382	-13.265	 -5.471	 32.515	 -5.493	 32.558	-28.021	100.375
    8.000000000	-20.482	-11.401	 -5.505	 19.927	 -5.525	 19.957	-23.877	 88.007
    8.100000000	-21.237	 -5.723	 -5.548	  7.442	 -5.572	  7.524	-20.978	 76.431
    8.200000000	-21.211	  1.712	 -5.599	 -4.845	 -5.625	 -4.798	-18.661	 65.935
    8.300000000	-20.417	  8.063	 -5.663	-16.924	 -5.689	-16.853	-16.730	 56.291
    8.400000000	-19.312	 10.081	 -5.726	-28.814	 -5.753	-28.755	-15.307	 47.237
    8.500000000	-18.457	  9.376	 -5.780	-40.605	 -5.807	-40.487	-14.251	 38.903
    8.600000000	-17.688	  5.961	 -5.827	-52.172	 -5.856	-52.109	-13.459	 31.554
    8.700000000	-17.296	  0.827	 -5.864	-63.682	 -5.892	-63.583	-13.011	 24.510
    8.800000000	-17.337	 -5.884	 -5.885	-75.131	 -5.915	-75.069	-12.854	 17.950
    8.900000000	-17.815	-13.424	 -5.895	-86.564	 -5.925	-86.478	-12.990	 12.572
    9.000000000	-18.698	-21.938	 -5.894	-98.009	 -5.920	-97.951	-13.334	  6.945
    9.100000000	-20.120	-32.641	 -5.887	-109.507	 -5.915	-109.455	-13.900	  2.629
    9.200000000	-22.331	-47.088	 -5.874	-121.084	 -5.904	-121.021	-14.815	 -0.915
    9.300000000	-25.105	-67.867	 -5.869	-132.710	 -5.901	-132.614	-15.724	 -3.907
    9.400000000	-27.460	-102.187	 -5.878	-144.354	 -5.903	-144.257	-16.800	 -6.002
    9.500000000	-26.746	-142.702	 -5.890	-155.980	 -5.919	-155.898	-17.956	 -9.239
    9.600000000	-24.404	-168.731	 -5.910	-167.574	 -5.942	-167.506	-18.994	-13.827
    9.700000000	-22.068	178.648	 -5.935	-179.109	 -5.969	-179.042	-19.987	-20.810
    9.800000000	-20.096	171.709	 -5.971	169.308	 -5.999	169.388	-20.928	-34.300
    9.900000000	-18.488	167.603	 -6.019	157.751	 -6.046	157.841	-21.212	-53.121
   10.000000000	-18.027	154.977	 -6.076	146.262	 -6.106	146.336	-19.446	-67.185
   10.100000000	-16.935	149.701	 -6.143	134.823	 -6.175	134.886	-18.079	-83.200
   10.200000000	-15.683	144.787	 -6.224	123.454	 -6.253	123.531	-16.602	-95.890
   10.300000000	-14.808	139.644	 -6.308	112.217	 -6.344	112.317	-15.166	-107.700
   10.400000000	-13.963	133.969	 -6.407	101.038	 -6.433	101.119	-13.813	-117.166
   10.500000000	-13.406	128.833	 -6.507	 89.984	 -6.539	 90.092	-12.807	-125.843
   10.600000000	-12.982	122.564	 -6.623	 79.042	 -6.652	 79.106	-11.811	-133.621
   10.700000000	-12.836	116.457	 -6.736	 68.289	 -6.755	 68.259	-11.140	-140.459
   10.800000000	-12.823	110.509	 -6.843	 57.466	 -6.860	 57.433	-10.572	-147.339
   10.900000000	-13.161	104.014	 -6.939	 46.779	 -6.959	 46.731	-10.152	-153.263
   11.000000000	-13.649	 97.895	 -7.035	 36.058	 -7.053	 35.996	 -9.867	-159.423
   11.100000000	-14.560	 91.288	 -7.117	 25.336	 -7.138	 25.308	 -9.703	-165.235
   11.200000000	-15.787	 85.341	 -7.195	 14.565	 -7.212	 14.530	 -9.583	-170.966
   11.300000000	-17.636	 79.101	 -7.270	  3.758	 -7.290	  3.709	 -9.524	-176.889
   11.400000000	-20.372	 73.169	 -7.347	 -7.111	 -7.364	 -7.139	 -9.488	177.110
   11.500000000	-25.090	 69.587	 -7.430	-18.058	 -7.447	-18.096	 -9.459	171.013
   11.600000000	-37.270	 79.003	 -7.514	-29.022	 -7.533	-29.055	 -9.414	164.641
   11.700000000	-29.324	-137.555	 -7.619	-40.025	 -7.628	-40.040	 -9.346	158.071
   11.800000000	-21.644	-139.806	 -7.725	-51.112	 -7.743	-51.131	 -9.217	151.297
   11.900000000	-17.653	-145.869	 -7.853	-62.116	 -7.874	-62.154	 -9.044	144.258
   12.000000000	-14.943	-151.963	 -8.000	-73.100	 -8.021	-73.138	 -8.820	136.967
   12.100000000	-12.874	-158.708	 -8.159	-84.076	 -8.176	-84.114	 -8.579	129.845
   12.200000000	-11.287	-165.735	 -8.339	-94.903	 -8.351	-94.978	 -8.322	122.618
   12.300000000	-10.087	-173.088	 -8.521	-105.670	 -8.535	-105.779	 -8.054	115.516
   12.400000000	 -9.110	179.753	 -8.712	-116.315	 -8.725	-116.381	 -7.814	108.565
   12.500000000	 -8.354	172.217	 -8.900	-126.822	 -8.915	-126.904	 -7.604	101.908
   12.600000000	 -7.744	164.462	 -9.087	-137.239	 -9.104	-137.304	 -7.418	 95.339
   12.700000000	 -7.324	156.658	 -9.258	-147.585	 -9.272	-147.604	 -7.297	 89.205
   12.800000000	 -6.988	148.522	 -9.413	-157.814	 -9.430	-157.886	 -7.235	 83.187
   12.900000000	 -6.743	140.005	 -9.556	-168.030	 -9.570	-168.055	 -7.219	 77.322
   13.000000000	 -6.593	131.310	 -9.672	-178.203	 -9.688	-178.251	 -7.275	 71.658
   13.100000000	 -6.494	122.433	 -9.775	171.704	 -9.790	171.598	 -7.393	 66.060
   13.200000000	 -6.399	113.341	 -9.866	161.624	 -9.875	161.534	 -7.567	 60.371
   13.300000000	 -6.359	103.943	 -9.925	151.472	 -9.940	151.384	 -7.812	 54.755
   13.400000000	 -6.304	 94.720	 -9.969	141.383	 -9.984	141.268	 -8.143	 49.088
   13.500000000	 -6.235	 85.300	-10.010	131.179	-10.022	131.094	 -8.469	 42.963
   13.600000000	 -6.147	 75.936	-10.046	121.033	-10.052	120.869	 -8.894	 36.860
   13.700000000	 -6.097	 66.950	-10.070	110.870	-10.079	110.784	 -9.355	 30.152
   13.800000000	 -6.021	 58.385	-10.083	100.755	-10.095	100.668	 -9.839	 23.437
   13.900000000	 -5.946	 50.685	-10.095	 90.683	-10.097	 90.597	-10.377	 16.314
   14.000000000	 -5.887	 43.154	-10.096	 80.638	-10.107	 80.557	-10.924	  9.394
   14.100000000	 -5.863	 36.734	-10.082	 70.634	-10.082	 70.552	-11.508	  2.357
   14.200000000	 -5.871	 30.786	-10.044	 60.666	-10.054	 60.596	-12.187	 -4.322
   14.300000000	 -5.921	 25.813	 -9.991	 50.641	-10.003	 50.548	-12.948	 -9.782
   14.400000000	 -6.029	 21.569	 -9.911	 40.567	 -9.929	 40.432	-13.833	-13.903
   14.500000000	 -6.135	 18.314	 -9.828	 30.342	 -9.841	 30.249	-14.875	-16.915
   14.600000000	 -6.355	 15.533	 -9.717	 20.058	 -9.730	 19.972	-16.024	-15.893
   14.700000000	 -6.520	 14.270	 -9.607	  9.623	 -9.617	  9.542	-17.250	-11.091
   14.800000000	 -6.773	 13.320	 -9.486	 -0.997	 -9.502	 -1.035	-17.859	 -2.174
   14.900000000	 -6.936	 12.724	 -9.380	-11.678	 -9.390	-11.729	-17.711	 10.075
   15.000000000	 -7.117	 13.445	 -9.283	-22.366	 -9.299	-22.419	-16.758	 19.736
   15.100000000	 -7.265	 13.364	 -9.205	-33.052	 -9.218	-33.125	-15.493	 24.819
   15.200000000	 -7.443	 13.671	 -9.136	-43.733	 -9.152	-43.786	-14.349	 26.494
   15.300000000	 -7.611	 13.485	 -9.081	-54.298	 -9.094	-54.382	-13.378	 26.046
   15.400000000	 -7.847	 12.535	 -9.031	-64.808	 -9.047	-64.898	-12.751	 23.902
   15.500000000	 -8.240	 11.368	 -8.977	-75.267	 -8.993	-75.294	-12.388	 20.812
   15.600000000	 -8.700	  9.373	 -8.925	-85.663	 -8.943	-85.726	-12.311	 18.128
   15.700000000	 -9.337	  6.512	 -8.871	-96.120	 -8.888	-96.152	-12.456	 14.979
   15.800000000	-10.166	  2.502	 -8.817	-106.678	 -8.834	-106.719	-12.888	 11.684
   15.900000000	-11.112	 -2.085	 -8.770	-117.300	 -8.785	-117.337	-13.511	  8.402
   16.000000000	-12.219	 -8.643	 -8.724	-128.041	 -8.742	-128.112	-14.462	  5.740
   16.100000000	-13.397	-17.687	 -8.694	-139.005	 -8.718	-138.966	-15.702	  0.945
   16.200000000	-14.535	-28.755	 -8.681	-149.959	 -8.710	-149.968	-17.177	 -3.146
   16.300000000	-15.339	-42.524	 -8.691	-161.064	 -8.709	-161.067	-19.422	-10.449
   16.400000000	-15.592	-58.061	 -8.709	-172.223	 -8.738	-172.223	-22.296	-22.920
   16.500000000	-15.392	-73.853	 -8.749	176.583	 -8.779	176.640	-26.356	-45.766
   16.600000000	-14.739	-86.056	 -8.801	165.524	 -8.826	165.584	-28.390	-99.350
   16.700000000	-13.874	-98.389	 -8.866	154.515	 -8.894	154.582	-25.215	-142.122
   16.800000000	-13.274	-105.042	 -8.923	143.667	 -8.951	143.716	-20.800	-165.757
   16.900000000	-12.645	-114.000	 -8.980	132.947	 -9.010	132.992	-18.623	-172.004
   17.000000000	-12.326	-118.569	 -9.020	122.432	 -9.049	122.475	-17.007	176.708
   17.100000000	-12.290	-126.406	 -9.039	111.961	 -9.070	112.010	-15.777	172.220
   17.200000000	-12.259	-130.192	 -9.039	101.557	 -9.066	101.574	-15.493	164.274
   17.300000000	-13.006	-135.554	 -9.003	 91.214	 -9.028	 91.228	-15.104	156.865
   17.400000000	-13.761	-140.179	 -8.956	 80.739	 -8.981	 80.778	-15.284	150.339
   17.500000000	-15.224	-146.159	 -8.871	 70.150	 -8.901	 70.158	-15.651	141.901
   17.600000000	-17.321	-152.871	 -8.792	 59.296	 -8.822	 59.370	-16.307	132.377
   17.700000000	-20.679	-162.795	 -8.707	 48.256	 -8.730	 48.265	-17.048	120.213
   17.800000000	-26.245	175.290	 -8.637	 36.958	 -8.660	 36.944	-17.502	106.357
   17.900000000	-30.172	 90.564	 -8.591	 25.416	 -8.617	 25.455	-17.431	 91.087
   18.000000000	-22.501	 49.297	 -8.558	 13.764	 -8.584	 13.803	-16.833	 75.646
   18.100000000	-17.767	 35.100	 -8.562	  1.947	 -8.582	  2.016	-15.733	 63.217
   18.200000000	-14.711	 28.470	 -8.581	 -9.779	 -8.608	 -9.772	-14.388	 53.813
   18.300000000	-12.641	 22.860	 -8.623	-21.522	 -8.652	-21.521	-12.936	 45.934
   18.400000000	-10.967	 18.487	 -8.690	-33.099	 -8.712	-33.084	-11.668	 39.838
   18.500000000	 -9.854	 14.027	 -8.743	-44.529	 -8.773	-44.528	-10.609	 34.701
   18.600000000	 -8.990	  9.806	 -8.802	-55.782	 -8.830	-55.750	 -9.703	 30.286
   18.700000000	 -8.485	  5.597	 -8.840	-66.847	 -8.863	-66.817	 -8.993	 26.781
   18.800000000	 -8.300	  1.532	 -8.845	-77.739	 -8.876	-77.754	 -8.498	 23.248
   18.900000000	 -8.407	 -2.845	 -8.829	-88.671	 -8.856	-88.620	 -8.202	 20.171
   19.000000000	 -8.862	 -7.071	 -8.790	-99.592	 -8.810	-99.538	 -8.040	 18.540
   19.100000000	 -9.593	-11.800	 -8.726	-110.671	 -8.755	-110.584	 -7.998	 16.939
   19.200000000	-10.998	-15.967	 -8.644	-121.848	 -8.681	-121.781	 -8.058	 15.378
   19.300000000	-12.787	-21.762	 -8.563	-133.229	 -8.601	-133.135	 -8.148	 15.361
   19.400000000	-15.798	-24.687	 -8.478	-145.045	 -8.515	-144.911	 -8.315	 14.425
   19.500000000	-20.679	-33.167	 -8.440	-157.111	 -8.473	-157.066	 -8.333	 13.795
   19.600000000	-30.692	-22.467	 -8.435	-169.412	 -8.468	-169.344	 -8.460	 12.848
   19.700000000	-28.647	119.614	 -8.466	178.150	 -8.496	178.264	 -8.491	 10.374
   19.800000000	-21.286	119.720	 -8.525	165.668	 -8.551	165.734	 -8.611	  7.243
   19.900000000	-17.901	115.620	 -8.585	153.050	 -8.618	153.139	 -8.814	  2.249
   20.000000000	-16.068	107.729	 -8.668	140.360	 -8.707	140.478	 -9.074	 -3.742
