! Date: Wednesday, June 05, 2013  1:50 PM
! Filename: C:\Data\Mike_Arnold\TGP2105-SM\Over_Temp\TGP2105-SM_EVB01_25C_Phase15.s2p 
! Comments: 
!^VDC(V):5.000
!^VDC(mA):0.134
!%Freq(GHz),S11(dB),S11(ang),S21(dB),S21(ang),S12(dB),S12(ang),S22(dB),S22(ang)
# GHz   S   DB   R   50
    5.000000000	 -8.196	116.332	 -7.559	-144.332	 -7.576	-144.365	 -6.734	 93.460
    5.100000000	 -8.721	105.458	 -7.377	-160.051	 -7.393	-160.098	 -6.703	 86.304
    5.200000000	 -9.566	 94.138	 -7.158	-175.583	 -7.172	-175.597	 -6.902	 78.802
    5.300000000	-10.828	 81.957	 -6.922	168.939	 -6.935	168.932	 -7.291	 71.610
    5.400000000	-12.719	 68.967	 -6.682	153.332	 -6.699	153.294	 -7.926	 64.507
    5.500000000	-15.722	 55.540	 -6.467	137.613	 -6.480	137.590	 -8.785	 58.222
    5.600000000	-20.707	 42.047	 -6.295	121.887	 -6.315	121.859	 -9.886	 53.285
    5.700000000	-33.556	 22.567	 -6.190	106.220	 -6.207	106.208	-11.083	 49.718
    5.800000000	-26.303	-156.388	 -6.145	 90.807	 -6.159	 90.797	-12.311	 48.008
    5.900000000	-19.080	-172.121	 -6.153	 75.727	 -6.163	 75.700	-13.537	 47.408
    6.000000000	-15.787	175.058	 -6.206	 61.069	 -6.219	 61.028	-14.599	 47.331
    6.100000000	-13.947	163.920	 -6.287	 46.905	 -6.300	 46.879	-15.651	 46.125
    6.200000000	-12.780	152.981	 -6.380	 33.393	 -6.392	 33.353	-17.012	 44.648
    6.300000000	-12.222	141.256	 -6.406	 20.669	 -6.419	 20.619	-18.526	 45.402
    6.400000000	-12.447	130.990	 -6.275	  7.809	 -6.294	  7.791	-19.558	 45.532
    6.500000000	-13.030	123.772	 -6.165	 -5.813	 -6.178	 -5.831	-20.883	 39.318
    6.600000000	-13.607	118.654	 -6.109	-19.431	 -6.126	-19.463	-23.482	 28.964
    6.700000000	-14.362	114.002	 -6.096	-32.964	 -6.111	-32.996	-28.165	 16.322
    6.800000000	-15.197	110.847	 -6.096	-46.445	 -6.118	-46.381	-39.535	-15.528
    6.900000000	-15.966	109.219	 -6.122	-59.687	 -6.144	-59.641	-34.040	-160.829
    7.000000000	-16.668	107.325	 -6.163	-72.777	 -6.187	-72.715	-27.443	177.762
    7.100000000	-17.246	105.991	 -6.210	-85.708	 -6.237	-85.652	-24.254	164.003
    7.200000000	-17.640	104.523	 -6.266	-98.478	 -6.293	-98.401	-22.304	150.622
    7.300000000	-17.837	101.704	 -6.328	-111.127	 -6.351	-111.050	-21.052	135.974
    7.400000000	-17.961	 97.344	 -6.384	-123.613	 -6.412	-123.564	-20.273	120.583
    7.500000000	-17.956	 91.890	 -6.447	-136.018	 -6.471	-135.943	-19.608	105.075
    7.600000000	-17.749	 84.914	 -6.508	-148.241	 -6.533	-148.205	-18.906	 89.407
    7.700000000	-17.475	 76.907	 -6.570	-160.393	 -6.598	-160.337	-18.133	 73.849
    7.800000000	-17.071	 68.157	 -6.625	-172.393	 -6.656	-172.358	-17.335	 59.739
    7.900000000	-16.598	 59.579	 -6.690	175.696	 -6.714	175.749	-16.467	 47.271
    8.000000000	-16.006	 50.247	 -6.738	163.918	 -6.768	163.982	-15.597	 36.465
    8.100000000	-15.515	 41.431	 -6.787	152.254	 -6.816	152.365	-14.910	 26.435
    8.200000000	-15.068	 32.544	 -6.821	140.677	 -6.853	140.766	-14.397	 17.853
    8.300000000	-14.715	 24.036	 -6.846	129.216	 -6.878	129.301	-14.029	 10.437
    8.400000000	-14.527	 15.411	 -6.856	117.773	 -6.877	117.871	-13.928	  3.177
    8.500000000	-14.677	  7.414	 -6.839	106.316	 -6.873	106.435	-14.129	 -3.731
    8.600000000	-14.983	 -0.509	 -6.818	 94.857	 -6.851	 94.946	-14.659	 -9.570
    8.700000000	-15.638	 -8.188	 -6.784	 83.246	 -6.815	 83.329	-15.597	-15.280
    8.800000000	-16.706	-15.853	 -6.750	 71.468	 -6.783	 71.570	-17.080	-20.280
    8.900000000	-18.357	-22.575	 -6.720	 59.655	 -6.746	 59.733	-19.489	-23.285
    9.000000000	-20.590	-27.518	 -6.702	 47.697	 -6.733	 47.779	-22.942	-23.333
    9.100000000	-23.646	-30.338	 -6.704	 35.684	 -6.736	 35.796	-28.594	 -7.169
    9.200000000	-28.189	-26.708	 -6.730	 23.669	 -6.754	 23.742	-31.442	 65.591
    9.300000000	-33.919	 -1.091	 -6.771	 11.696	 -6.799	 11.797	-25.284	 95.000
    9.400000000	-34.855	 47.917	 -6.816	 -0.174	 -6.852	 -0.069	-21.378	100.704
    9.500000000	-33.423	 74.480	 -6.876	-11.935	 -6.911	-11.842	-19.141	102.412
    9.600000000	-32.743	 87.024	 -6.938	-23.604	 -6.971	-23.493	-17.674	102.346
    9.700000000	-34.948	112.524	 -7.001	-35.192	 -7.027	-35.073	-16.608	102.449
    9.800000000	-32.658	164.080	 -7.062	-46.682	 -7.089	-46.586	-15.896	104.053
    9.900000000	-27.071	-173.079	 -7.122	-58.113	 -7.157	-58.069	-15.357	106.035
   10.000000000	-26.638	179.495	 -7.157	-69.803	 -7.190	-69.721	-15.521	104.818
   10.100000000	-23.069	179.787	 -7.211	-81.246	 -7.243	-81.152	-15.252	105.745
   10.200000000	-19.899	175.747	 -7.266	-92.689	 -7.305	-92.621	-14.920	105.869
   10.300000000	-17.776	171.155	 -7.330	-104.018	 -7.366	-103.935	-14.533	105.881
   10.400000000	-15.959	165.092	 -7.399	-115.340	 -7.438	-115.234	-14.214	104.811
   10.500000000	-14.536	159.996	 -7.473	-126.542	 -7.513	-126.438	-13.783	101.785
   10.600000000	-13.441	153.870	 -7.567	-137.651	 -7.595	-137.555	-13.592	 98.855
   10.700000000	-12.627	148.266	 -7.662	-148.584	 -7.680	-148.619	-13.410	 93.833
   10.800000000	-11.924	142.614	 -7.751	-159.510	 -7.768	-159.579	-13.267	 88.421
   10.900000000	-11.516	137.237	 -7.829	-170.394	 -7.850	-170.446	-13.284	 81.881
   11.000000000	-11.166	131.761	 -7.911	178.799	 -7.931	178.738	-13.263	 74.841
   11.100000000	-11.072	126.538	 -7.988	168.057	 -8.001	168.014	-13.261	 67.234
   11.200000000	-11.030	121.472	 -8.051	157.357	 -8.074	157.261	-13.289	 59.489
   11.300000000	-11.200	116.509	 -8.106	146.683	 -8.130	146.654	-13.264	 52.013
   11.400000000	-11.498	111.650	 -8.153	136.046	 -8.175	136.003	-13.229	 44.769
   11.500000000	-11.952	107.301	 -8.194	125.469	 -8.209	125.383	-13.197	 38.012
   11.600000000	-12.592	102.947	 -8.224	114.829	 -8.250	114.802	-13.136	 32.080
   11.700000000	-13.461	 99.459	 -8.247	104.274	 -8.268	104.227	-13.036	 26.761
   11.800000000	-14.559	 97.073	 -8.256	 93.676	 -8.285	 93.640	-12.959	 22.295
   11.900000000	-15.799	 96.068	 -8.273	 83.120	 -8.292	 83.061	-12.858	 18.536
   12.000000000	-17.398	 97.147	 -8.287	 72.543	 -8.304	 72.515	-12.734	 15.500
   12.100000000	-19.120	102.420	 -8.286	 61.927	 -8.309	 61.883	-12.638	 12.584
   12.200000000	-20.573	113.808	 -8.305	 51.378	 -8.314	 51.282	-12.484	  9.899
   12.300000000	-21.092	127.847	 -8.309	 40.782	 -8.328	 40.709	-12.358	  7.326
   12.400000000	-20.549	142.050	 -8.322	 30.148	 -8.338	 30.138	-12.219	  4.524
   12.500000000	-19.338	150.072	 -8.330	 19.602	 -8.352	 19.512	-12.153	  1.540
   12.600000000	-17.959	153.409	 -8.349	  9.020	 -8.366	  8.940	-12.080	 -1.717
   12.700000000	-16.926	153.287	 -8.361	 -1.583	 -8.375	 -1.645	-12.105	 -5.465
   12.800000000	-15.974	150.612	 -8.376	-12.193	 -8.386	-12.231	-12.155	 -9.675
   12.900000000	-15.247	145.948	 -8.381	-22.801	 -8.400	-22.841	-12.267	-14.105
   13.000000000	-14.714	140.498	 -8.392	-33.384	 -8.403	-33.462	-12.441	-19.094
   13.100000000	-14.284	134.329	 -8.394	-44.022	 -8.408	-44.048	-12.648	-24.348
   13.200000000	-13.819	127.256	 -8.405	-54.618	 -8.416	-54.691	-12.865	-30.006
   13.300000000	-13.518	119.231	 -8.410	-65.222	 -8.428	-65.265	-13.090	-35.999
   13.400000000	-13.137	111.370	 -8.417	-75.791	 -8.429	-75.893	-13.326	-42.684
   13.500000000	-12.752	102.861	 -8.421	-86.377	 -8.441	-86.452	-13.499	-48.830
   13.600000000	-12.305	 94.191	 -8.432	-96.974	 -8.446	-97.070	-13.713	-55.523
   13.700000000	-11.906	 86.014	 -8.445	-107.570	 -8.459	-107.632	-13.875	-61.960
   13.800000000	-11.427	 78.295	 -8.468	-118.113	 -8.481	-118.202	-14.117	-68.031
   13.900000000	-10.899	 71.573	 -8.495	-128.702	 -8.506	-128.738	-14.411	-73.875
   14.000000000	-10.399	 64.902	 -8.520	-139.241	 -8.529	-139.315	-14.906	-78.793
   14.100000000	 -9.910	 59.776	 -8.555	-149.806	 -8.563	-149.845	-15.508	-82.605
   14.200000000	 -9.405	 55.039	 -8.581	-160.345	 -8.598	-160.394	-16.364	-85.677
   14.300000000	 -8.896	 51.188	 -8.625	-170.863	 -8.641	-170.944	-17.626	-86.453
   14.400000000	 -8.426	 47.916	 -8.675	178.623	 -8.683	178.529	-19.254	-83.854
   14.500000000	 -7.896	 45.022	 -8.728	168.092	 -8.740	168.004	-20.816	-76.170
   14.600000000	 -7.509	 42.430	 -8.784	157.667	 -8.797	157.571	-22.198	-60.272
   14.700000000	 -7.020	 40.296	 -8.846	147.318	 -8.866	147.203	-22.165	-41.176
   14.800000000	 -6.706	 38.223	 -8.906	137.074	 -8.919	136.998	-20.584	-27.442
   14.900000000	 -6.403	 35.680	 -8.964	126.995	 -8.975	126.936	-19.077	-19.503
   15.000000000	 -6.172	 34.138	 -9.009	117.083	 -9.023	117.031	-17.791	-17.482
   15.100000000	 -6.062	 31.837	 -9.036	107.349	 -9.052	107.292	-16.891	-18.183
   15.200000000	 -6.061	 30.155	 -9.041	 97.696	 -9.060	 97.602	-16.480	-20.580
   15.300000000	 -6.135	 28.336	 -9.022	 88.128	 -9.038	 88.035	-16.429	-23.400
   15.400000000	 -6.322	 26.353	 -8.985	 78.561	 -8.999	 78.487	-16.772	-27.487
   15.500000000	 -6.657	 24.724	 -8.921	 68.967	 -8.949	 68.920	-17.520	-32.159
   15.600000000	 -7.059	 22.805	 -8.859	 59.334	 -8.880	 59.340	-18.888	-36.630
   15.700000000	 -7.590	 20.631	 -8.783	 49.606	 -8.800	 49.608	-20.824	-41.635
   15.800000000	 -8.259	 17.983	 -8.700	 39.735	 -8.722	 39.693	-23.713	-48.967
   15.900000000	 -8.965	 15.161	 -8.626	 29.788	 -8.646	 29.738	-28.109	-60.453
   16.000000000	 -9.795	 11.155	 -8.559	 19.651	 -8.580	 19.611	-36.761	-107.008
   16.100000000	-10.708	  5.503	 -8.493	  9.358	 -8.520	  9.387	-32.178	174.174
   16.200000000	-11.642	 -1.281	 -8.454	 -0.984	 -8.481	 -0.997	-26.726	149.962
   16.300000000	-12.517	-10.325	 -8.422	-11.444	 -8.447	-11.430	-23.147	144.456
   16.400000000	-13.247	-21.673	 -8.399	-21.928	 -8.429	-21.924	-21.017	140.639
   16.500000000	-13.810	-34.776	 -8.399	-32.459	 -8.425	-32.426	-19.355	136.539
   16.600000000	-13.856	-47.481	 -8.396	-42.965	 -8.428	-42.931	-18.284	133.910
   16.700000000	-13.725	-61.550	 -8.405	-53.488	 -8.432	-53.450	-17.579	129.681
   16.800000000	-13.286	-70.195	 -8.414	-63.806	 -8.444	-63.778	-16.771	127.780
   16.900000000	-12.988	-80.472	 -8.411	-74.205	 -8.441	-74.159	-17.284	123.311
   17.000000000	-12.519	-85.425	 -8.417	-84.444	 -8.442	-84.398	-17.339	115.628
   17.100000000	-12.546	-91.948	 -8.401	-94.706	 -8.431	-94.622	-18.466	110.706
   17.200000000	-12.108	-95.057	 -8.402	-105.001	 -8.434	-104.969	-19.821	 95.552
   17.300000000	-12.323	-96.476	 -8.390	-115.201	 -8.422	-115.176	-21.318	 80.367
   17.400000000	-12.307	-98.006	 -8.387	-125.472	 -8.414	-125.457	-23.100	 53.175
   17.500000000	-12.642	-98.583	 -8.385	-135.790	 -8.413	-135.754	-22.858	 20.983
   17.600000000	-13.036	-98.806	 -8.387	-146.174	 -8.408	-146.175	-20.891	 -5.956
   17.700000000	-13.670	-98.525	 -8.392	-156.666	 -8.419	-156.654	-18.641	-22.072
   17.800000000	-14.505	-97.923	 -8.413	-167.199	 -8.442	-167.174	-16.903	-31.546
   17.900000000	-15.714	-95.641	 -8.427	-177.828	 -8.465	-177.848	-15.636	-37.447
   18.000000000	-17.599	-92.682	 -8.462	171.391	 -8.491	171.378	-14.598	-40.762
   18.100000000	-19.977	-82.067	 -8.499	160.463	 -8.526	160.509	-13.893	-42.771
   18.200000000	-22.583	-59.103	 -8.546	149.486	 -8.575	149.471	-13.416	-43.329
   18.300000000	-22.578	-26.386	 -8.613	138.411	 -8.645	138.453	-12.965	-42.705
   18.400000000	-19.823	 -1.786	 -8.704	127.353	 -8.728	127.345	-12.625	-42.503
   18.500000000	-17.413	  7.217	 -8.812	116.332	 -8.842	116.392	-12.402	-43.085
   18.600000000	-15.474	 10.391	 -8.951	105.559	 -8.975	105.575	-12.354	-44.206
   18.700000000	-14.415	 11.165	 -9.096	 95.104	 -9.127	 95.144	-12.630	-46.064
   18.800000000	-14.003	 11.917	 -9.236	 85.206	 -9.264	 85.203	-13.258	-49.518
   18.900000000	-14.109	 13.882	 -9.306	 75.902	 -9.334	 75.877	-14.580	-53.630
   19.000000000	-14.454	 19.746	 -9.220	 66.850	 -9.243	 66.853	-17.213	-54.476
   19.100000000	-14.445	 26.552	 -8.956	 57.037	 -8.986	 57.114	-20.897	-45.139
   19.200000000	-14.258	 35.103	 -8.654	 46.084	 -8.696	 46.140	-23.660	-17.128
   19.300000000	-14.093	 38.457	 -8.442	 34.123	 -8.472	 34.206	-22.487	 20.069
   19.400000000	-13.932	 44.198	 -8.313	 21.819	 -8.358	 21.907	-19.913	 32.726
   19.500000000	-14.497	 48.529	 -8.270	  9.415	 -8.308	  9.471	-17.553	 35.153
   19.600000000	-14.387	 52.577	 -8.265	 -3.035	 -8.306	 -2.969	-16.249	 34.264
   19.700000000	-14.569	 57.082	 -8.280	-15.510	 -8.309	-15.401	-15.333	 28.163
   19.800000000	-14.773	 58.873	 -8.290	-28.166	 -8.325	-28.025	-14.956	 21.090
   19.900000000	-15.190	 60.665	 -8.313	-40.963	 -8.345	-40.892	-15.051	 10.973
   20.000000000	-15.476	 60.304	 -8.351	-53.944	 -8.387	-53.868	-15.306	 -1.151
