! Date: Wednesday, June 05, 2013  1:50 PM
! Filename: C:\Data\Mike_Arnold\TGP2105-SM\Over_Temp\TGP2105-SM_EVB01_25C_Phase17.s2p 
! Comments: 
!^VDC(V):5.000
!^VDC(mA):0.035
!%Freq(GHz),S11(dB),S11(ang),S21(dB),S21(ang),S12(dB),S12(ang),S22(dB),S22(ang)
# GHz   S   DB   R   50
    5.000000000	-17.267	169.423	 -6.678	-153.092	 -6.693	-153.114	 -9.566	-152.737
    5.100000000	-15.227	178.102	 -6.779	-169.903	 -6.796	-169.917	 -9.607	-156.584
    5.200000000	-12.935	179.313	 -6.932	173.864	 -6.955	173.843	 -9.415	-159.561
    5.300000000	-11.039	175.463	 -7.135	158.209	 -7.149	158.186	 -8.977	-163.361
    5.400000000	 -9.542	169.349	 -7.359	143.244	 -7.374	143.197	 -8.420	-167.904
    5.500000000	 -8.346	162.420	 -7.592	129.021	 -7.608	128.968	 -7.830	-173.501
    5.600000000	 -7.414	154.464	 -7.825	115.433	 -7.836	115.414	 -7.254	-179.810
    5.700000000	 -6.726	146.273	 -8.025	102.487	 -8.037	102.444	 -6.801	173.082
    5.800000000	 -6.249	138.275	 -8.183	 90.191	 -8.190	 90.127	 -6.444	165.677
    5.900000000	 -5.865	130.288	 -8.283	 78.313	 -8.299	 78.281	 -6.204	158.287
    6.000000000	 -5.627	122.044	 -8.328	 66.817	 -8.340	 66.769	 -6.084	150.456
    6.100000000	 -5.557	113.710	 -8.292	 55.628	 -8.308	 55.606	 -6.121	142.478
    6.200000000	 -5.600	105.542	 -8.169	 44.659	 -8.185	 44.607	 -6.291	134.618
    6.300000000	 -5.743	 97.390	 -7.932	 33.710	 -7.946	 33.668	 -6.624	126.754
    6.400000000	 -6.003	 89.206	 -7.596	 21.940	 -7.604	 21.914	 -7.033	118.697
    6.500000000	 -6.333	 80.848	 -7.285	  9.618	 -7.299	  9.597	 -7.591	109.950
    6.600000000	 -6.761	 72.392	 -6.993	 -2.889	 -7.006	 -2.910	 -8.378	100.280
    6.700000000	 -7.326	 63.294	 -6.713	-15.734	 -6.727	-15.736	 -9.467	 89.799
    6.800000000	 -8.051	 54.177	 -6.442	-28.918	 -6.466	-28.853	-10.912	 78.591
    6.900000000	 -8.914	 45.504	 -6.214	-42.190	 -6.240	-42.158	-12.809	 66.546
    7.000000000	 -9.828	 37.028	 -6.041	-55.701	 -6.066	-55.650	-15.201	 52.665
    7.100000000	-10.801	 29.089	 -5.911	-69.251	 -5.938	-69.197	-18.347	 35.596
    7.200000000	-11.778	 22.047	 -5.828	-82.734	 -5.854	-82.704	-22.560	 11.895
    7.300000000	-12.660	 15.761	 -5.787	-96.125	 -5.815	-96.052	-27.311	-30.442
    7.400000000	-13.390	 10.067	 -5.780	-109.352	 -5.802	-109.307	-27.793	-91.132
    7.500000000	-13.992	  4.971	 -5.791	-122.427	 -5.818	-122.386	-24.898	-131.168
    7.600000000	-14.390	  0.699	 -5.823	-135.349	 -5.851	-135.282	-22.788	-156.473
    7.700000000	-14.649	 -3.413	 -5.865	-148.060	 -5.892	-148.019	-21.485	-177.217
    7.800000000	-14.753	 -7.080	 -5.915	-160.638	 -5.940	-160.602	-20.495	163.029
    7.900000000	-14.835	-10.267	 -5.967	-173.101	 -5.993	-173.046	-19.600	142.324
    8.000000000	-14.749	-13.178	 -6.026	174.559	 -6.051	174.623	-18.578	121.352
    8.100000000	-14.654	-16.445	 -6.090	162.330	 -6.121	162.406	-17.512	102.628
    8.200000000	-14.488	-20.004	 -6.153	150.234	 -6.184	150.320	-16.342	 86.244
    8.300000000	-14.348	-23.877	 -6.220	138.276	 -6.249	138.379	-15.165	 72.025
    8.400000000	-14.239	-29.011	 -6.275	126.417	 -6.306	126.503	-14.251	 59.869
    8.500000000	-14.365	-35.248	 -6.325	114.641	 -6.353	114.707	-13.561	 49.704
    8.600000000	-14.597	-42.492	 -6.359	102.887	 -6.393	102.976	-13.037	 41.339
    8.700000000	-15.043	-51.330	 -6.386	 91.181	 -6.416	 91.251	-12.767	 34.169
    8.800000000	-15.730	-62.388	 -6.404	 79.393	 -6.431	 79.479	-12.711	 28.183
    8.900000000	-16.712	-76.097	 -6.416	 67.543	 -6.445	 67.648	-12.814	 23.905
    9.000000000	-17.810	-92.818	 -6.422	 55.662	 -6.448	 55.755	-13.048	 19.846
    9.100000000	-18.738	-113.606	 -6.434	 43.739	 -6.465	 43.803	-13.305	 17.054
    9.200000000	-19.110	-137.558	 -6.453	 31.760	 -6.481	 31.852	-13.734	 14.923
    9.300000000	-18.748	-160.888	 -6.483	 19.763	 -6.513	 19.865	-14.049	 12.181
    9.400000000	-17.885	179.817	 -6.518	  7.820	 -6.544	  7.870	-14.413	  9.085
    9.500000000	-16.830	165.573	 -6.551	 -4.111	 -6.578	 -4.034	-14.938	  3.941
    9.600000000	-15.928	154.528	 -6.590	-15.960	 -6.622	-15.894	-15.486	 -3.185
    9.700000000	-15.181	146.891	 -6.635	-27.785	 -6.664	-27.701	-16.175	-12.644
    9.800000000	-14.545	141.485	 -6.677	-39.580	 -6.711	-39.485	-17.018	-26.564
    9.900000000	-13.981	137.280	 -6.722	-51.362	 -6.754	-51.258	-17.623	-44.495
   10.000000000	-13.798	124.389	 -6.801	-63.204	 -6.834	-63.094	-16.551	-59.998
   10.100000000	-13.435	118.285	 -6.870	-74.897	 -6.901	-74.790	-15.892	-76.989
   10.200000000	-13.037	113.067	 -6.939	-86.449	 -6.974	-86.357	-15.055	-91.551
   10.300000000	-12.877	107.337	 -7.016	-97.941	 -7.051	-97.872	-14.111	-104.742
   10.400000000	-12.760	101.711	 -7.094	-109.331	 -7.129	-109.269	-13.174	-115.608
   10.500000000	-12.938	 96.375	 -7.165	-120.650	 -7.198	-120.545	-12.495	-124.895
   10.600000000	-13.217	 90.592	 -7.248	-131.864	 -7.281	-131.744	-11.743	-132.863
   10.700000000	-13.828	 84.597	 -7.331	-142.912	 -7.347	-142.942	-11.277	-139.521
   10.800000000	-14.677	 79.473	 -7.391	-154.071	 -7.416	-154.112	-10.863	-145.960
   10.900000000	-16.023	 73.790	 -7.455	-165.180	 -7.476	-165.218	-10.540	-151.221
   11.000000000	-17.847	 69.765	 -7.515	-176.313	 -7.535	-176.356	-10.301	-156.509
   11.100000000	-20.639	 66.429	 -7.574	172.509	 -7.595	172.487	-10.130	-161.410
   11.200000000	-25.074	 70.913	 -7.633	161.312	 -7.649	161.263	 -9.967	-166.303
   11.300000000	-32.177	111.093	 -7.695	150.059	 -7.708	150.000	 -9.813	-171.515
   11.400000000	-27.220	179.338	 -7.762	138.791	 -7.782	138.762	 -9.665	-176.982
   11.500000000	-21.227	-170.791	 -7.848	127.529	 -7.865	127.497	 -9.503	177.187
   11.600000000	-17.658	-172.209	 -7.939	116.295	 -7.959	116.210	 -9.323	170.856
   11.700000000	-15.108	-176.234	 -8.055	105.058	 -8.076	105.020	 -9.139	163.955
   11.800000000	-13.167	178.495	 -8.177	 93.943	 -8.193	 93.924	 -8.917	156.737
   11.900000000	-11.669	172.198	 -8.320	 82.911	 -8.333	 82.851	 -8.674	149.056
   12.000000000	-10.517	165.887	 -8.474	 71.998	 -8.490	 71.961	 -8.424	141.164
   12.100000000	 -9.572	159.331	 -8.635	 61.247	 -8.649	 61.146	 -8.167	133.427
   12.200000000	 -8.815	152.647	 -8.808	 50.640	 -8.820	 50.585	 -7.927	125.647
   12.300000000	 -8.232	145.481	 -8.978	 40.190	 -8.994	 40.107	 -7.686	118.088
   12.400000000	 -7.794	138.408	 -9.143	 29.893	 -9.161	 29.807	 -7.480	110.761
   12.500000000	 -7.464	130.849	 -9.310	 19.734	 -9.325	 19.661	 -7.300	103.855
   12.600000000	 -7.210	123.263	 -9.460	  9.707	 -9.479	  9.617	 -7.153	 97.098
   12.700000000	 -7.085	115.178	 -9.599	 -0.245	 -9.616	 -0.338	 -7.061	 90.901
   12.800000000	 -6.983	107.002	 -9.723	-10.130	 -9.742	-10.214	 -7.022	 84.878
   12.900000000	 -6.919	 98.443	 -9.833	-19.971	 -9.849	-20.068	 -7.024	 79.050
   13.000000000	 -6.906	 89.672	 -9.931	-29.732	 -9.945	-29.806	 -7.086	 73.499
   13.100000000	 -6.911	 80.784	-10.009	-39.519	-10.022	-39.586	 -7.202	 68.000
   13.200000000	 -6.894	 72.061	-10.084	-49.258	-10.088	-49.309	 -7.375	 62.503
   13.300000000	 -6.877	 62.994	-10.140	-58.960	-10.149	-59.050	 -7.604	 57.032
   13.400000000	 -6.864	 54.421	-10.190	-68.630	-10.200	-68.663	 -7.912	 51.578
   13.500000000	 -6.820	 46.008	-10.229	-78.293	-10.242	-78.362	 -8.242	 45.740
   13.600000000	 -6.751	 38.015	-10.267	-87.909	-10.277	-87.992	 -8.652	 39.899
   13.700000000	 -6.729	 30.378	-10.294	-97.513	-10.302	-97.563	 -9.094	 33.652
   13.800000000	 -6.695	 23.478	-10.305	-107.031	-10.322	-107.134	 -9.560	 27.522
   13.900000000	 -6.702	 17.471	-10.311	-116.604	-10.323	-116.695	-10.078	 21.180
   14.000000000	 -6.706	 11.661	-10.308	-126.164	-10.308	-126.226	-10.584	 15.158
   14.100000000	 -6.795	  6.856	-10.283	-135.711	-10.291	-135.777	-11.086	  9.242
   14.200000000	 -6.902	  2.542	-10.248	-145.337	-10.258	-145.436	-11.633	  3.945
   14.300000000	 -7.071	 -0.854	-10.200	-155.062	-10.211	-155.100	-12.173	 -0.197
   14.400000000	 -7.289	 -3.625	-10.135	-164.857	-10.150	-164.919	-12.686	 -2.966
   14.500000000	 -7.510	 -5.352	-10.066	-174.742	-10.077	-174.819	-13.174	 -5.102
   14.600000000	 -7.818	 -7.021	 -9.989	175.236	-10.001	175.190	-13.559	 -4.943
   14.700000000	 -8.081	 -7.084	 -9.905	165.115	 -9.917	165.011	-13.867	 -3.665
   14.800000000	 -8.413	 -7.332	 -9.820	154.895	 -9.835	154.814	-13.879	 -2.127
   14.900000000	 -8.616	 -7.399	 -9.746	144.636	 -9.763	144.569	-13.795	  0.317
   15.000000000	 -8.927	 -6.527	 -9.670	134.338	 -9.685	134.277	-13.597	  1.981
   15.100000000	 -9.179	 -6.948	 -9.598	124.096	 -9.612	124.019	-13.365	  2.696
   15.200000000	 -9.565	 -7.274	 -9.531	113.810	 -9.542	113.731	-13.239	  2.515
   15.300000000	 -9.975	 -8.299	 -9.462	103.556	 -9.472	103.463	-13.197	  2.213
   15.400000000	-10.496	-10.428	 -9.390	 93.298	 -9.407	 93.220	-13.332	  0.929
   15.500000000	-11.300	-13.244	 -9.315	 83.005	 -9.331	 82.978	-13.642	 -0.716
   15.600000000	-12.204	-17.236	 -9.245	 72.679	 -9.263	 72.657	-14.203	 -1.589
   15.700000000	-13.361	-23.061	 -9.185	 62.287	 -9.203	 62.252	-14.957	 -2.642
   15.800000000	-14.718	-31.721	 -9.129	 51.811	 -9.152	 51.731	-16.016	 -3.592
   15.900000000	-16.202	-42.449	 -9.084	 41.232	 -9.102	 41.197	-17.288	 -4.193
   16.000000000	-17.490	-58.050	 -9.053	 30.572	 -9.076	 30.492	-19.134	 -3.422
   16.100000000	-18.041	-77.079	 -9.034	 19.726	 -9.062	 19.769	-21.493	 -4.773
   16.200000000	-17.873	-95.735	 -9.037	  8.958	 -9.061	  8.967	-24.667	 -2.694
   16.300000000	-16.986	-110.873	 -9.051	 -1.936	 -9.083	 -1.909	-31.359	 -0.542
   16.400000000	-15.866	-121.933	 -9.071	-12.806	 -9.102	-12.781	-46.136	129.236
   16.500000000	-14.785	-130.840	 -9.108	-23.666	 -9.139	-23.587	-28.694	158.915
   16.600000000	-14.031	-136.452	 -9.138	-34.371	 -9.166	-34.318	-23.244	160.083
   16.700000000	-13.171	-142.104	 -9.171	-45.086	 -9.195	-45.039	-20.170	156.541
   16.800000000	-13.010	-145.658	 -9.184	-55.671	 -9.213	-55.608	-17.460	153.605
   16.900000000	-12.670	-150.745	 -9.189	-66.249	 -9.217	-66.172	-16.508	151.354
   17.000000000	-12.974	-153.373	 -9.163	-76.758	 -9.196	-76.730	-15.433	144.440
   17.100000000	-13.303	-159.746	 -9.133	-87.270	 -9.167	-87.216	-14.965	141.745
   17.200000000	-14.065	-161.455	 -9.089	-97.928	 -9.115	-97.901	-15.009	133.888
   17.300000000	-15.669	-167.196	 -9.027	-108.652	 -9.057	-108.621	-14.986	127.385
   17.400000000	-17.620	-170.336	 -8.970	-119.543	 -8.993	-119.538	-15.503	120.257
   17.500000000	-20.882	-176.826	 -8.914	-130.625	 -8.940	-130.581	-16.020	111.161
   17.600000000	-26.647	173.099	 -8.872	-141.890	 -8.897	-141.863	-16.669	100.173
   17.700000000	-38.995	 83.561	 -8.856	-153.367	 -8.881	-153.330	-17.101	 87.011
   17.800000000	-26.197	 12.077	 -8.870	-164.942	 -8.896	-164.905	-17.065	 73.586
   17.900000000	-20.474	  2.688	 -8.914	-176.652	 -8.944	-176.665	-16.492	 61.072
   18.000000000	-17.472	 -0.708	 -8.990	171.605	 -9.011	171.567	-15.495	 49.537
   18.100000000	-15.227	 -4.488	 -9.093	159.754	 -9.122	159.714	-14.305	 40.807
   18.200000000	-13.768	 -7.156	 -9.216	147.927	 -9.240	147.910	-13.072	 34.334
   18.300000000	-12.810	-10.630	 -9.365	136.138	 -9.386	136.209	-11.807	 28.622
   18.400000000	-12.178	-12.808	 -9.527	124.543	 -9.555	124.522	-10.750	 23.708
   18.500000000	-12.041	-15.919	 -9.716	113.015	 -9.740	112.983	 -9.891	 19.350
   18.600000000	-12.240	-18.219	 -9.931	101.697	 -9.959	101.689	 -9.180	 15.236
   18.700000000	-13.051	-19.764	-10.164	 90.807	-10.193	 90.784	 -8.671	 11.624
   18.800000000	-14.504	-18.343	-10.426	 80.481	-10.447	 80.482	 -8.399	  7.301
   18.900000000	-16.442	-10.927	-10.622	 71.185	-10.654	 71.217	 -8.427	  2.769
   19.000000000	-17.962	  6.829	-10.631	 62.799	-10.662	 62.796	 -8.893	 -0.436
   19.100000000	-17.754	 23.967	-10.340	 53.853	-10.384	 53.988	 -9.791	 -2.056
   19.200000000	-17.309	 39.599	 -9.915	 43.148	 -9.959	 43.241	-10.878	 -0.204
   19.300000000	-16.910	 49.890	 -9.556	 30.717	 -9.595	 30.839	-11.740	  7.399
   19.400000000	-15.649	 63.530	 -9.378	 17.384	 -9.411	 17.546	-11.965	 14.851
   19.500000000	-14.632	 72.391	 -9.343	  3.983	 -9.378	  4.112	-11.439	 20.838
   19.600000000	-12.998	 73.675	 -9.400	 -9.249	 -9.435	 -9.159	-10.888	 23.732
   19.700000000	-11.932	 72.722	 -9.495	-22.256	 -9.536	-22.149	-10.311	 22.500
   19.800000000	-11.293	 67.787	 -9.609	-35.204	 -9.642	-35.103	 -9.974	 19.609
   19.900000000	-11.047	 61.768	 -9.726	-48.145	 -9.759	-47.980	 -9.891	 14.539
   20.000000000	-10.927	 53.236	 -9.843	-61.068	 -9.878	-60.935	 -9.956	  8.330
