! Date: Wednesday, June 05, 2013  1:49 PM
! Filename: C:\Data\Mike_Arnold\TGP2105-SM\Over_Temp\TGP2105-SM_EVB01_25C_Phase9.s2p 
! Comments: 
!^VDC(V):5.000
!^VDC(mA):0.060
!%Freq(GHz),S11(dB),S11(ang),S21(dB),S21(ang),S12(dB),S12(ang),S22(dB),S22(ang)
# GHz   S   DB   R   50
    5.000000000	 -7.468	 79.120	 -8.011	174.611	 -8.030	174.593	 -5.120	 92.422
    5.100000000	 -8.941	 65.345	 -7.645	159.650	 -7.657	159.637	 -5.513	 85.629
    5.200000000	-11.181	 50.445	 -7.286	144.204	 -7.303	144.181	 -6.056	 79.443
    5.300000000	-14.622	 33.187	 -6.990	128.433	 -7.004	128.395	 -6.676	 74.580
    5.400000000	-20.724	  7.424	 -6.780	112.405	 -6.794	112.392	 -7.343	 70.747
    5.500000000	-28.063	-95.423	 -6.665	 96.508	 -6.683	 96.445	 -7.937	 68.146
    5.600000000	-18.951	-158.996	 -6.637	 80.902	 -6.658	 80.865	 -8.422	 66.335
    5.700000000	-14.433	-179.765	 -6.684	 65.821	 -6.703	 65.792	 -8.723	 64.102
    5.800000000	-11.927	165.712	 -6.764	 51.333	 -6.781	 51.320	 -8.941	 61.039
    5.900000000	-10.298	153.085	 -6.850	 37.371	 -6.861	 37.372	 -9.191	 56.619
    6.000000000	 -9.307	141.415	 -6.926	 23.924	 -6.945	 23.880	 -9.533	 51.005
    6.100000000	 -8.756	130.752	 -6.988	 10.893	 -7.003	 10.836	-10.069	 44.075
    6.200000000	 -8.477	120.744	 -7.016	 -1.640	 -7.032	 -1.648	-10.874	 36.722
    6.300000000	 -8.450	110.781	 -6.956	-13.666	 -6.968	-13.682	-11.796	 29.769
    6.400000000	 -8.776	101.583	 -6.744	-26.156	 -6.759	-26.171	-12.579	 21.698
    6.500000000	 -9.238	 93.967	 -6.567	-39.411	 -6.582	-39.440	-13.517	 10.123
    6.600000000	 -9.675	 87.073	 -6.450	-52.689	 -6.466	-52.727	-14.876	 -3.886
    6.700000000	-10.196	 79.721	 -6.367	-66.013	 -6.385	-66.041	-16.567	-19.205
    6.800000000	-10.784	 72.452	 -6.290	-79.360	 -6.318	-79.293	-18.479	-36.723
    6.900000000	-11.412	 65.549	 -6.250	-92.510	 -6.275	-92.439	-20.586	-56.546
    7.000000000	-12.030	 57.948	 -6.222	-105.578	 -6.249	-105.498	-22.755	-77.018
    7.100000000	-12.673	 50.107	 -6.209	-118.559	 -6.237	-118.482	-24.984	-98.248
    7.200000000	-13.315	 42.176	 -6.201	-131.442	 -6.225	-131.419	-27.560	-120.795
    7.300000000	-13.909	 34.064	 -6.206	-144.236	 -6.230	-144.174	-31.317	-146.980
    7.400000000	-14.460	 25.711	 -6.211	-156.970	 -6.239	-156.899	-37.865	167.858
    7.500000000	-14.991	 17.482	 -6.224	-169.630	 -6.252	-169.577	-36.573	 71.709
    7.600000000	-15.405	 10.049	 -6.246	177.836	 -6.275	177.895	-29.576	 36.100
    7.700000000	-15.770	  2.956	 -6.276	165.381	 -6.298	165.446	-25.265	 18.316
    7.800000000	-16.077	 -3.401	 -6.298	153.033	 -6.326	153.087	-22.467	  5.024
    7.900000000	-16.411	 -8.856	 -6.327	140.782	 -6.351	140.844	-20.475	 -4.985
    8.000000000	-16.627	-13.695	 -6.348	128.596	 -6.375	128.647	-18.999	-13.855
    8.100000000	-16.993	-18.303	 -6.376	116.474	 -6.404	116.560	-18.068	-23.457
    8.200000000	-17.412	-22.757	 -6.391	104.348	 -6.423	104.450	-17.665	-32.779
    8.300000000	-18.039	-26.461	 -6.407	 92.335	 -6.438	 92.397	-17.698	-41.971
    8.400000000	-18.907	-29.700	 -6.416	 80.240	 -6.448	 80.346	-18.185	-52.713
    8.500000000	-20.331	-31.910	 -6.432	 68.122	 -6.466	 68.210	-19.287	-65.763
    8.600000000	-22.140	-30.534	 -6.459	 55.902	 -6.489	 56.017	-21.183	-82.734
    8.700000000	-24.264	-22.977	 -6.492	 43.698	 -6.523	 43.783	-23.428	-109.418
    8.800000000	-26.102	 -7.104	 -6.545	 31.448	 -6.575	 31.538	-24.479	-149.822
    8.900000000	-26.183	 15.336	 -6.622	 19.240	 -6.650	 19.333	-22.426	169.854
    9.000000000	-24.574	 27.636	 -6.709	  7.101	 -6.742	  7.201	-19.692	146.501
    9.100000000	-23.138	 29.695	 -6.810	 -4.910	 -6.839	 -4.856	-17.319	131.327
    9.200000000	-22.566	 26.138	 -6.913	-16.869	 -6.950	-16.741	-15.452	122.114
    9.300000000	-22.800	 18.641	 -7.022	-28.650	 -7.054	-28.545	-14.197	114.662
    9.400000000	-23.961	  5.382	 -7.121	-40.394	 -7.155	-40.299	-13.165	109.486
    9.500000000	-26.534	-19.047	 -7.218	-52.000	 -7.247	-51.908	-12.445	106.267
    9.600000000	-28.659	-65.321	 -7.308	-63.649	 -7.341	-63.525	-11.860	103.689
    9.700000000	-25.379	-116.705	 -7.405	-75.226	 -7.433	-75.125	-11.316	101.730
    9.800000000	-20.947	-144.410	 -7.506	-86.728	 -7.531	-86.624	-10.869	100.589
    9.900000000	-17.614	-160.706	 -7.601	-98.164	 -7.643	-98.061	-10.460	 99.219
   10.000000000	-16.748	-175.805	 -7.676	-110.043	 -7.707	-109.957	-10.482	 96.281
   10.100000000	-14.926	172.189	 -7.770	-121.460	 -7.809	-121.350	-10.288	 93.687
   10.200000000	-13.289	161.396	 -7.883	-132.799	 -7.914	-132.673	-10.105	 90.300
   10.300000000	-12.173	151.863	 -7.985	-143.990	 -8.021	-143.842	 -9.988	 86.721
   10.400000000	-11.244	142.976	 -8.091	-155.050	 -8.130	-154.961	 -9.945	 82.347
   10.500000000	-10.569	135.144	 -8.200	-165.963	 -8.237	-165.888	 -9.882	 77.223
   10.600000000	-10.100	127.316	 -8.305	-176.766	 -8.336	-176.654	-10.012	 71.906
   10.700000000	 -9.831	119.945	 -8.402	172.651	 -8.424	172.604	-10.128	 65.687
   10.800000000	 -9.657	113.113	 -8.487	162.031	 -8.506	161.999	-10.280	 59.338
   10.900000000	 -9.711	106.275	 -8.548	151.459	 -8.572	151.418	-10.500	 52.265
   11.000000000	 -9.842	 99.745	 -8.605	140.950	 -8.628	140.934	-10.678	 45.228
   11.100000000	-10.190	 93.042	 -8.647	130.454	 -8.659	130.421	-10.828	 37.967
   11.200000000	-10.654	 86.794	 -8.670	119.946	 -8.691	119.925	-10.981	 30.830
   11.300000000	-11.345	 80.434	 -8.682	109.471	 -8.700	109.450	-11.095	 24.180
   11.400000000	-12.225	 74.033	 -8.685	 98.973	 -8.708	 98.956	-11.181	 17.901
   11.500000000	-13.401	 68.235	 -8.681	 88.465	 -8.697	 88.444	-11.256	 12.062
   11.600000000	-14.880	 62.223	 -8.667	 77.914	 -8.684	 77.885	-11.310	  6.907
   11.700000000	-16.921	 56.931	 -8.653	 67.330	 -8.670	 67.342	-11.329	  2.267
   11.800000000	-19.768	 53.465	 -8.636	 56.746	 -8.651	 56.768	-11.362	 -1.849
   11.900000000	-23.844	 54.998	 -8.619	 46.181	 -8.635	 46.179	-11.375	 -5.495
   12.000000000	-30.582	 74.956	 -8.607	 35.626	 -8.623	 35.597	-11.385	 -8.673
   12.100000000	-30.494	153.757	 -8.596	 25.019	 -8.609	 24.935	-11.412	-12.173
   12.200000000	-23.906	172.666	 -8.587	 14.425	 -8.608	 14.381	-11.408	-15.457
   12.300000000	-20.248	171.665	 -8.596	  3.882	 -8.607	  3.838	-11.457	-18.932
   12.400000000	-17.791	168.049	 -8.602	 -6.672	 -8.616	 -6.733	-11.517	-22.689
   12.500000000	-16.123	162.085	 -8.610	-17.183	 -8.625	-17.282	-11.652	-26.904
   12.600000000	-14.815	155.436	 -8.618	-27.697	 -8.637	-27.780	-11.807	-31.258
   12.700000000	-13.969	148.263	 -8.630	-38.284	 -8.645	-38.305	-12.050	-36.299
   12.800000000	-13.240	140.574	 -8.646	-48.771	 -8.658	-48.855	-12.286	-41.863
   12.900000000	-12.672	132.113	 -8.652	-59.329	 -8.672	-59.370	-12.605	-47.827
   13.000000000	-12.244	123.397	 -8.671	-69.892	 -8.688	-69.938	-12.935	-54.560
   13.100000000	-11.871	114.546	 -8.687	-80.422	 -8.698	-80.476	-13.283	-61.624
   13.200000000	-11.466	105.394	 -8.708	-90.953	 -8.719	-90.997	-13.604	-69.236
   13.300000000	-11.118	 95.699	 -8.725	-101.487	 -8.738	-101.550	-13.909	-77.309
   13.400000000	-10.740	 86.495	 -8.752	-112.012	 -8.762	-112.052	-14.171	-85.968
   13.500000000	-10.335	 77.265	 -8.782	-122.472	 -8.794	-122.550	-14.428	-94.042
   13.600000000	 -9.880	 68.232	 -8.813	-132.899	 -8.827	-133.014	-14.690	-102.707
   13.700000000	 -9.487	 59.776	 -8.849	-143.265	 -8.863	-143.350	-14.952	-110.730
   13.800000000	 -9.064	 52.058	 -8.895	-153.634	 -8.901	-153.710	-15.386	-119.104
   13.900000000	 -8.655	 45.391	 -8.935	-163.940	 -8.950	-164.027	-15.972	-127.336
   14.000000000	 -8.271	 38.892	 -8.976	-174.262	 -8.990	-174.349	-16.893	-135.766
   14.100000000	 -7.938	 33.562	 -9.024	175.534	 -9.033	175.444	-18.190	-144.271
   14.200000000	 -7.620	 28.583	 -9.054	165.290	 -9.072	165.228	-19.903	-154.241
   14.300000000	 -7.333	 24.470	 -9.102	155.053	 -9.108	154.996	-22.496	-168.214
   14.400000000	 -7.105	 20.730	 -9.136	144.912	 -9.155	144.830	-26.010	168.259
   14.500000000	 -6.869	 17.542	 -9.174	134.726	 -9.186	134.639	-29.401	124.243
   14.600000000	 -6.769	 14.308	 -9.194	124.664	 -9.210	124.579	-26.967	 71.999
   14.700000000	 -6.645	 11.959	 -9.221	114.644	 -9.235	114.565	-23.363	 47.539
   14.800000000	 -6.674	  9.336	 -9.219	104.703	 -9.229	104.613	-20.729	 32.839
   14.900000000	 -6.710	  6.615	 -9.211	 94.788	 -9.225	 94.738	-18.902	 25.088
   15.000000000	 -6.900	  4.890	 -9.179	 84.980	 -9.197	 84.916	-17.813	 19.031
   15.100000000	 -7.169	  2.418	 -9.134	 75.200	 -9.145	 75.132	-17.170	 14.538
   15.200000000	 -7.611	  0.514	 -9.060	 65.390	 -9.076	 65.339	-16.979	 11.514
   15.300000000	 -8.133	 -1.322	 -8.978	 55.579	 -8.994	 55.486	-17.007	 10.647
   15.400000000	 -8.771	 -3.328	 -8.889	 45.649	 -8.903	 45.611	-17.327	 10.789
   15.500000000	 -9.621	 -5.003	 -8.790	 35.649	 -8.811	 35.613	-17.735	 12.632
   15.600000000	-10.531	 -6.881	 -8.705	 25.581	 -8.723	 25.553	-18.211	 17.386
   15.700000000	-11.569	 -9.179	 -8.624	 15.453	 -8.644	 15.416	-18.522	 23.149
   15.800000000	-12.721	-12.634	 -8.549	  5.182	 -8.572	  5.140	-18.776	 29.395
   15.900000000	-13.885	-16.527	 -8.497	 -5.090	 -8.514	 -5.132	-18.792	 35.654
   16.000000000	-15.038	-23.155	 -8.446	-15.538	 -8.469	-15.541	-18.730	 42.831
   16.100000000	-16.046	-33.264	 -8.409	-26.054	 -8.445	-26.022	-18.807	 47.471
   16.200000000	-16.751	-45.372	 -8.396	-36.549	 -8.423	-36.543	-18.513	 51.901
   16.300000000	-16.852	-59.623	 -8.392	-47.191	 -8.420	-47.156	-18.511	 56.484
   16.400000000	-16.344	-73.544	 -8.392	-57.824	 -8.430	-57.803	-18.392	 58.794
   16.500000000	-15.542	-86.299	 -8.414	-68.500	 -8.441	-68.440	-18.089	 60.060
   16.600000000	-14.609	-94.862	 -8.432	-79.097	 -8.463	-79.034	-18.003	 58.597
   16.700000000	-13.585	-103.584	 -8.464	-89.700	 -8.491	-89.660	-17.810	 54.292
   16.800000000	-12.942	-107.533	 -8.483	-100.239	 -8.516	-100.173	-18.108	 50.750
   16.900000000	-12.279	-113.343	 -8.521	-110.819	 -8.550	-110.755	-18.326	 36.189
   17.000000000	-11.836	-115.200	 -8.555	-121.201	 -8.583	-121.174	-18.055	 24.262
   17.100000000	-11.648	-119.991	 -8.583	-131.644	 -8.619	-131.576	-18.065	  5.334
   17.200000000	-11.261	-121.342	 -8.638	-142.028	 -8.664	-141.996	-16.749	-10.716
   17.300000000	-11.503	-123.845	 -8.666	-152.316	 -8.698	-152.281	-15.841	-24.791
   17.400000000	-11.579	-126.178	 -8.711	-162.638	 -8.741	-162.614	-14.508	-37.666
   17.500000000	-12.075	-129.464	 -8.756	-172.910	 -8.784	-172.895	-13.387	-47.021
   17.600000000	-12.793	-133.335	 -8.799	176.755	 -8.827	176.827	-12.346	-54.335
   17.700000000	-13.970	-138.233	 -8.844	166.339	 -8.867	166.377	-11.530	-59.615
   17.800000000	-15.673	-144.497	 -8.880	155.844	 -8.904	155.891	-10.934	-63.704
   17.900000000	-18.430	-152.842	 -8.925	145.206	 -8.947	145.273	-10.540	-66.658
   18.000000000	-22.627	-171.996	 -8.976	134.451	 -8.999	134.508	-10.196	-68.561
   18.100000000	-28.390	132.716	 -9.036	123.509	 -9.064	123.535	 -9.993	-70.188
   18.200000000	-23.620	 66.757	 -9.120	112.480	 -9.145	112.480	 -9.905	-71.793
   18.300000000	-18.969	 45.272	 -9.213	101.444	 -9.245	101.430	 -9.900	-72.881
   18.400000000	-15.830	 35.116	 -9.342	 90.369	 -9.364	 90.386	 -9.985	-74.946
   18.500000000	-14.094	 28.221	 -9.473	 79.504	 -9.500	 79.477	-10.216	-78.020
   18.600000000	-12.943	 23.090	 -9.630	 68.747	 -9.660	 68.784	-10.652	-82.076
   18.700000000	-12.454	 20.193	 -9.797	 58.388	 -9.822	 58.432	-11.421	-87.792
   18.800000000	-12.380	 19.835	 -9.962	 48.666	 -9.986	 48.691	-12.468	-95.718
   18.900000000	-12.487	 22.339	-10.037	 39.662	-10.063	 39.682	-14.054	-106.911
   19.000000000	-12.364	 27.870	 -9.924	 31.017	 -9.954	 31.020	-16.701	-123.881
   19.100000000	-11.817	 30.995	 -9.601	 21.577	 -9.642	 21.713	-20.198	-149.164
   19.200000000	-11.423	 33.218	 -9.210	 10.791	 -9.250	 10.923	-23.260	172.250
   19.300000000	-11.363	 31.229	 -8.887	 -1.201	 -8.924	 -1.077	-22.332	125.093
   19.400000000	-11.646	 31.303	 -8.668	-13.730	 -8.704	-13.641	-20.526	 99.280
   19.500000000	-12.687	 29.936	 -8.525	-26.566	 -8.557	-26.471	-18.942	 81.348
   19.600000000	-13.482	 30.233	 -8.432	-39.487	 -8.470	-39.352	-18.127	 71.790
   19.700000000	-14.819	 32.108	 -8.364	-52.538	 -8.411	-52.442	-18.159	 61.913
   19.800000000	-16.218	 33.789	 -8.325	-65.872	 -8.362	-65.699	-18.799	 55.843
   19.900000000	-17.884	 38.342	 -8.307	-79.350	 -8.343	-79.220	-20.440	 50.928
   20.000000000	-18.914	 43.667	 -8.324	-93.057	 -8.366	-92.898	-22.884	 47.990
