! Date: Wednesday, June 05, 2013  1:52 PM
! Filename: C:\Data\Mike_Arnold\TGP2105-SM\Over_Temp\TGP2105-SM_EVB01_25C_Phase45.s2p 
! Comments: 
!^VDC(V):5.000
!^VDC(mA):0.118
!%Freq(GHz),S11(dB),S11(ang),S21(dB),S21(ang),S12(dB),S12(ang),S22(dB),S22(ang)
# GHz   S   DB   R   50
    5.000000000	 -5.775	113.115	 -9.203	 30.156	 -9.217	 30.146	 -4.919	101.765
    5.100000000	 -6.279	 99.656	 -8.941	 16.060	 -8.953	 16.027	 -4.962	 94.847
    5.200000000	 -7.026	 85.418	 -8.607	  1.861	 -8.622	  1.805	 -5.135	 87.915
    5.300000000	 -8.065	 69.517	 -8.247	-12.618	 -8.264	-12.625	 -5.407	 81.362
    5.400000000	 -9.519	 51.346	 -7.875	-27.467	 -7.890	-27.499	 -5.823	 74.947
    5.500000000	-11.567	 29.690	 -7.509	-42.605	 -7.528	-42.646	 -6.369	 69.182
    5.600000000	-14.095	  2.542	 -7.172	-58.064	 -7.181	-58.117	 -7.022	 64.585
    5.700000000	-16.323	-35.171	 -6.902	-74.000	 -6.914	-73.994	 -7.621	 60.877
    5.800000000	-16.375	-81.201	 -6.749	-89.887	 -6.761	-89.903	 -8.138	 57.459
    5.900000000	-14.531	-119.253	 -6.687	-105.469	 -6.700	-105.505	 -8.628	 53.827
    6.000000000	-12.574	-145.536	 -6.676	-120.556	 -6.692	-120.600	 -9.045	 49.745
    6.100000000	-11.079	-164.591	 -6.698	-135.184	 -6.709	-135.224	 -9.452	 44.496
    6.200000000	-10.012	179.913	 -6.718	-149.320	 -6.728	-149.350	 -9.934	 38.042
    6.300000000	 -9.312	166.224	 -6.732	-163.146	 -6.746	-163.149	-10.483	 30.428
    6.400000000	 -8.953	154.558	 -6.724	-176.693	 -6.741	-176.704	-11.128	 21.342
    6.500000000	 -8.770	144.109	 -6.694	169.972	 -6.708	169.928	-11.925	 10.553
    6.600000000	 -8.726	134.173	 -6.659	156.653	 -6.663	156.639	-12.871	 -1.398
    6.700000000	 -8.870	124.554	 -6.595	143.409	 -6.614	143.417	-13.897	-14.640
    6.800000000	 -9.112	115.362	 -6.527	130.138	 -6.550	130.171	-14.953	-29.554
    6.900000000	 -9.429	106.347	 -6.466	116.927	 -6.485	116.974	-16.058	-45.415
    7.000000000	 -9.828	 96.617	 -6.403	103.745	 -6.423	103.786	-17.136	-60.842
    7.100000000	-10.300	 86.678	 -6.340	 90.582	 -6.364	 90.655	-18.157	-75.744
    7.200000000	-10.808	 76.458	 -6.285	 77.467	 -6.310	 77.522	-19.213	-89.581
    7.300000000	-11.341	 65.529	 -6.235	 64.361	 -6.256	 64.414	-20.489	-101.534
    7.400000000	-11.885	 54.066	 -6.192	 51.297	 -6.215	 51.356	-22.068	-110.430
    7.500000000	-12.435	 42.408	 -6.157	 38.271	 -6.183	 38.333	-23.970	-115.541
    7.600000000	-12.912	 30.759	 -6.131	 25.328	 -6.155	 25.399	-26.554	-115.242
    7.700000000	-13.351	 19.251	 -6.118	 12.494	 -6.137	 12.546	-29.596	-102.205
    7.800000000	-13.747	  8.265	 -6.100	 -0.280	 -6.126	 -0.220	-30.791	-76.546
    7.900000000	-14.170	 -1.972	 -6.091	-12.954	 -6.116	-12.892	-29.262	-51.621
    8.000000000	-14.537	-11.461	 -6.082	-25.545	 -6.103	-25.473	-26.915	-39.226
    8.100000000	-15.019	-20.663	 -6.072	-38.044	 -6.098	-37.972	-24.978	-38.305
    8.200000000	-15.584	-29.635	 -6.064	-50.534	 -6.094	-50.454	-23.958	-41.466
    8.300000000	-16.326	-38.289	 -6.059	-62.943	 -6.082	-62.867	-23.717	-46.443
    8.400000000	-17.290	-47.733	 -6.053	-75.371	 -6.082	-75.291	-24.160	-55.396
    8.500000000	-18.806	-59.019	 -6.057	-87.790	 -6.084	-87.748	-25.645	-70.923
    8.600000000	-20.868	-72.454	 -6.072	-100.279	 -6.099	-100.201	-28.436	-98.066
    8.700000000	-23.956	-91.669	 -6.108	-112.753	 -6.132	-112.667	-29.227	-150.176
    8.800000000	-27.656	-128.398	 -6.162	-125.196	 -6.192	-125.149	-25.263	166.774
    8.900000000	-27.702	171.946	 -6.248	-137.566	 -6.274	-137.486	-20.954	143.886
    9.000000000	-24.079	132.921	 -6.354	-149.799	 -6.384	-149.728	-18.001	130.653
    9.100000000	-21.127	112.234	 -6.474	-161.843	 -6.504	-161.767	-15.780	120.426
    9.200000000	-19.182	 97.971	 -6.603	-173.629	 -6.632	-173.538	-14.057	113.140
    9.300000000	-18.070	 86.171	 -6.730	174.782	 -6.760	174.886	-12.903	106.242
    9.400000000	-17.659	 75.107	 -6.844	163.406	 -6.868	163.494	-12.030	100.844
    9.500000000	-18.041	 65.217	 -6.931	152.214	 -6.966	152.304	-11.495	 96.906
    9.600000000	-19.000	 54.820	 -7.008	141.159	 -7.036	141.246	-11.155	 93.464
    9.700000000	-21.082	 43.224	 -7.055	130.059	 -7.091	130.175	-10.905	 90.960
    9.800000000	-25.040	 28.361	 -7.092	119.059	 -7.122	119.140	-10.814	 89.654
    9.900000000	-33.165	-12.877	 -7.123	108.002	 -7.153	108.095	-10.773	 88.653
   10.000000000	-33.850	-62.114	 -7.138	 96.551	 -7.163	 96.699	-11.035	 85.539
   10.100000000	-27.774	-133.306	 -7.159	 85.391	 -7.189	 85.548	-11.128	 84.036
   10.200000000	-22.045	-158.645	 -7.187	 74.259	 -7.220	 74.360	-11.160	 82.240
   10.300000000	-18.679	-171.390	 -7.227	 63.205	 -7.254	 63.300	-11.183	 80.486
   10.400000000	-16.219	177.548	 -7.266	 52.151	 -7.304	 52.287	-11.221	 77.859
   10.500000000	-14.389	169.001	 -7.334	 41.255	 -7.366	 41.363	-11.126	 74.352
   10.600000000	-13.050	160.368	 -7.397	 30.451	 -7.432	 30.530	-11.202	 70.464
   10.700000000	-12.100	152.792	 -7.479	 19.875	 -7.497	 19.824	-11.206	 65.133
   10.800000000	-11.296	145.489	 -7.556	  9.248	 -7.572	  9.217	-11.234	 59.458
   10.900000000	-10.825	138.678	 -7.626	 -1.226	 -7.645	 -1.281	-11.314	 52.638
   11.000000000	-10.450	131.888	 -7.701	-11.625	 -7.721	-11.658	-11.362	 45.750
   11.100000000	-10.338	125.334	 -7.760	-21.946	 -7.778	-21.994	-11.392	 38.273
   11.200000000	-10.314	119.031	 -7.819	-32.219	 -7.838	-32.255	-11.442	 30.895
   11.300000000	-10.506	112.835	 -7.868	-42.394	 -7.886	-42.434	-11.476	 23.767
   11.400000000	-10.844	106.643	 -7.907	-52.577	 -7.928	-52.605	-11.498	 16.963
   11.500000000	-11.369	100.842	 -7.936	-62.717	 -7.951	-62.753	-11.538	 10.468
   11.600000000	-12.109	 94.910	 -7.947	-72.847	 -7.967	-72.890	-11.595	  4.720
   11.700000000	-13.126	 89.319	 -7.964	-83.009	 -7.981	-83.014	-11.654	 -0.452
   11.800000000	-14.467	 84.434	 -7.962	-93.182	 -7.981	-93.206	-11.756	 -5.035
   11.900000000	-16.128	 80.349	 -7.959	-103.360	 -7.976	-103.401	-11.884	 -8.972
   12.000000000	-18.446	 77.489	 -7.956	-113.598	 -7.971	-113.671	-12.026	-12.212
   12.100000000	-21.725	 79.089	 -7.947	-123.980	 -7.961	-124.016	-12.203	-15.407
   12.200000000	-26.184	 94.193	 -7.946	-134.294	 -7.960	-134.372	-12.340	-18.216
   12.300000000	-28.530	137.604	 -7.950	-144.731	 -7.961	-144.793	-12.517	-20.861
   12.400000000	-24.818	172.935	 -7.955	-155.188	 -7.969	-155.253	-12.682	-23.647
   12.500000000	-21.161	-179.294	 -7.970	-165.702	 -7.981	-165.770	-12.888	-26.766
   12.600000000	-18.498	179.753	 -7.986	-176.234	 -7.997	-176.284	-13.101	-30.071
   12.700000000	-16.762	176.412	 -7.997	173.152	 -8.013	173.114	-13.370	-34.125
   12.800000000	-15.374	170.863	 -8.019	162.563	 -8.036	162.511	-13.652	-38.662
   12.900000000	-14.375	164.024	 -8.038	151.946	 -8.056	151.880	-13.978	-43.801
   13.000000000	-13.618	156.777	 -8.058	141.257	 -8.076	141.200	-14.355	-49.547
   13.100000000	-13.014	149.035	 -8.082	130.559	 -8.097	130.521	-14.743	-55.939
   13.200000000	-12.451	140.537	 -8.106	119.930	 -8.127	119.877	-15.100	-62.812
   13.300000000	-12.033	131.520	 -8.126	109.267	 -8.141	109.211	-15.443	-70.221
   13.400000000	-11.576	122.406	 -8.134	 98.629	 -8.153	 98.566	-15.750	-78.293
   13.500000000	-11.147	112.654	 -8.148	 87.922	 -8.168	 87.812	-16.042	-85.422
   13.600000000	-10.682	102.681	 -8.175	 77.175	 -8.189	 77.089	-16.290	-93.535
   13.700000000	-10.264	 93.258	 -8.199	 66.475	 -8.211	 66.418	-16.527	-100.742
   13.800000000	 -9.810	 84.193	 -8.235	 55.824	 -8.243	 55.748	-16.916	-108.280
   13.900000000	 -9.312	 76.048	 -8.270	 45.141	 -8.280	 45.049	-17.407	-115.614
   14.000000000	 -8.862	 68.103	 -8.314	 34.499	 -8.322	 34.408	-18.293	-123.334
   14.100000000	 -8.419	 61.527	 -8.362	 23.880	 -8.369	 23.833	-19.564	-130.772
   14.200000000	 -7.998	 55.372	 -8.410	 13.318	 -8.421	 13.263	-21.391	-139.939
   14.300000000	 -7.587	 50.247	 -8.465	  2.768	 -8.478	  2.654	-24.479	-152.850
   14.400000000	 -7.236	 45.733	 -8.519	 -7.743	 -8.532	 -7.841	-29.601	-179.314
   14.500000000	 -6.854	 41.760	 -8.585	-18.228	 -8.597	-18.296	-33.265	106.107
   14.600000000	 -6.613	 38.224	 -8.636	-28.553	 -8.654	-28.653	-26.381	 55.451
   14.700000000	 -6.305	 35.377	 -8.702	-38.826	 -8.716	-38.902	-21.963	 39.123
   14.800000000	 -6.160	 32.745	 -8.741	-48.948	 -8.752	-49.022	-19.078	 27.413
   14.900000000	 -6.028	 29.873	 -8.775	-58.954	 -8.791	-59.031	-17.113	 20.161
   15.000000000	 -5.977	 28.141	 -8.795	-68.794	 -8.807	-68.863	-15.879	 13.221
   15.100000000	 -6.040	 25.796	 -8.784	-78.579	 -8.797	-78.658	-15.116	  6.812
   15.200000000	 -6.222	 24.156	 -8.746	-88.272	 -8.757	-88.318	-14.834	  0.923
   15.300000000	 -6.472	 22.560	 -8.688	-98.009	 -8.703	-98.052	-14.899	 -4.045
   15.400000000	 -6.842	 20.998	 -8.606	-107.737	 -8.619	-107.818	-15.365	 -8.934
   15.500000000	 -7.375	 19.994	 -8.505	-117.653	 -8.527	-117.690	-16.198	-13.270
   15.600000000	 -7.962	 18.960	 -8.403	-127.625	 -8.426	-127.653	-17.629	-15.900
   15.700000000	 -8.676	 18.022	 -8.305	-137.780	 -8.328	-137.794	-19.580	-16.722
   15.800000000	 -9.501	 16.903	 -8.203	-148.103	 -8.226	-148.088	-22.382	-14.396
   15.900000000	-10.333	 15.957	 -8.131	-158.572	 -8.146	-158.570	-26.010	 -2.594
   16.000000000	-11.237	 14.010	 -8.058	-169.173	 -8.080	-169.208	-29.567	 36.260
   16.100000000	-12.205	 10.605	 -8.009	-179.953	 -8.035	-179.914	-28.094	 77.412
   16.200000000	-13.147	  6.220	 -7.980	169.258	 -8.004	169.290	-24.262	 93.191
   16.300000000	-14.012	 -0.670	 -7.963	158.337	 -7.990	158.400	-21.718	101.082
   16.400000000	-14.725	-10.147	 -7.960	147.395	 -7.985	147.454	-19.949	102.396
   16.500000000	-15.295	-21.684	 -7.963	136.456	 -7.992	136.491	-18.464	101.087
   16.600000000	-15.244	-33.530	 -7.976	125.497	 -8.005	125.519	-17.577	 98.381
   16.700000000	-15.027	-47.078	 -7.998	114.468	 -8.028	114.534	-16.908	 93.209
   16.800000000	-14.253	-55.159	 -8.031	103.617	 -8.060	103.676	-16.459	 89.751
   16.900000000	-13.671	-64.969	 -8.052	 92.682	 -8.087	 92.736	-16.849	 78.880
   17.000000000	-12.690	-70.141	 -8.094	 81.871	 -8.120	 81.936	-16.635	 67.440
   17.100000000	-12.294	-76.270	 -8.126	 71.114	 -8.156	 71.146	-17.323	 52.524
   17.200000000	-11.335	-80.829	 -8.184	 60.308	 -8.211	 60.365	-16.857	 32.878
   17.300000000	-10.986	-83.588	 -8.238	 49.737	 -8.269	 49.783	-16.417	 15.083
   17.400000000	-10.519	-87.510	 -8.304	 39.140	 -8.328	 39.228	-15.430	 -3.589
   17.500000000	-10.378	-91.055	 -8.363	 28.719	 -8.389	 28.728	-14.233	-18.034
   17.600000000	-10.398	-95.037	 -8.427	 18.348	 -8.450	 18.337	-12.982	-29.796
   17.700000000	-10.701	-99.327	 -8.482	  7.966	 -8.505	  7.988	-11.892	-38.515
   17.800000000	-11.279	-104.048	 -8.524	 -2.370	 -8.548	 -2.358	-11.070	-45.264
   17.900000000	-12.281	-108.997	 -8.547	-12.754	 -8.565	-12.708	-10.455	-50.378
   18.000000000	-13.923	-116.089	 -8.549	-23.253	 -8.576	-23.227	 -9.956	-54.180
   18.100000000	-16.438	-123.346	 -8.544	-33.894	 -8.564	-33.881	 -9.644	-57.189
   18.200000000	-20.704	-136.574	 -8.523	-44.701	 -8.548	-44.662	 -9.501	-59.619
   18.300000000	-27.947	-174.616	 -8.506	-55.585	 -8.528	-55.565	 -9.434	-61.130
   18.400000000	-25.023	 88.417	 -8.482	-66.637	 -8.510	-66.595	 -9.449	-62.992
   18.500000000	-18.810	 65.528	 -8.473	-77.617	 -8.497	-77.666	 -9.588	-65.355
   18.600000000	-15.120	 54.605	 -8.461	-88.692	 -8.486	-88.692	 -9.866	-67.952
   18.700000000	-12.843	 48.276	 -8.437	-99.704	 -8.463	-99.704	-10.373	-71.277
   18.800000000	-11.312	 43.470	 -8.416	-110.698	 -8.446	-110.656	-11.030	-75.597
   18.900000000	-10.313	 39.375	 -8.386	-121.632	 -8.420	-121.623	-11.955	-81.190
   19.000000000	 -9.671	 36.523	 -8.352	-132.617	 -8.380	-132.597	-13.411	-88.145
   19.100000000	 -9.290	 33.301	 -8.316	-143.699	 -8.355	-143.597	-15.169	-96.978
   19.200000000	 -9.184	 31.727	 -8.278	-154.656	 -8.314	-154.572	-17.195	-108.323
   19.300000000	 -9.254	 28.245	 -8.211	-165.752	 -8.257	-165.645	-20.017	-127.807
   19.400000000	 -9.504	 26.429	 -8.159	-176.989	 -8.190	-176.902	-22.095	-153.758
   19.500000000	-10.274	 22.318	 -8.077	171.483	 -8.112	171.603	-23.343	173.137
   19.600000000	-10.910	 18.400	 -8.007	159.649	 -8.045	159.731	-22.143	146.100
   19.700000000	-12.095	 13.435	 -7.947	147.564	 -7.980	147.716	-21.268	129.048
   19.800000000	-13.530	  6.023	 -7.893	135.195	 -7.921	135.302	-20.328	119.526
   19.900000000	-15.654	 -3.605	 -7.842	122.514	 -7.869	122.577	-20.058	116.158
   20.000000000	-18.169	-15.934	 -7.816	109.554	 -7.857	109.679	-20.001	115.001
