! Date: Wednesday, June 05, 2013  1:50 PM
! Filename: C:\Data\Mike_Arnold\TGP2105-SM\Over_Temp\TGP2105-SM_EVB01_25C_Phase23.s2p 
! Comments: 
!^VDC(V):5.000
!^VDC(mA):0.109
!%Freq(GHz),S11(dB),S11(ang),S21(dB),S21(ang),S12(dB),S12(ang),S22(dB),S22(ang)
# GHz   S   DB   R   50
    5.000000000	-18.615	163.330	 -6.820	-103.347	 -6.841	-103.380	 -7.935	-167.743
    5.100000000	-18.355	160.601	 -6.787	-120.919	 -6.805	-120.922	 -7.957	-175.134
    5.200000000	-18.590	160.855	 -6.764	-137.861	 -6.782	-137.887	 -8.093	178.191
    5.300000000	-18.957	165.685	 -6.762	-154.348	 -6.781	-154.354	 -8.232	172.060
    5.400000000	-18.738	175.505	 -6.774	-170.406	 -6.792	-170.428	 -8.395	167.011
    5.500000000	-17.221	-174.889	 -6.811	173.973	 -6.830	173.931	 -8.480	162.771
    5.600000000	-15.199	-172.201	 -6.884	158.770	 -6.898	158.716	 -8.415	159.262
    5.700000000	-13.329	-174.345	 -6.975	143.931	 -6.986	143.907	 -8.257	155.394
    5.800000000	-11.748	-178.989	 -7.077	129.724	 -7.091	129.693	 -8.000	151.174
    5.900000000	-10.401	174.275	 -7.191	116.027	 -7.207	115.989	 -7.745	146.468
    6.000000000	 -9.437	166.346	 -7.296	102.823	 -7.315	102.773	 -7.506	140.661
    6.100000000	 -8.790	158.241	 -7.373	 90.209	 -7.389	 90.154	 -7.381	134.073
    6.200000000	 -8.373	150.129	 -7.405	 78.142	 -7.413	 78.118	 -7.379	126.954
    6.300000000	 -8.177	142.098	 -7.320	 66.454	 -7.332	 66.413	 -7.558	119.398
    6.400000000	 -8.148	135.153	 -7.113	 54.212	 -7.127	 54.182	 -7.816	111.558
    6.500000000	 -8.110	128.170	 -6.944	 41.528	 -6.960	 41.477	 -8.146	102.849
    6.600000000	 -8.160	120.717	 -6.810	 28.837	 -6.822	 28.813	 -8.607	 92.716
    6.700000000	 -8.394	112.861	 -6.670	 16.113	 -6.685	 16.105	 -9.280	 81.139
    6.800000000	 -8.776	105.123	 -6.519	  3.254	 -6.546	  3.319	-10.137	 68.022
    6.900000000	 -9.251	 97.754	 -6.390	 -9.580	 -6.414	 -9.517	-11.190	 53.325
    7.000000000	 -9.794	 90.228	 -6.284	-22.521	 -6.308	-22.486	-12.288	 36.412
    7.100000000	-10.382	 82.891	 -6.203	-35.516	 -6.222	-35.465	-13.370	 17.205
    7.200000000	-10.953	 75.803	 -6.145	-48.436	 -6.171	-48.372	-14.246	 -3.788
    7.300000000	-11.461	 68.423	 -6.114	-61.290	 -6.143	-61.216	-14.790	-24.925
    7.400000000	-11.889	 60.757	 -6.104	-74.021	 -6.128	-73.969	-14.937	-44.937
    7.500000000	-12.261	 52.876	 -6.105	-86.634	 -6.134	-86.588	-14.895	-63.364
    7.600000000	-12.494	 44.690	 -6.124	-99.094	 -6.146	-99.050	-14.886	-79.322
    7.700000000	-12.666	 36.236	 -6.139	-111.409	 -6.162	-111.351	-14.959	-93.362
    7.800000000	-12.779	 27.898	 -6.152	-123.626	 -6.178	-123.559	-15.173	-106.654
    7.900000000	-12.895	 20.116	 -6.172	-135.723	 -6.195	-135.662	-15.681	-119.857
    8.000000000	-12.970	 12.598	 -6.182	-147.781	 -6.209	-147.738	-16.532	-133.464
    8.100000000	-13.074	  5.698	 -6.199	-159.714	 -6.236	-159.668	-17.554	-148.216
    8.200000000	-13.207	 -0.643	 -6.220	-171.685	 -6.251	-171.603	-18.734	-166.070
    8.300000000	-13.345	 -6.239	 -6.240	176.446	 -6.268	176.539	-19.882	171.783
    8.400000000	-13.492	-11.907	 -6.258	164.598	 -6.284	164.683	-20.510	147.377
    8.500000000	-13.788	-17.563	 -6.274	152.811	 -6.306	152.885	-20.334	123.544
    8.600000000	-14.112	-23.457	 -6.295	141.037	 -6.326	141.123	-19.498	102.983
    8.700000000	-14.548	-30.138	 -6.311	129.297	 -6.341	129.371	-18.690	 87.812
    8.800000000	-15.212	-38.508	 -6.327	117.516	 -6.358	117.610	-18.081	 76.932
    8.900000000	-16.139	-48.348	 -6.341	105.733	 -6.369	105.799	-17.607	 70.072
    9.000000000	-17.347	-60.274	 -6.353	 93.935	 -6.382	 94.006	-17.491	 65.054
    9.100000000	-18.772	-76.084	 -6.376	 82.090	 -6.404	 82.146	-17.404	 63.110
    9.200000000	-20.235	-97.997	 -6.399	 70.204	 -6.430	 70.294	-17.418	 64.440
    9.300000000	-21.186	-125.018	 -6.430	 58.347	 -6.464	 58.441	-17.323	 65.426
    9.400000000	-20.968	-152.938	 -6.476	 46.528	 -6.505	 46.602	-17.080	 67.636
    9.500000000	-19.822	-175.682	 -6.527	 34.795	 -6.556	 34.911	-16.911	 69.147
    9.600000000	-18.670	167.170	 -6.577	 23.166	 -6.610	 23.243	-16.766	 69.018
    9.700000000	-17.749	155.690	 -6.630	 11.616	 -6.661	 11.722	-16.737	 67.689
    9.800000000	-17.123	147.725	 -6.669	  0.200	 -6.706	  0.279	-17.177	 65.684
    9.900000000	-16.749	142.571	 -6.698	-11.216	 -6.741	-11.122	-18.062	 62.523
   10.000000000	-17.021	129.914	 -6.739	-22.902	 -6.767	-22.814	-19.379	 51.699
   10.100000000	-16.947	125.675	 -6.762	-34.351	 -6.796	-34.295	-21.279	 40.905
   10.200000000	-16.699	123.920	 -6.795	-45.782	 -6.825	-45.698	-23.635	 24.372
   10.300000000	-16.625	122.471	 -6.821	-57.144	 -6.850	-57.074	-26.634	 -4.250
   10.400000000	-16.334	121.650	 -6.851	-68.530	 -6.886	-68.434	-27.062	-50.371
   10.500000000	-16.139	121.419	 -6.887	-79.861	 -6.924	-79.781	-24.744	-83.872
   10.600000000	-15.857	120.407	 -6.933	-91.164	 -6.964	-91.050	-21.592	-105.164
   10.700000000	-15.763	118.813	 -6.993	-102.303	 -7.011	-102.356	-19.484	-116.999
   10.800000000	-15.634	117.533	 -7.047	-113.550	 -7.064	-113.582	-17.868	-126.843
   10.900000000	-15.846	115.507	 -7.096	-124.719	 -7.118	-124.761	-16.649	-133.731
   11.000000000	-16.080	114.053	 -7.154	-135.901	 -7.170	-135.930	-15.808	-140.347
   11.100000000	-16.712	112.801	 -7.200	-147.038	 -7.222	-147.064	-15.230	-145.874
   11.200000000	-17.428	113.107	 -7.249	-158.179	 -7.269	-158.221	-14.773	-151.129
   11.300000000	-18.451	115.221	 -7.295	-169.345	 -7.312	-169.388	-14.445	-156.446
   11.400000000	-19.602	120.229	 -7.344	179.465	 -7.361	179.429	-14.187	-161.685
   11.500000000	-20.607	130.447	 -7.389	168.260	 -7.409	168.218	-13.928	-166.892
   11.600000000	-21.055	144.198	 -7.439	157.064	 -7.461	157.011	-13.653	-172.693
   11.700000000	-20.447	159.957	 -7.495	145.871	 -7.511	145.799	-13.376	-178.909
   11.800000000	-18.882	171.724	 -7.560	134.600	 -7.579	134.582	-13.025	174.459
   11.900000000	-17.060	177.229	 -7.637	123.445	 -7.654	123.384	-12.606	167.155
   12.000000000	-15.379	179.678	 -7.722	112.214	 -7.743	112.205	-12.152	159.356
   12.100000000	-13.815	179.287	 -7.824	101.121	 -7.836	101.069	-11.645	151.635
   12.200000000	-12.456	177.000	 -7.931	 90.083	 -7.949	 90.028	-11.154	143.676
   12.300000000	-11.367	173.121	 -8.049	 79.118	 -8.069	 79.067	-10.643	135.732
   12.400000000	-10.432	168.659	 -8.177	 68.235	 -8.199	 68.167	-10.181	127.963
   12.500000000	 -9.678	163.123	 -8.312	 57.477	 -8.329	 57.427	 -9.755	120.659
   12.600000000	 -9.045	157.092	 -8.446	 46.848	 -8.464	 46.767	 -9.385	113.473
   12.700000000	 -8.608	150.556	 -8.572	 36.276	 -8.587	 36.210	 -9.080	106.812
   12.800000000	 -8.240	143.515	 -8.693	 25.838	 -8.715	 25.763	 -8.868	100.461
   12.900000000	 -7.964	135.856	 -8.808	 15.449	 -8.824	 15.393	 -8.712	 94.339
   13.000000000	 -7.786	127.902	 -8.907	  5.134	 -8.924	  5.064	 -8.643	 88.588
   13.100000000	 -7.653	119.683	 -8.997	 -5.155	 -9.014	 -5.207	 -8.650	 83.022
   13.200000000	 -7.525	111.160	 -9.085	-15.379	 -9.097	-15.450	 -8.733	 77.535
   13.300000000	 -7.450	102.229	 -9.157	-25.561	 -9.169	-25.626	 -8.889	 72.115
   13.400000000	 -7.356	 93.484	 -9.217	-35.685	 -9.235	-35.732	 -9.135	 66.839
   13.500000000	 -7.245	 84.557	 -9.279	-45.780	 -9.293	-45.842	 -9.425	 61.004
   13.600000000	 -7.099	 75.650	 -9.340	-55.856	 -9.348	-55.971	 -9.808	 55.403
   13.700000000	 -6.998	 67.108	 -9.400	-65.941	 -9.407	-66.008	-10.260	 49.240
   13.800000000	 -6.856	 59.037	 -9.460	-75.930	 -9.467	-76.031	-10.735	 43.090
   13.900000000	 -6.703	 51.810	 -9.516	-85.863	 -9.524	-85.962	-11.278	 36.530
   14.000000000	 -6.566	 44.688	 -9.562	-95.804	 -9.575	-95.845	-11.834	 30.143
   14.100000000	 -6.457	 38.714	 -9.610	-105.567	 -9.624	-105.716	-12.418	 23.581
   14.200000000	 -6.376	 33.091	 -9.649	-115.407	 -9.669	-115.525	-13.081	 17.678
   14.300000000	 -6.321	 28.444	 -9.681	-125.241	 -9.695	-125.316	-13.738	 12.959
   14.400000000	 -6.323	 24.441	 -9.691	-135.020	 -9.711	-135.114	-14.414	  9.766
   14.500000000	 -6.312	 21.214	 -9.700	-144.877	 -9.721	-144.952	-15.149	  7.631
   14.600000000	 -6.417	 18.413	 -9.691	-154.715	 -9.699	-154.796	-15.736	  8.939
   14.700000000	 -6.462	 16.834	 -9.675	-164.587	 -9.693	-164.678	-16.232	 12.826
   14.800000000	 -6.612	 15.439	 -9.649	-174.540	 -9.651	-174.656	-16.222	 17.620
   14.900000000	 -6.704	 14.196	 -9.619	175.497	 -9.635	175.393	-15.820	 23.929
   15.000000000	 -6.840	 14.103	 -9.588	165.487	 -9.602	165.416	-15.058	 28.781
   15.100000000	 -6.982	 13.206	 -9.558	155.452	 -9.573	155.409	-14.181	 31.476
   15.200000000	 -7.200	 12.773	 -9.525	145.634	 -9.535	145.539	-13.370	 32.484
   15.300000000	 -7.433	 11.931	 -9.491	135.729	 -9.503	135.668	-12.619	 32.347
   15.400000000	 -7.744	 10.478	 -9.449	125.916	 -9.467	125.800	-12.096	 30.984
   15.500000000	 -8.233	  8.860	 -9.390	116.028	 -9.415	116.007	-11.748	 28.930
   15.600000000	 -8.808	  6.456	 -9.341	106.184	 -9.361	106.149	-11.583	 27.205
   15.700000000	 -9.566	  3.116	 -9.282	 96.300	 -9.302	 96.298	-11.587	 25.196
   15.800000000	-10.560	 -1.444	 -9.214	 86.309	 -9.234	 86.268	-11.806	 23.174
   15.900000000	-11.713	 -6.605	 -9.144	 76.194	 -9.169	 76.174	-12.135	 21.225
   16.000000000	-13.108	-14.042	 -9.085	 65.938	 -9.108	 65.924	-12.678	 20.081
   16.100000000	-14.626	-24.354	 -9.029	 55.452	 -9.059	 55.502	-13.368	 17.647
   16.200000000	-16.167	-37.238	 -8.990	 44.974	 -9.015	 44.979	-14.091	 15.862
   16.300000000	-17.319	-53.574	 -8.961	 34.302	 -8.987	 34.320	-15.199	 13.117
   16.400000000	-17.767	-71.440	 -8.936	 23.622	 -8.956	 23.615	-16.471	  9.014
   16.500000000	-17.597	-88.978	 -8.922	 12.856	 -8.948	 12.932	-18.095	  4.817
   16.600000000	-17.018	-100.768	 -8.906	  2.139	 -8.939	  2.194	-20.289	 -3.089
   16.700000000	-16.122	-112.152	 -8.906	 -8.592	 -8.934	 -8.594	-22.982	-13.727
   16.800000000	-15.794	-116.828	 -8.893	-19.292	 -8.923	-19.255	-28.400	-38.323
   16.900000000	-15.249	-124.164	 -8.882	-29.968	 -8.909	-29.956	-28.669	-82.484
   17.000000000	-15.249	-125.972	 -8.849	-40.553	 -8.887	-40.489	-28.365	-124.850
   17.100000000	-15.521	-132.483	 -8.831	-51.131	 -8.860	-51.079	-24.662	-143.420
   17.200000000	-15.844	-132.493	 -8.790	-61.791	 -8.819	-61.730	-24.181	-153.833
   17.300000000	-17.342	-133.798	 -8.743	-72.400	 -8.769	-72.389	-23.443	-164.862
   17.400000000	-18.826	-131.557	 -8.690	-83.152	 -8.721	-83.141	-23.746	-168.266
   17.500000000	-21.524	-125.371	 -8.644	-94.002	 -8.677	-93.991	-25.090	-173.245
   17.600000000	-24.751	-105.819	 -8.604	-105.039	 -8.630	-105.009	-27.871	-173.961
   17.700000000	-25.843	-64.356	 -8.580	-116.206	 -8.606	-116.212	-33.730	-167.628
   17.800000000	-22.516	-35.297	 -8.574	-127.549	 -8.596	-127.560	-46.648	-95.823
   17.900000000	-19.177	-23.927	 -8.591	-139.037	 -8.621	-139.011	-34.164	-14.840
   18.000000000	-17.083	-18.915	 -8.623	-150.486	 -8.652	-150.507	-28.026	 -6.206
   18.100000000	-15.302	-17.145	 -8.680	-162.157	 -8.704	-162.121	-24.716	  0.048
   18.200000000	-14.108	-15.743	 -8.749	-173.792	 -8.771	-173.758	-22.270	  7.515
   18.300000000	-13.290	-15.692	 -8.834	174.501	 -8.863	174.502	-19.731	 13.760
   18.400000000	-12.671	-14.546	 -8.946	162.803	 -8.973	162.822	-17.596	 18.035
   18.500000000	-12.371	-14.555	 -9.074	151.147	 -9.105	151.130	-15.752	 20.317
   18.600000000	-12.204	-14.388	 -9.239	139.622	 -9.276	139.637	-14.077	 20.711
   18.700000000	-12.413	-14.582	 -9.448	128.385	 -9.476	128.403	-12.719	 19.834
   18.800000000	-13.077	-14.347	 -9.682	117.651	 -9.702	117.682	-11.765	 16.725
   18.900000000	-14.262	-12.523	 -9.882	107.856	 -9.913	107.836	-11.285	 12.310
   19.000000000	-15.935	 -5.437	 -9.938	 98.770	 -9.973	 98.861	-11.420	  8.701
   19.100000000	-17.131	  6.689	 -9.759	 89.435	 -9.804	 89.548	-12.251	  6.619
   19.200000000	-17.922	 24.274	 -9.461	 78.781	 -9.506	 78.908	-13.539	  8.626
   19.300000000	-18.193	 36.776	 -9.204	 66.713	 -9.249	 66.805	-14.713	 19.588
   19.400000000	-17.676	 55.176	 -9.083	 53.849	 -9.122	 53.977	-15.050	 32.842
   19.500000000	-17.188	 70.786	 -9.076	 40.875	 -9.111	 40.916	-13.981	 44.319
   19.600000000	-15.320	 78.597	 -9.148	 27.824	 -9.192	 27.961	-12.667	 51.080
   19.700000000	-13.802	 82.516	 -9.263	 14.982	 -9.302	 15.098	-11.402	 51.684
   19.800000000	-12.743	 80.865	 -9.406	  2.202	 -9.440	  2.338	-10.422	 49.902
   19.900000000	-12.076	 77.592	 -9.548	-10.586	 -9.577	-10.476	 -9.810	 45.898
   20.000000000	-11.639	 71.363	 -9.685	-23.303	 -9.728	-23.209	 -9.402	 40.565
