! Date: Wednesday, June 05, 2013  1:50 PM
! Filename: C:\Data\Mike_Arnold\TGP2105-SM\Over_Temp\TGP2105-SM_EVB01_25C_Phase24.s2p 
! Comments: 
!^VDC(V):5.000
!^VDC(mA):0.063
!%Freq(GHz),S11(dB),S11(ang),S21(dB),S21(ang),S12(dB),S12(ang),S22(dB),S22(ang)
# GHz   S   DB   R   50
    5.000000000	 -8.835	 92.543	 -6.536	-105.178	 -6.554	-105.198	 -7.883	-142.709
    5.100000000	 -9.807	 83.506	 -6.395	-121.121	 -6.412	-121.139	 -7.828	-153.895
    5.200000000	-11.211	 74.545	 -6.246	-136.878	 -6.262	-136.878	 -7.993	-163.968
    5.300000000	-13.218	 65.517	 -6.109	-152.550	 -6.129	-152.548	 -8.314	-173.160
    5.400000000	-16.338	 57.290	 -5.997	-168.144	 -6.013	-168.185	 -8.779	179.502
    5.500000000	-22.054	 54.580	 -5.931	176.297	 -5.944	176.287	 -9.287	174.106
    5.600000000	-31.510	121.298	 -5.922	160.979	 -5.938	160.950	 -9.673	170.879
    5.700000000	-21.448	173.604	 -5.978	145.942	 -5.987	145.953	 -9.882	168.773
    5.800000000	-16.162	171.362	 -6.071	131.364	 -6.090	131.391	 -9.806	167.286
    5.900000000	-13.025	162.792	 -6.217	117.386	 -6.231	117.353	 -9.556	165.409
    6.000000000	-11.048	152.712	 -6.378	103.954	 -6.393	103.951	 -9.227	162.115
    6.100000000	 -9.787	142.506	 -6.535	 91.270	 -6.549	 91.257	 -8.995	157.808
    6.200000000	 -8.939	132.330	 -6.654	 79.363	 -6.666	 79.347	 -8.896	153.071
    6.300000000	 -8.466	122.017	 -6.648	 68.084	 -6.663	 68.051	 -8.985	148.734
    6.400000000	 -8.325	112.592	 -6.476	 56.294	 -6.493	 56.304	 -9.004	144.704
    6.500000000	 -8.271	103.549	 -6.340	 43.901	 -6.358	 43.890	 -9.013	139.327
    6.600000000	 -8.293	 94.275	 -6.231	 31.603	 -6.248	 31.567	 -9.247	132.556
    6.700000000	 -8.517	 84.029	 -6.117	 19.305	 -6.128	 19.259	 -9.775	125.397
    6.800000000	 -8.917	 73.429	 -5.975	  6.852	 -5.998	  6.907	-10.567	118.142
    6.900000000	 -9.484	 62.756	 -5.838	 -5.575	 -5.863	 -5.541	-11.642	111.121
    7.000000000	-10.170	 51.567	 -5.711	-18.235	 -5.739	-18.191	-13.050	104.071
    7.100000000	-11.026	 40.149	 -5.603	-30.948	 -5.625	-30.882	-14.862	 97.708
    7.200000000	-11.994	 28.969	 -5.512	-43.735	 -5.539	-43.707	-17.141	 93.040
    7.300000000	-13.023	 17.994	 -5.450	-56.590	 -5.478	-56.535	-19.849	 91.356
    7.400000000	-14.101	  7.518	 -5.418	-69.373	 -5.437	-69.348	-23.010	 95.242
    7.500000000	-15.243	 -2.381	 -5.401	-82.134	 -5.424	-82.108	-25.892	110.874
    7.600000000	-16.392	-10.776	 -5.405	-94.814	 -5.434	-94.756	-26.124	132.544
    7.700000000	-17.594	-17.625	 -5.438	-107.369	 -5.459	-107.306	-24.462	142.542
    7.800000000	-18.870	-22.094	 -5.473	-119.782	 -5.495	-119.753	-22.450	142.034
    7.900000000	-20.299	-23.620	 -5.522	-132.139	 -5.549	-132.110	-20.550	134.045
    8.000000000	-21.581	-20.609	 -5.584	-144.425	 -5.608	-144.363	-18.865	122.171
    8.100000000	-22.629	-12.805	 -5.657	-156.540	 -5.689	-156.496	-17.347	109.921
    8.200000000	-22.689	 -1.308	 -5.749	-168.593	 -5.775	-168.524	-15.857	 97.889
    8.300000000	-21.774	  9.150	 -5.853	179.518	 -5.878	179.624	-14.426	 86.099
    8.400000000	-20.332	 13.681	 -5.954	167.783	 -5.984	167.862	-13.252	 75.215
    8.500000000	-19.126	 14.603	 -6.056	156.198	 -6.089	156.269	-12.268	 65.252
    8.600000000	-18.075	 12.307	 -6.161	144.788	 -6.190	144.874	-11.446	 56.268
    8.700000000	-17.359	  7.730	 -6.248	133.467	 -6.275	133.571	-10.863	 47.897
    8.800000000	-17.097	  1.279	 -6.316	122.219	 -6.346	122.315	-10.517	 40.171
    8.900000000	-17.275	 -6.100	 -6.363	111.035	 -6.391	111.148	-10.363	 33.421
    9.000000000	-17.820	-14.730	 -6.383	 99.821	 -6.417	 99.878	-10.410	 26.591
    9.100000000	-18.837	-25.855	 -6.398	 88.534	 -6.428	 88.611	-10.617	 20.567
    9.200000000	-20.480	-40.339	 -6.391	 77.138	 -6.424	 77.257	-11.095	 15.157
    9.300000000	-22.582	-60.385	 -6.382	 65.636	 -6.419	 65.725	-11.655	  9.769
    9.400000000	-24.379	-90.913	 -6.376	 54.026	 -6.406	 54.132	-12.380	  5.023
    9.500000000	-24.060	-127.949	 -6.373	 42.323	 -6.406	 42.393	-13.265	 -0.179
    9.600000000	-22.170	-156.467	 -6.382	 30.592	 -6.415	 30.678	-14.159	 -5.847
    9.700000000	-19.958	-173.468	 -6.410	 18.871	 -6.436	 18.928	-15.059	-12.279
    9.800000000	-18.106	175.749	 -6.434	  7.106	 -6.467	  7.205	-16.009	-21.684
    9.900000000	-16.641	168.780	 -6.475	 -4.614	 -6.508	 -4.521	-16.738	-34.268
   10.000000000	-16.225	156.713	 -6.547	-16.398	 -6.583	-16.295	-16.268	-47.190
   10.100000000	-15.250	150.500	 -6.613	-28.112	 -6.644	-27.966	-15.898	-61.903
   10.200000000	-14.124	145.175	 -6.688	-39.723	 -6.721	-39.612	-15.224	-75.073
   10.300000000	-13.327	140.145	 -6.773	-51.255	 -6.810	-51.153	-14.351	-88.461
   10.400000000	-12.493	135.021	 -6.877	-62.721	 -6.914	-62.604	-13.320	-99.913
   10.500000000	-11.852	130.280	 -6.979	-74.043	 -7.015	-73.957	-12.499	-110.097
   10.600000000	-11.286	124.915	 -7.104	-85.307	 -7.136	-85.197	-11.587	-119.536
   10.700000000	-10.908	119.486	 -7.226	-96.282	 -7.245	-96.335	-10.937	-127.750
   10.800000000	-10.599	114.133	 -7.344	-107.313	 -7.364	-107.341	-10.382	-135.820
   10.900000000	-10.522	108.396	 -7.455	-118.213	 -7.475	-118.256	 -9.959	-142.941
   11.000000000	-10.504	102.778	 -7.553	-129.088	 -7.572	-129.125	 -9.676	-150.164
   11.100000000	-10.718	 96.827	 -7.642	-139.899	 -7.662	-139.919	 -9.532	-156.893
   11.200000000	-11.025	 91.255	 -7.715	-150.712	 -7.737	-150.737	 -9.451	-163.554
   11.300000000	-11.544	 85.464	 -7.785	-161.515	 -7.801	-161.557	 -9.456	-170.254
   11.400000000	-12.221	 79.652	 -7.831	-172.356	 -7.855	-172.401	 -9.524	-176.932
   11.500000000	-13.135	 74.154	 -7.882	176.746	 -7.899	176.727	 -9.614	176.446
   11.600000000	-14.302	 68.357	 -7.919	165.829	 -7.936	165.823	 -9.711	169.749
   11.700000000	-15.882	 62.719	 -7.954	154.881	 -7.973	154.878	 -9.811	162.987
   11.800000000	-18.021	 57.746	 -7.997	143.905	 -8.016	143.866	 -9.848	156.274
   11.900000000	-20.910	 54.277	 -8.030	132.884	 -8.053	132.842	 -9.834	149.501
   12.000000000	-25.595	 53.376	 -8.082	121.831	 -8.100	121.828	 -9.747	142.691
   12.100000000	-35.725	 84.026	 -8.132	110.746	 -8.149	110.721	 -9.605	136.280
   12.200000000	-29.377	-179.246	 -8.199	 99.736	 -8.215	 99.670	 -9.421	129.796
   12.300000000	-22.953	-175.326	 -8.266	 88.732	 -8.285	 88.649	 -9.176	123.462
   12.400000000	-19.217	-178.699	 -8.349	 77.692	 -8.365	 77.655	 -8.925	117.320
   12.500000000	-16.814	174.639	 -8.433	 66.771	 -8.452	 66.701	 -8.666	111.446
   12.600000000	-15.022	166.938	 -8.526	 55.863	 -8.540	 55.801	 -8.409	105.628
   12.700000000	-13.786	158.857	 -8.616	 45.037	 -8.637	 44.977	 -8.186	100.146
   12.800000000	-12.780	149.896	 -8.711	 34.260	 -8.727	 34.185	 -8.014	 94.857
   12.900000000	-11.999	140.230	 -8.798	 23.543	 -8.821	 23.493	 -7.874	 89.558
   13.000000000	-11.409	130.359	 -8.887	 12.894	 -8.902	 12.796	 -7.790	 84.499
   13.100000000	-10.923	120.204	 -8.969	  2.238	 -8.983	  2.202	 -7.754	 79.447
   13.200000000	-10.443	109.843	 -9.053	 -8.274	 -9.067	 -8.335	 -7.768	 74.353
   13.300000000	-10.055	 99.124	 -9.134	-18.802	 -9.143	-18.846	 -7.841	 69.240
   13.400000000	 -9.664	 88.810	 -9.199	-29.225	 -9.213	-29.268	 -7.990	 64.024
   13.500000000	 -9.267	 78.519	 -9.274	-39.604	 -9.287	-39.681	 -8.148	 58.313
   13.600000000	 -8.838	 68.492	 -9.342	-49.979	 -9.361	-49.997	 -8.378	 52.563
   13.700000000	 -8.495	 59.120	 -9.420	-60.216	 -9.431	-60.295	 -8.648	 46.186
   13.800000000	 -8.138	 50.454	 -9.504	-70.392	 -9.509	-70.473	 -8.943	 39.710
   13.900000000	 -7.806	 42.821	 -9.572	-80.462	 -9.584	-80.555	 -9.288	 32.742
   14.000000000	 -7.516	 35.406	 -9.642	-90.489	 -9.653	-90.524	 -9.611	 25.812
   14.100000000	 -7.304	 29.244	 -9.706	-100.351	 -9.713	-100.466	 -9.958	 18.549
   14.200000000	 -7.140	 23.499	 -9.754	-110.260	 -9.766	-110.324	-10.367	 11.556
   14.300000000	 -7.044	 18.755	 -9.787	-120.014	 -9.801	-120.123	-10.794	  5.121
   14.400000000	 -7.032	 14.645	 -9.802	-129.857	 -9.809	-129.920	-11.272	 -0.554
   14.500000000	 -7.040	 11.494	 -9.796	-139.725	 -9.806	-139.778	-11.838	 -5.994
   14.600000000	 -7.193	  8.560	 -9.758	-149.531	 -9.775	-149.597	-12.469	 -9.527
   14.700000000	 -7.315	  7.223	 -9.715	-159.464	 -9.731	-159.567	-13.262	-11.707
   14.800000000	 -7.560	  5.958	 -9.647	-169.556	 -9.657	-169.600	-14.000	-12.255
   14.900000000	 -7.734	  5.132	 -9.576	-179.663	 -9.596	-179.744	-14.826	 -9.856
   15.000000000	 -7.979	  5.665	 -9.497	170.140	 -9.518	170.041	-15.512	 -5.279
   15.100000000	 -8.191	  5.469	 -9.423	159.855	 -9.439	159.767	-15.889	  0.659
   15.200000000	 -8.462	  5.791	 -9.348	149.540	 -9.363	149.467	-16.006	  6.941
   15.300000000	 -8.692	  5.719	 -9.285	139.196	 -9.297	139.135	-15.799	 12.976
   15.400000000	 -8.976	  4.777	 -9.222	128.859	 -9.233	128.783	-15.538	 17.091
   15.500000000	 -9.420	  3.503	 -9.154	118.493	 -9.174	118.416	-15.275	 19.670
   15.600000000	 -9.911	  1.145	 -9.101	108.138	 -9.124	108.092	-15.155	 22.277
   15.700000000	-10.567	 -2.413	 -9.048	 97.712	 -9.062	 97.676	-15.153	 23.975
   15.800000000	-11.403	 -7.663	 -8.989	 87.196	 -9.010	 87.187	-15.355	 25.569
   15.900000000	-12.353	-13.857	 -8.948	 76.628	 -8.967	 76.587	-15.653	 27.194
   16.000000000	-13.390	-22.633	 -8.909	 65.954	 -8.929	 65.905	-16.106	 30.086
   16.100000000	-14.361	-34.211	 -8.877	 55.098	 -8.906	 55.131	-16.770	 31.489
   16.200000000	-15.125	-47.616	 -8.863	 44.182	 -8.894	 44.219	-17.329	 33.791
   16.300000000	-15.376	-62.107	 -8.866	 33.215	 -8.889	 33.249	-18.391	 36.093
   16.400000000	-15.093	-75.950	 -8.865	 22.205	 -8.900	 22.278	-19.685	 38.023
   16.500000000	-14.512	-88.589	 -8.890	 11.206	 -8.920	 11.255	-21.290	 42.696
   16.600000000	-13.749	-97.266	 -8.912	  0.234	 -8.943	  0.279	-23.697	 50.024
   16.700000000	-12.859	-106.057	 -8.944	-10.775	 -8.975	-10.704	-26.066	 64.835
   16.800000000	-12.314	-110.219	 -8.968	-21.577	 -9.002	-21.541	-26.824	103.657
   16.900000000	-11.698	-116.741	 -8.992	-32.400	 -9.023	-32.345	-26.606	127.600
   17.000000000	-11.384	-119.404	 -9.008	-43.075	 -9.033	-43.020	-23.520	134.443
   17.100000000	-11.281	-125.228	 -9.009	-53.634	 -9.038	-53.651	-22.014	142.243
   17.200000000	-11.158	-127.486	 -9.001	-64.297	 -9.026	-64.266	-21.359	135.741
   17.300000000	-11.677	-130.711	 -8.968	-74.853	 -8.996	-74.820	-20.521	129.710
   17.400000000	-12.128	-133.167	 -8.925	-85.567	 -8.959	-85.486	-20.736	121.226
   17.500000000	-13.045	-135.989	 -8.884	-96.357	 -8.907	-96.292	-20.947	107.636
   17.600000000	-14.279	-138.295	 -8.834	-107.333	 -8.858	-107.281	-21.262	 89.484
   17.700000000	-16.021	-140.103	 -8.799	-118.493	 -8.821	-118.488	-20.902	 68.146
   17.800000000	-18.320	-141.120	 -8.771	-129.851	 -8.800	-129.841	-19.798	 49.524
   17.900000000	-21.819	-139.996	 -8.767	-141.381	 -8.798	-141.383	-18.298	 35.534
   18.000000000	-27.991	-141.276	 -8.790	-153.054	 -8.816	-153.024	-16.718	 24.990
   18.100000000	-44.014	-16.505	 -8.836	-164.852	 -8.859	-164.859	-15.329	 18.296
   18.200000000	-26.331	 26.963	 -8.907	-176.713	 -8.937	-176.693	-14.102	 14.406
   18.300000000	-21.007	 27.044	 -9.005	171.445	 -9.039	171.410	-12.867	 11.755
   18.400000000	-17.560	 26.724	 -9.146	159.615	 -9.176	159.583	-11.826	  9.605
   18.500000000	-15.549	 25.052	 -9.304	147.952	 -9.342	147.941	-10.919	  7.547
   18.600000000	-14.058	 23.225	 -9.511	136.536	 -9.535	136.586	-10.133	  5.361
   18.700000000	-13.243	 22.100	 -9.726	125.626	 -9.752	125.671	 -9.513	  3.035
   18.800000000	-12.862	 22.571	 -9.943	115.378	 -9.975	115.434	 -9.090	 -0.637
   18.900000000	-12.703	 24.932	-10.104	106.028	-10.130	106.044	 -8.961	 -5.248
   19.000000000	-12.397	 29.393	-10.069	 97.317	-10.090	 97.292	 -9.261	 -9.547
   19.100000000	-11.819	 31.469	 -9.784	 87.936	 -9.821	 88.073	-10.012	-13.870
   19.200000000	-11.512	 32.697	 -9.402	 77.293	 -9.436	 77.396	-11.191	-17.399
   19.300000000	-11.674	 30.170	 -9.045	 65.263	 -9.083	 65.350	-12.971	-16.784
   19.400000000	-12.250	 31.023	 -8.793	 52.389	 -8.831	 52.506	-15.113	-13.664
   19.500000000	-13.616	 32.024	 -8.630	 39.139	 -8.661	 39.259	-16.999	 -1.378
   19.600000000	-14.444	 36.784	 -8.543	 25.682	 -8.577	 25.768	-18.066	 18.002
   19.700000000	-15.284	 43.817	 -8.498	 12.047	 -8.537	 12.192	-17.212	 32.909
   19.800000000	-15.665	 48.530	 -8.493	 -1.752	 -8.530	 -1.596	-15.889	 40.891
   19.900000000	-16.001	 51.832	 -8.521	-15.640	 -8.553	-15.525	-14.895	 41.930
   20.000000000	-16.062	 50.828	 -8.570	-29.569	 -8.609	-29.458	-14.163	 39.225
