! Date: Wednesday, June 05, 2013  1:51 PM
! Filename: C:\Data\Mike_Arnold\TGP2105-SM\Over_Temp\TGP2105-SM_EVB01_25C_Phase34.s2p 
! Comments: 
!^VDC(V):5.000
!^VDC(mA):0.025
!%Freq(GHz),S11(dB),S11(ang),S21(dB),S21(ang),S12(dB),S12(ang),S22(dB),S22(ang)
# GHz   S   DB   R   50
    5.000000000	-14.729	-136.973	 -8.343	-47.465	 -8.353	-47.486	 -7.299	106.170
    5.100000000	-11.328	-152.036	 -8.536	-63.759	 -8.556	-63.808	 -7.202	102.988
    5.200000000	 -9.104	-165.787	 -8.773	-79.280	 -8.787	-79.330	 -7.064	 99.367
    5.300000000	 -7.627	-178.551	 -9.013	-93.947	 -9.029	-94.009	 -6.870	 95.211
    5.400000000	 -6.619	169.687	 -9.218	-107.808	 -9.232	-107.857	 -6.747	 90.263
    5.500000000	 -5.917	158.986	 -9.345	-120.862	 -9.363	-120.919	 -6.701	 84.839
    5.600000000	 -5.440	148.764	 -9.358	-133.570	 -9.378	-133.595	 -6.727	 79.498
    5.700000000	 -5.133	139.177	 -9.288	-146.373	 -9.304	-146.392	 -6.747	 73.216
    5.800000000	 -4.980	130.172	 -9.190	-159.157	 -9.202	-159.208	 -6.899	 65.783
    5.900000000	 -4.904	121.469	 -9.039	-171.789	 -9.052	-171.849	 -7.276	 57.456
    6.000000000	 -4.946	112.831	 -8.834	175.552	 -8.848	175.520	 -7.846	 48.505
    6.100000000	 -5.151	104.293	 -8.577	162.662	 -8.592	162.626	 -8.663	 38.545
    6.200000000	 -5.454	 96.186	 -8.287	149.571	 -8.311	149.538	 -9.803	 27.615
    6.300000000	 -5.838	 88.218	 -8.001	136.141	 -8.017	136.127	-11.283	 15.647
    6.400000000	 -6.365	 80.333	 -7.716	122.382	 -7.734	122.377	-13.190	  2.125
    6.500000000	 -6.993	 72.937	 -7.459	108.496	 -7.475	108.432	-15.705	-14.133
    6.600000000	 -7.672	 66.211	 -7.246	 94.353	 -7.264	 94.336	-19.075	-34.584
    6.700000000	 -8.377	 59.359	 -7.082	 80.225	 -7.097	 80.180	-23.298	-65.062
    6.800000000	 -9.093	 52.833	 -6.948	 66.016	 -6.976	 66.087	-26.519	-118.285
    6.900000000	 -9.792	 46.608	 -6.862	 52.055	 -6.888	 52.114	-24.927	-172.714
    7.000000000	-10.394	 40.016	 -6.809	 38.259	 -6.835	 38.341	-22.449	153.882
    7.100000000	-10.958	 33.192	 -6.774	 24.662	 -6.800	 24.743	-20.688	130.444
    7.200000000	-11.464	 26.213	 -6.749	 11.255	 -6.779	 11.294	-19.458	110.588
    7.300000000	-11.864	 18.989	 -6.742	 -2.047	 -6.770	 -1.974	-18.468	 91.684
    7.400000000	-12.181	 11.558	 -6.745	-15.109	 -6.772	-15.070	-17.660	 73.496
    7.500000000	-12.439	  3.872	 -6.747	-28.072	 -6.775	-28.011	-16.953	 56.436
    7.600000000	-12.600	 -3.488	 -6.755	-40.791	 -6.785	-40.758	-16.206	 40.831
    7.700000000	-12.726	-10.979	 -6.771	-53.388	 -6.793	-53.310	-15.459	 26.477
    7.800000000	-12.841	-18.467	 -6.772	-65.786	 -6.796	-65.722	-14.874	 13.468
    7.900000000	-13.032	-25.874	 -6.771	-78.087	 -6.792	-78.037	-14.406	  2.216
    8.000000000	-13.251	-33.227	 -6.753	-90.285	 -6.781	-90.200	-14.085	 -7.376
    8.100000000	-13.644	-40.829	 -6.735	-102.356	 -6.765	-102.276	-14.003	-16.513
    8.200000000	-14.206	-48.477	 -6.699	-114.434	 -6.726	-114.335	-14.212	-24.546
    8.300000000	-15.049	-56.062	 -6.665	-126.446	 -6.696	-126.387	-14.735	-31.226
    8.400000000	-16.134	-63.662	 -6.623	-138.539	 -6.656	-138.472	-15.532	-37.335
    8.500000000	-17.710	-72.084	 -6.593	-150.667	 -6.621	-150.598	-16.763	-42.491
    8.600000000	-19.791	-80.105	 -6.565	-162.773	 -6.598	-162.678	-18.485	-45.271
    8.700000000	-22.540	-88.120	 -6.556	-174.908	 -6.582	-174.819	-20.689	-46.131
    8.800000000	-26.035	-97.916	 -6.552	172.971	 -6.586	173.050	-23.483	-43.945
    8.900000000	-30.934	-113.546	 -6.565	160.883	 -6.592	160.973	-27.476	-34.146
    9.000000000	-36.607	-147.977	 -6.581	148.825	 -6.612	148.926	-31.735	-12.824
    9.100000000	-36.794	163.378	 -6.609	136.881	 -6.641	136.951	-34.527	 38.057
    9.200000000	-32.493	150.447	 -6.639	124.972	 -6.673	125.037	-31.365	 91.118
    9.300000000	-28.670	150.384	 -6.672	113.083	 -6.705	113.168	-27.110	110.843
    9.400000000	-25.243	152.503	 -6.721	101.228	 -6.751	101.326	-23.303	121.497
    9.500000000	-21.998	153.159	 -6.778	 89.434	 -6.807	 89.531	-20.279	127.440
    9.600000000	-19.435	149.797	 -6.848	 77.760	 -6.881	 77.910	-17.846	128.799
    9.700000000	-17.439	146.018	 -6.927	 66.250	 -6.959	 66.336	-15.810	127.300
    9.800000000	-15.807	140.979	 -7.014	 54.857	 -7.047	 54.952	-14.255	125.641
    9.900000000	-14.659	135.425	 -7.106	 43.636	 -7.137	 43.743	-13.068	122.927
   10.000000000	-14.426	121.901	 -7.160	 32.130	 -7.192	 32.272	-12.692	120.458
   10.100000000	-13.942	114.077	 -7.236	 21.085	 -7.270	 21.188	-12.163	116.708
   10.200000000	-13.584	107.611	 -7.307	 10.185	 -7.339	 10.291	-11.784	112.065
   10.300000000	-13.582	100.470	 -7.366	 -0.575	 -7.399	 -0.498	-11.576	107.937
   10.400000000	-13.733	 94.175	 -7.418	-11.308	 -7.451	-11.203	-11.545	103.370
   10.500000000	-14.240	 88.567	 -7.452	-21.918	 -7.488	-21.786	-11.538	 98.345
   10.600000000	-14.962	 83.028	 -7.486	-32.551	 -7.514	-32.459	-11.759	 94.073
   10.700000000	-16.078	 78.151	 -7.517	-43.048	 -7.536	-43.081	-11.969	 89.045
   10.800000000	-17.591	 75.308	 -7.538	-53.689	 -7.558	-53.728	-12.218	 84.311
   10.900000000	-19.804	 73.359	 -7.559	-64.363	 -7.580	-64.420	-12.507	 79.135
   11.000000000	-22.803	 78.223	 -7.587	-75.068	 -7.603	-75.145	-12.707	 74.039
   11.100000000	-27.052	 96.226	 -7.612	-85.814	 -7.633	-85.877	-12.823	 68.546
   11.200000000	-27.666	144.564	 -7.651	-96.602	 -7.671	-96.628	-12.868	 63.077
   11.300000000	-23.352	172.873	 -7.694	-107.348	 -7.713	-107.396	-12.765	 57.705
   11.400000000	-19.616	179.038	 -7.749	-118.154	 -7.775	-118.183	-12.561	 52.030
   11.500000000	-16.802	178.421	 -7.819	-128.886	 -7.840	-128.911	-12.310	 46.289
   11.600000000	-14.769	175.051	 -7.894	-139.559	 -7.910	-139.593	-11.984	 40.573
   11.700000000	-13.165	170.735	 -7.980	-150.170	 -7.998	-150.194	-11.619	 34.814
   11.800000000	-11.881	165.648	 -8.066	-160.672	 -8.086	-160.693	-11.293	 29.205
   11.900000000	-10.870	159.793	 -8.159	-171.065	 -8.178	-171.110	-10.988	 23.697
   12.000000000	-10.118	153.851	 -8.249	178.621	 -8.267	178.604	-10.741	 18.363
   12.100000000	 -9.520	147.983	 -8.321	168.414	 -8.343	168.346	-10.599	 12.947
   12.200000000	 -9.064	141.921	 -8.404	158.263	 -8.420	158.192	-10.511	  7.655
   12.300000000	 -8.756	135.553	 -8.464	148.131	 -8.483	148.056	-10.529	  2.619
   12.400000000	 -8.566	129.381	 -8.518	138.057	 -8.537	137.981	-10.625	 -2.491
   12.500000000	 -8.459	122.961	 -8.556	127.937	 -8.568	127.893	-10.857	 -7.597
   12.600000000	 -8.405	116.483	 -8.580	117.836	 -8.601	117.757	-11.162	-12.518
   12.700000000	 -8.464	109.653	 -8.592	107.615	 -8.609	107.562	-11.599	-17.517
   12.800000000	 -8.518	102.870	 -8.596	 97.348	 -8.614	 97.256	-12.126	-22.567
   12.900000000	 -8.577	 95.828	 -8.599	 87.006	 -8.613	 86.934	-12.774	-27.559
   13.000000000	 -8.663	 88.575	 -8.592	 76.580	 -8.614	 76.520	-13.541	-32.527
   13.100000000	 -8.743	 81.421	 -8.595	 66.079	 -8.610	 66.053	-14.425	-37.308
   13.200000000	 -8.743	 74.442	 -8.595	 55.616	 -8.608	 55.559	-15.409	-41.726
   13.300000000	 -8.713	 67.100	 -8.591	 45.100	 -8.609	 45.049	-16.503	-45.649
   13.400000000	 -8.637	 60.224	 -8.591	 34.560	 -8.611	 34.459	-17.741	-48.829
   13.500000000	 -8.496	 53.490	 -8.597	 23.962	 -8.612	 23.870	-18.989	-49.008
   13.600000000	 -8.267	 47.091	 -8.612	 13.346	 -8.629	 13.256	-20.280	-46.993
   13.700000000	 -8.064	 40.967	 -8.639	  2.745	 -8.654	  2.672	-21.105	-40.172
   13.800000000	 -7.790	 35.471	 -8.682	 -7.761	 -8.693	 -7.899	-21.277	-29.492
   13.900000000	 -7.489	 30.696	 -8.737	-18.341	 -8.749	-18.446	-20.275	-19.455
   14.000000000	 -7.161	 25.727	 -8.807	-28.862	 -8.823	-28.962	-18.600	-12.497
   14.100000000	 -6.858	 21.538	 -8.891	-39.261	 -8.905	-39.379	-16.698	-10.686
   14.200000000	 -6.545	 17.288	 -8.985	-49.602	 -8.999	-49.688	-15.012	-11.893
   14.300000000	 -6.265	 13.427	 -9.091	-59.764	 -9.104	-59.829	-13.547	-14.424
   14.400000000	 -6.037	  9.588	 -9.191	-69.789	 -9.206	-69.837	-12.323	-18.068
   14.500000000	 -5.832	  6.055	 -9.294	-79.597	 -9.306	-79.683	-11.314	-23.037
   14.600000000	 -5.758	  2.107	 -9.364	-89.269	 -9.380	-89.313	-10.554	-27.728
   14.700000000	 -5.716	 -1.048	 -9.421	-98.763	 -9.436	-98.813	-10.031	-33.100
   14.800000000	 -5.814	 -4.734	 -9.434	-108.170	 -9.450	-108.231	 -9.631	-38.596
   14.900000000	 -5.943	 -8.507	 -9.421	-117.445	 -9.438	-117.547	 -9.504	-43.993
   15.000000000	 -6.266	-11.673	 -9.369	-126.780	 -9.383	-126.845	 -9.536	-49.975
   15.100000000	 -6.655	-15.693	 -9.279	-136.164	 -9.293	-136.229	 -9.720	-56.234
   15.200000000	 -7.243	-19.647	 -9.163	-145.672	 -9.176	-145.761	-10.089	-63.191
   15.300000000	 -7.936	-23.905	 -9.027	-155.304	 -9.046	-155.400	-10.654	-70.529
   15.400000000	 -8.759	-28.893	 -8.887	-165.106	 -8.903	-165.204	-11.322	-78.960
   15.500000000	 -9.848	-34.796	 -8.740	-175.148	 -8.759	-175.188	-12.089	-88.477
   15.600000000	-11.023	-41.786	 -8.617	174.680	 -8.636	174.632	-12.993	-99.885
   15.700000000	-12.290	-50.905	 -8.505	164.371	 -8.527	164.325	-13.813	-112.927
   15.800000000	-13.532	-63.169	 -8.423	153.878	 -8.443	153.872	-14.365	-128.003
   15.900000000	-14.617	-77.574	 -8.369	143.378	 -8.390	143.374	-14.596	-144.080
   16.000000000	-15.138	-94.543	 -8.345	132.811	 -8.364	132.769	-14.317	-161.039
   16.100000000	-14.950	-111.326	 -8.335	122.235	 -8.360	122.265	-13.704	-174.930
   16.200000000	-14.442	-125.965	 -8.346	111.746	 -8.372	111.786	-13.041	171.962
   16.300000000	-13.742	-137.626	 -8.374	101.322	 -8.398	101.344	-12.247	161.466
   16.400000000	-13.104	-146.496	 -8.385	 91.008	 -8.421	 91.039	-11.651	152.334
   16.500000000	-12.540	-154.071	 -8.398	 80.804	 -8.424	 80.812	-11.164	143.794
   16.600000000	-12.381	-159.798	 -8.385	 70.623	 -8.412	 70.667	-10.910	136.582
   16.700000000	-12.136	-164.572	 -8.360	 60.472	 -8.392	 60.502	-10.865	129.271
   16.800000000	-12.592	-168.702	 -8.305	 50.402	 -8.335	 50.449	-10.850	123.906
   16.900000000	-12.833	-172.413	 -8.220	 40.249	 -8.257	 40.255	-11.501	117.626
   17.000000000	-13.774	-174.582	 -8.125	 30.006	 -8.159	 30.033	-11.992	110.858
   17.100000000	-14.524	-179.446	 -8.019	 19.677	 -8.050	 19.754	-13.052	105.824
   17.200000000	-15.910	-179.214	 -7.907	  9.151	 -7.940	  9.207	-14.246	 96.876
   17.300000000	-18.006	174.984	 -7.798	 -1.380	 -7.830	 -1.367	-15.483	 89.736
   17.400000000	-20.626	172.324	 -7.702	-12.101	 -7.729	-12.048	-17.152	 79.538
   17.500000000	-24.731	160.631	 -7.618	-22.843	 -7.648	-22.855	-18.479	 66.220
   17.600000000	-31.180	123.179	 -7.548	-33.763	 -7.575	-33.741	-19.364	 48.989
   17.700000000	-28.229	 42.865	 -7.506	-44.800	 -7.531	-44.792	-19.126	 30.181
   17.800000000	-22.150	 19.069	 -7.484	-55.863	 -7.516	-55.829	-18.139	 15.050
   17.900000000	-18.181	  9.210	 -7.486	-66.957	 -7.514	-66.976	-16.734	  4.093
   18.000000000	-15.671	  4.277	 -7.504	-78.046	 -7.532	-78.019	-15.270	 -4.562
   18.100000000	-13.709	 -0.956	 -7.533	-89.107	 -7.564	-89.113	-14.048	-10.869
   18.200000000	-12.413	 -4.947	 -7.567	-100.024	 -7.596	-100.064	-13.153	-15.780
   18.300000000	-11.593	 -9.311	 -7.594	-110.937	 -7.621	-110.942	-12.430	-19.168
   18.400000000	-11.088	-12.242	 -7.607	-121.727	 -7.631	-121.746	-12.030	-22.197
   18.500000000	-11.033	-15.229	 -7.592	-132.504	 -7.620	-132.492	-11.916	-24.379
   18.600000000	-11.211	-17.008	 -7.564	-143.306	 -7.590	-143.259	-12.019	-25.116
   18.700000000	-11.779	-17.699	 -7.514	-154.107	 -7.541	-154.093	-12.319	-23.995
   18.800000000	-12.674	-16.633	 -7.456	-165.039	 -7.487	-165.053	-12.648	-22.037
   18.900000000	-13.789	-13.371	 -7.406	-176.101	 -7.435	-176.088	-12.937	-18.933
   19.000000000	-15.081	 -6.198	 -7.355	172.757	 -7.385	172.748	-13.130	-13.914
   19.100000000	-15.987	  3.008	 -7.331	161.518	 -7.370	161.605	-13.055	-10.212
   19.200000000	-16.837	 16.919	 -7.331	150.328	 -7.366	150.411	-12.842	 -9.055
   19.300000000	-16.987	 26.633	 -7.334	139.154	 -7.372	139.215	-12.843	 -7.958
   19.400000000	-16.727	 39.168	 -7.336	127.896	 -7.375	128.021	-12.923	-10.833
   19.500000000	-17.058	 46.677	 -7.349	116.571	 -7.384	116.668	-13.151	-14.099
   19.600000000	-16.586	 52.257	 -7.367	105.052	 -7.405	105.140	-13.883	-19.171
   19.700000000	-16.593	 57.986	 -7.392	 93.368	 -7.428	 93.423	-14.680	-25.967
   19.800000000	-16.656	 60.051	 -7.420	 81.462	 -7.454	 81.553	-15.951	-34.033
   19.900000000	-16.904	 61.968	 -7.470	 69.402	 -7.501	 69.446	-17.404	-45.488
   20.000000000	-17.001	 60.145	 -7.528	 57.155	 -7.569	 57.232	-18.895	-58.531
