! Date: Wednesday, June 05, 2013  1:51 PM
! Filename: C:\Data\Mike_Arnold\TGP2105-SM\Over_Temp\TGP2105-SM_EVB01_25C_Phase38.s2p 
! Comments: 
!^VDC(V):5.000
!^VDC(mA):0.087
!%Freq(GHz),S11(dB),S11(ang),S21(dB),S21(ang),S12(dB),S12(ang),S22(dB),S22(ang)
# GHz   S   DB   R   50
    5.000000000	-15.232	 11.314	 -8.345	-14.149	 -8.366	-14.185	 -6.523	104.737
    5.100000000	-15.698	-33.289	 -8.264	-30.955	 -8.276	-30.985	 -6.620	 99.710
    5.200000000	-14.127	-74.391	 -8.236	-47.426	 -8.247	-47.469	 -6.754	 95.083
    5.300000000	-11.974	-104.410	 -8.260	-63.383	 -8.277	-63.423	 -6.844	 90.841
    5.400000000	-10.143	-126.902	 -8.316	-78.777	 -8.330	-78.799	 -6.948	 86.370
    5.500000000	 -8.723	-145.172	 -8.366	-93.410	 -8.382	-93.446	 -7.066	 81.861
    5.600000000	 -7.730	-160.921	 -8.361	-107.543	 -8.375	-107.595	 -7.206	 77.487
    5.700000000	 -7.037	-174.475	 -8.306	-121.661	 -8.319	-121.711	 -7.283	 72.331
    5.800000000	 -6.551	173.504	 -8.254	-135.521	 -8.272	-135.587	 -7.447	 65.951
    5.900000000	 -6.218	162.224	 -8.188	-149.077	 -8.200	-149.117	 -7.807	 58.600
    6.000000000	 -6.078	151.569	 -8.074	-162.407	 -8.090	-162.464	 -8.334	 50.566
    6.100000000	 -6.140	141.737	 -7.916	-175.752	 -7.926	-175.789	 -9.099	 41.546
    6.200000000	 -6.319	132.592	 -7.729	170.906	 -7.742	170.912	-10.165	 31.624
    6.300000000	 -6.601	123.812	 -7.523	157.400	 -7.542	157.371	-11.541	 20.817
    6.400000000	 -7.065	115.600	 -7.319	143.750	 -7.332	143.695	-13.324	  8.680
    6.500000000	 -7.630	108.214	 -7.122	129.965	 -7.132	129.943	-15.680	 -5.541
    6.600000000	 -8.249	101.500	 -6.959	116.044	 -6.977	116.004	-18.846	-22.643
    6.700000000	 -8.942	 94.947	 -6.822	102.124	 -6.836	102.091	-23.147	-46.441
    6.800000000	 -9.663	 88.949	 -6.714	 88.147	 -6.734	 88.216	-28.327	-92.234
    6.900000000	-10.361	 83.454	 -6.641	 74.398	 -6.665	 74.466	-28.181	-161.680
    7.000000000	-11.024	 77.458	 -6.594	 60.801	 -6.618	 60.854	-24.862	157.270
    7.100000000	-11.664	 71.272	 -6.564	 47.293	 -6.589	 47.358	-22.463	132.109
    7.200000000	-12.249	 64.934	 -6.548	 33.977	 -6.575	 34.059	-20.856	111.799
    7.300000000	-12.747	 58.118	 -6.543	 20.840	 -6.569	 20.901	-19.632	 93.192
    7.400000000	-13.173	 50.675	 -6.551	  7.864	 -6.572	  7.916	-18.638	 74.916
    7.500000000	-13.517	 43.003	 -6.557	 -4.963	 -6.579	 -4.947	-17.795	 57.925
    7.600000000	-13.700	 34.997	 -6.577	-17.672	 -6.596	-17.606	-16.926	 42.648
    7.700000000	-13.789	 26.737	 -6.585	-30.163	 -6.617	-30.112	-16.065	 28.536
    7.800000000	-13.824	 18.375	 -6.600	-42.505	 -6.626	-42.462	-15.362	 15.883
    7.900000000	-13.861	 10.264	 -6.609	-54.713	 -6.638	-54.634	-14.780	  5.101
    8.000000000	-13.843	  2.134	 -6.609	-66.771	 -6.640	-66.714	-14.318	 -4.173
    8.100000000	-13.973	 -5.971	 -6.601	-78.743	 -6.627	-78.671	-14.079	-13.172
    8.200000000	-14.221	-13.897	 -6.580	-90.657	 -6.613	-90.577	-14.124	-21.224
    8.300000000	-14.640	-21.276	 -6.555	-102.523	 -6.582	-102.417	-14.445	-28.340
    8.400000000	-15.267	-28.714	 -6.519	-114.416	 -6.552	-114.324	-15.061	-35.174
    8.500000000	-16.313	-35.748	 -6.482	-126.344	 -6.513	-126.264	-16.100	-41.825
    8.600000000	-17.695	-41.682	 -6.450	-138.297	 -6.477	-138.216	-17.727	-47.152
    8.700000000	-19.478	-46.182	 -6.429	-150.299	 -6.457	-150.230	-19.950	-51.766
    8.800000000	-21.797	-49.543	 -6.418	-162.304	 -6.443	-162.275	-23.154	-54.845
    8.900000000	-24.801	-48.692	 -6.420	-174.341	 -6.454	-174.283	-28.837	-53.115
    9.000000000	-28.096	-41.114	 -6.433	173.656	 -6.465	173.760	-39.521	-19.799
    9.100000000	-31.113	-28.145	 -6.464	161.789	 -6.492	161.836	-33.450	 85.177
    9.200000000	-34.058	-18.051	 -6.495	149.932	 -6.521	150.003	-27.324	100.848
    9.300000000	-38.909	-16.788	 -6.528	138.146	 -6.555	138.202	-24.247	104.595
    9.400000000	-45.616	-115.990	 -6.558	126.389	 -6.597	126.470	-21.989	109.929
    9.500000000	-32.035	-162.672	 -6.614	114.689	 -6.645	114.736	-20.135	116.273
    9.600000000	-26.032	-174.217	 -6.669	103.024	 -6.701	103.129	-18.393	120.705
    9.700000000	-21.934	179.222	 -6.730	 91.502	 -6.761	 91.579	-16.624	122.815
    9.800000000	-18.947	172.033	 -6.805	 80.056	 -6.837	 80.132	-15.104	124.084
    9.900000000	-16.812	164.983	 -6.896	 68.718	 -6.925	 68.786	-13.814	123.548
   10.000000000	-16.515	150.515	 -6.939	 57.148	 -6.969	 57.285	-13.433	122.461
   10.100000000	-15.437	141.911	 -7.021	 45.992	 -7.055	 46.084	-12.718	119.855
   10.200000000	-14.454	134.256	 -7.104	 34.968	 -7.131	 35.054	-12.168	116.015
   10.300000000	-13.934	126.662	 -7.188	 24.094	 -7.221	 24.190	-11.744	112.070
   10.400000000	-13.567	119.485	 -7.254	 13.343	 -7.293	 13.409	-11.532	107.594
   10.500000000	-13.501	113.145	 -7.327	  2.704	 -7.357	  2.771	-11.370	102.172
   10.600000000	-13.630	106.646	 -7.382	 -7.885	 -7.414	 -7.777	-11.421	 97.401
   10.700000000	-14.060	100.603	 -7.443	-18.284	 -7.462	-18.337	-11.540	 91.582
   10.800000000	-14.676	 95.341	 -7.482	-28.825	 -7.501	-28.876	-11.693	 85.911
   10.900000000	-15.710	 90.022	 -7.518	-39.367	 -7.536	-39.434	-11.950	 79.737
   11.000000000	-17.011	 85.997	 -7.556	-49.944	 -7.577	-49.989	-12.156	 73.600
   11.100000000	-19.034	 82.059	 -7.587	-60.543	 -7.606	-60.589	-12.324	 67.112
   11.200000000	-21.828	 82.140	 -7.619	-71.168	 -7.642	-71.226	-12.467	 60.944
   11.300000000	-26.408	 91.315	 -7.658	-81.855	 -7.678	-81.897	-12.501	 54.936
   11.400000000	-31.340	139.157	 -7.702	-92.536	 -7.718	-92.591	-12.439	 49.039
   11.500000000	-26.026	-170.602	 -7.755	-103.232	 -7.769	-103.288	-12.321	 43.365
   11.600000000	-21.153	-161.674	 -7.810	-113.911	 -7.827	-113.963	-12.114	 38.056
   11.700000000	-17.806	-161.867	 -7.874	-124.549	 -7.895	-124.644	-11.846	 32.808
   11.800000000	-15.379	-165.350	 -7.948	-135.191	 -7.963	-135.252	-11.573	 27.782
   11.900000000	-13.595	-170.533	 -8.025	-145.718	 -8.043	-145.779	-11.301	 22.942
   12.000000000	-12.236	-175.810	 -8.108	-156.181	 -8.124	-156.246	-11.052	 18.246
   12.100000000	-11.144	178.528	 -8.184	-166.637	 -8.203	-166.695	-10.893	 13.358
   12.200000000	-10.295	172.744	 -8.262	-176.965	 -8.281	-177.055	-10.752	  8.524
   12.300000000	 -9.682	166.513	 -8.334	172.694	 -8.350	172.629	-10.732	  3.792
   12.400000000	 -9.212	160.663	 -8.401	162.407	 -8.417	162.346	-10.783	 -1.075
   12.500000000	 -8.889	154.442	 -8.449	152.135	 -8.465	152.033	-10.966	 -5.906
   12.600000000	 -8.650	148.258	 -8.490	141.800	 -8.504	141.731	-11.210	-10.753
   12.700000000	 -8.566	141.915	 -8.516	131.419	 -8.531	131.346	-11.598	-15.654
   12.800000000	 -8.510	135.510	 -8.533	120.980	 -8.553	120.915	-12.081	-20.656
   12.900000000	 -8.511	128.681	 -8.542	110.490	 -8.559	110.454	-12.661	-25.453
   13.000000000	 -8.572	121.892	 -8.543	 99.940	 -8.566	 99.829	-13.369	-30.387
   13.100000000	 -8.645	114.945	 -8.550	 89.269	 -8.565	 89.206	-14.162	-35.117
   13.200000000	 -8.674	107.927	 -8.561	 78.598	 -8.569	 78.555	-15.047	-39.525
   13.300000000	 -8.711	100.572	 -8.553	 67.931	 -8.563	 67.851	-16.006	-43.623
   13.400000000	 -8.688	 93.418	 -8.543	 57.179	 -8.558	 57.097	-17.066	-47.162
   13.500000000	 -8.614	 86.095	 -8.544	 46.365	 -8.558	 46.265	-18.098	-48.342
   13.600000000	 -8.457	 78.830	 -8.555	 35.521	 -8.571	 35.383	-19.216	-48.427
   13.700000000	 -8.301	 71.896	 -8.577	 24.636	 -8.593	 24.549	-20.046	-44.902
   13.800000000	 -8.045	 65.408	 -8.611	 13.743	 -8.626	 13.694	-20.563	-37.556
   13.900000000	 -7.732	 59.663	 -8.660	  2.888	 -8.676	  2.813	-20.225	-28.872
   14.000000000	 -7.386	 53.724	 -8.736	 -7.964	 -8.747	 -8.023	-19.124	-20.184
   14.100000000	 -7.019	 48.795	 -8.821	-18.686	 -8.830	-18.792	-17.484	-15.566
   14.200000000	 -6.638	 43.813	 -8.922	-29.383	 -8.938	-29.436	-15.842	-14.262
   14.300000000	 -6.250	 39.376	 -9.039	-39.870	 -9.056	-39.962	-14.298	-14.938
   14.400000000	 -5.916	 35.105	 -9.168	-50.225	 -9.181	-50.291	-12.959	-17.361
   14.500000000	 -5.581	 31.128	 -9.302	-60.355	 -9.312	-60.466	-11.835	-21.465
   14.600000000	 -5.380	 27.182	 -9.406	-70.256	 -9.423	-70.387	-10.945	-25.627
   14.700000000	 -5.166	 23.850	 -9.515	-79.945	 -9.525	-80.054	-10.313	-30.640
   14.800000000	 -5.105	 20.480	 -9.576	-89.459	 -9.594	-89.556	 -9.801	-36.028
   14.900000000	 -5.074	 17.008	 -9.610	-98.848	 -9.625	-98.923	 -9.572	-41.389
   15.000000000	 -5.161	 14.478	 -9.604	-108.094	 -9.618	-108.139	 -9.512	-47.430
   15.100000000	 -5.335	 11.301	 -9.561	-117.278	 -9.574	-117.351	 -9.609	-53.874
   15.200000000	 -5.644	  8.661	 -9.468	-126.535	 -9.485	-126.617	 -9.906	-61.146
   15.300000000	 -6.030	  5.926	 -9.358	-135.869	 -9.375	-135.978	-10.403	-68.779
   15.400000000	 -6.528	  2.919	 -9.232	-145.389	 -9.246	-145.471	-11.022	-77.634
   15.500000000	 -7.208	 -0.042	 -9.073	-155.046	 -9.097	-155.118	-11.764	-87.634
   15.600000000	 -7.978	 -3.440	 -8.931	-164.909	 -8.949	-164.958	-12.650	-99.516
   15.700000000	 -8.895	 -7.638	 -8.788	-174.961	 -8.811	-175.017	-13.498	-113.052
   15.800000000	 -9.981	-13.036	 -8.676	174.778	 -8.695	174.759	-14.129	-128.469
   15.900000000	-11.176	-19.253	 -8.574	164.456	 -8.599	164.388	-14.439	-144.698
   16.000000000	-12.480	-28.097	 -8.505	153.932	 -8.522	153.920	-14.271	-161.613
   16.100000000	-13.771	-40.028	 -8.461	143.369	 -8.487	143.403	-13.732	-175.310
   16.200000000	-14.906	-54.356	 -8.434	132.869	 -8.463	132.877	-13.138	171.852
   16.300000000	-15.546	-71.063	 -8.429	122.376	 -8.459	122.366	-12.382	161.717
   16.400000000	-15.608	-87.653	 -8.430	111.936	 -8.460	111.946	-11.790	152.997
   16.500000000	-15.304	-103.031	 -8.430	101.547	 -8.464	101.586	-11.273	144.889
   16.600000000	-14.903	-113.810	 -8.425	 91.279	 -8.454	 91.318	-10.968	137.958
   16.700000000	-14.299	-123.819	 -8.412	 81.085	 -8.443	 81.085	-10.857	130.912
   16.800000000	-14.320	-129.104	 -8.379	 70.999	 -8.408	 71.077	-10.741	125.509
   16.900000000	-14.134	-135.336	 -8.319	 60.860	 -8.349	 60.909	-11.301	119.115
   17.000000000	-14.451	-136.955	 -8.242	 50.773	 -8.271	 50.809	-11.710	111.969
   17.100000000	-14.892	-142.221	 -8.150	 40.568	 -8.179	 40.625	-12.679	106.361
   17.200000000	-15.330	-141.079	 -8.055	 30.257	 -8.089	 30.308	-13.806	 96.578
   17.300000000	-16.696	-142.427	 -7.960	 19.951	 -7.985	 19.997	-15.033	 88.215
   17.400000000	-17.875	-140.944	 -7.862	  9.481	 -7.890	  9.504	-16.711	 76.528
   17.500000000	-19.982	-140.006	 -7.778	 -1.051	 -7.800	 -1.049	-18.130	 62.322
   17.600000000	-22.954	-136.614	 -7.696	-11.730	 -7.725	-11.720	-19.130	 44.072
   17.700000000	-28.517	-124.152	 -7.642	-22.538	 -7.667	-22.512	-19.097	 25.314
   17.800000000	-34.004	-46.338	 -7.596	-33.414	 -7.628	-33.424	-18.284	 10.804
   17.900000000	-25.087	  1.172	 -7.572	-44.424	 -7.599	-44.404	-17.082	  0.936
   18.000000000	-20.101	  9.580	 -7.568	-55.431	 -7.588	-55.431	-15.706	 -6.200
   18.100000000	-16.603	  9.162	 -7.579	-66.501	 -7.602	-66.521	-14.508	-11.097
   18.200000000	-14.294	  7.808	 -7.596	-77.523	 -7.626	-77.532	-13.514	-14.648
   18.300000000	-12.716	  4.746	 -7.626	-88.438	 -7.651	-88.480	-12.644	-17.127
   18.400000000	-11.534	  2.470	 -7.646	-99.349	 -7.675	-99.308	-12.069	-19.815
   18.500000000	-10.891	 -0.346	 -7.656	-110.098	 -7.681	-110.057	-11.769	-22.100
   18.600000000	-10.488	 -2.580	 -7.646	-120.799	 -7.678	-120.792	-11.689	-23.588
   18.700000000	-10.485	 -4.301	 -7.615	-131.491	 -7.642	-131.467	-11.888	-23.856
   18.800000000	-10.773	 -5.066	 -7.571	-142.238	 -7.601	-142.257	-12.213	-23.609
   18.900000000	-11.311	 -4.978	 -7.522	-153.097	 -7.547	-153.094	-12.652	-22.236
   19.000000000	-12.105	 -2.884	 -7.466	-164.045	 -7.493	-164.073	-13.184	-18.095
   19.100000000	-12.907	  0.210	 -7.430	-175.154	 -7.462	-175.060	-13.480	-13.902
   19.200000000	-14.005	  6.593	 -7.402	173.779	 -7.438	173.873	-13.533	-11.003
   19.300000000	-14.822	 11.827	 -7.380	162.623	 -7.419	162.701	-13.625	 -7.490
   19.400000000	-15.581	 21.413	 -7.370	151.371	 -7.406	151.459	-13.660	 -7.994
   19.500000000	-16.765	 28.036	 -7.358	139.964	 -7.396	140.064	-13.685	 -9.591
   19.600000000	-17.089	 35.923	 -7.365	128.309	 -7.397	128.407	-14.168	-13.047
   19.700000000	-17.765	 44.462	 -7.380	116.524	 -7.413	116.630	-14.679	-19.152
   19.800000000	-18.378	 50.344	 -7.402	104.530	 -7.441	104.596	-15.654	-26.644
   19.900000000	-19.113	 57.844	 -7.448	 92.245	 -7.474	 92.339	-16.844	-37.757
   20.000000000	-19.356	 62.341	 -7.500	 79.893	 -7.538	 79.961	-18.142	-50.600
