! Date: Wednesday, June 05, 2013  1:51 PM
! Filename: C:\Data\Mike_Arnold\TGP2105-SM\Over_Temp\TGP2105-SM_EVB01_25C_Phase30.s2p 
! Comments: 
!^VDC(V):5.000
!^VDC(mA):0.135
!%Freq(GHz),S11(dB),S11(ang),S21(dB),S21(ang),S12(dB),S12(ang),S22(dB),S22(ang)
# GHz   S   DB   R   50
    5.000000000	-11.331	116.969	 -6.440	-60.993	 -6.457	-61.049	-10.334	-156.032
    5.100000000	-11.691	114.638	 -6.339	-78.476	 -6.361	-78.490	 -9.451	-162.637
    5.200000000	-11.946	111.038	 -6.279	-95.195	 -6.297	-95.222	 -8.818	-170.863
    5.300000000	-12.297	105.454	 -6.222	-111.312	 -6.238	-111.310	 -8.423	179.841
    5.400000000	-12.946	 98.393	 -6.155	-126.911	 -6.171	-126.962	 -8.289	170.647
    5.500000000	-14.081	 91.295	 -6.077	-142.190	 -6.093	-142.190	 -8.372	161.806
    5.600000000	-15.691	 84.437	 -5.999	-157.169	 -6.017	-157.172	 -8.603	153.885
    5.700000000	-18.187	 78.851	 -5.930	-172.032	 -5.947	-172.054	 -9.023	146.713
    5.800000000	-22.472	 79.473	 -5.871	173.321	 -5.890	173.287	 -9.559	140.960
    5.900000000	-28.103	116.177	 -5.846	158.849	 -5.859	158.835	-10.163	136.883
    6.000000000	-24.107	167.789	 -5.857	144.663	 -5.872	144.611	-10.711	133.733
    6.100000000	-19.212	174.674	 -5.905	130.877	 -5.922	130.833	-11.198	131.227
    6.200000000	-16.099	168.804	 -5.976	117.809	 -5.988	117.792	-11.669	128.800
    6.300000000	-14.388	159.116	 -5.961	105.520	 -5.976	105.482	-12.312	126.379
    6.400000000	-13.664	151.435	 -5.794	 92.915	 -5.807	 92.884	-12.924	125.821
    6.500000000	-13.029	145.413	 -5.659	 79.604	 -5.673	 79.597	-13.170	124.995
    6.600000000	-12.468	138.119	 -5.599	 66.360	 -5.614	 66.333	-13.358	121.206
    6.700000000	-12.281	129.640	 -5.561	 53.369	 -5.576	 53.320	-13.863	115.025
    6.800000000	-12.384	120.757	 -5.509	 40.408	 -5.533	 40.475	-14.745	107.301
    6.900000000	-12.728	112.009	 -5.468	 27.647	 -5.489	 27.696	-16.054	 98.376
    7.000000000	-13.353	102.839	 -5.432	 14.890	 -5.454	 14.906	-17.909	 86.991
    7.100000000	-14.214	 94.029	 -5.396	  2.114	 -5.420	  2.168	-20.573	 72.061
    7.200000000	-15.240	 85.853	 -5.380	-10.628	 -5.403	-10.589	-24.213	 48.968
    7.300000000	-16.339	 78.037	 -5.377	-23.305	 -5.405	-23.268	-27.863	  7.617
    7.400000000	-17.475	 70.695	 -5.388	-35.939	 -5.416	-35.862	-27.062	-46.292
    7.500000000	-18.596	 64.453	 -5.418	-48.420	 -5.445	-48.401	-23.855	-79.288
    7.600000000	-19.408	 58.694	 -5.457	-60.821	 -5.485	-60.788	-21.539	-98.544
    7.700000000	-20.001	 53.299	 -5.504	-73.062	 -5.530	-73.021	-20.036	-112.496
    7.800000000	-20.266	 48.763	 -5.555	-85.204	 -5.580	-85.138	-19.010	-125.484
    7.900000000	-20.333	 45.052	 -5.605	-97.235	 -5.633	-97.189	-18.500	-138.951
    8.000000000	-20.092	 41.289	 -5.659	-109.168	 -5.688	-109.139	-18.336	-153.515
    8.100000000	-19.762	 38.670	 -5.722	-121.034	 -5.749	-120.941	-18.185	-168.850
    8.200000000	-19.296	 36.442	 -5.788	-132.822	 -5.817	-132.740	-17.904	173.588
    8.300000000	-18.662	 34.921	 -5.862	-144.542	 -5.885	-144.421	-17.413	154.547
    8.400000000	-17.966	 32.501	 -5.937	-156.156	 -5.964	-156.058	-16.675	136.477
    8.500000000	-17.352	 30.663	 -6.014	-167.661	 -6.043	-167.593	-15.695	120.139
    8.600000000	-16.675	 27.626	 -6.093	-179.085	 -6.130	-178.973	-14.616	105.422
    8.700000000	-16.119	 23.490	 -6.176	169.639	 -6.204	169.729	-13.699	 93.083
    8.800000000	-15.812	 18.162	 -6.239	158.396	 -6.274	158.453	-12.970	 82.355
    8.900000000	-15.730	 12.156	 -6.305	147.239	 -6.333	147.339	-12.378	 73.531
    9.000000000	-15.884	  5.023	 -6.343	136.124	 -6.370	136.207	-12.077	 65.319
    9.100000000	-16.371	 -3.701	 -6.367	125.021	 -6.397	125.083	-11.957	 58.336
    9.200000000	-17.350	-14.324	 -6.372	113.822	 -6.406	113.934	-12.124	 52.965
    9.300000000	-18.730	-27.316	 -6.370	102.590	 -6.401	102.659	-12.453	 47.750
    9.400000000	-20.508	-45.413	 -6.365	 91.253	 -6.392	 91.308	-12.969	 44.183
    9.500000000	-22.351	-72.695	 -6.356	 79.797	 -6.384	 79.860	-13.758	 41.552
    9.600000000	-23.092	-106.960	 -6.355	 68.320	 -6.392	 68.388	-14.604	 39.863
    9.700000000	-21.730	-138.341	 -6.367	 56.836	 -6.401	 56.897	-15.443	 39.253
    9.800000000	-19.737	-160.326	 -6.392	 45.368	 -6.425	 45.405	-16.480	 38.836
    9.900000000	-18.070	-174.621	 -6.422	 33.893	 -6.451	 33.969	-17.563	 37.460
   10.000000000	-18.179	171.711	 -6.452	 22.233	 -6.484	 22.317	-18.682	 28.320
   10.100000000	-17.346	162.385	 -6.490	 10.813	 -6.519	 10.899	-19.879	 19.547
   10.200000000	-16.344	155.536	 -6.531	 -0.594	 -6.566	 -0.511	-20.810	  7.203
   10.300000000	-15.755	150.463	 -6.580	-11.920	 -6.611	-11.858	-21.704	-10.528
   10.400000000	-15.100	146.525	 -6.626	-23.219	 -6.663	-23.180	-21.694	-33.006
   10.500000000	-14.549	144.000	 -6.683	-34.488	 -6.717	-34.390	-20.883	-53.563
   10.600000000	-13.984	141.205	 -6.747	-45.726	 -6.779	-45.642	-19.360	-73.858
   10.700000000	-13.516	138.814	 -6.824	-56.825	 -6.846	-56.848	-17.803	-88.242
   10.800000000	-12.976	136.378	 -6.898	-68.000	 -6.920	-68.029	-16.426	-100.766
   10.900000000	-12.625	133.561	 -6.977	-79.097	 -7.002	-79.156	-15.192	-110.816
   11.000000000	-12.238	130.397	 -7.059	-90.186	 -7.081	-90.203	-14.277	-120.141
   11.100000000	-12.073	126.967	 -7.140	-101.214	 -7.162	-101.224	-13.610	-128.444
   11.200000000	-11.915	123.558	 -7.216	-112.210	 -7.239	-112.237	-13.107	-136.515
   11.300000000	-11.926	120.070	 -7.286	-123.179	 -7.307	-123.208	-12.790	-144.494
   11.400000000	-12.034	116.383	 -7.355	-134.121	 -7.377	-134.169	-12.620	-152.229
   11.500000000	-12.237	113.072	 -7.417	-145.097	 -7.436	-145.136	-12.535	-159.871
   11.600000000	-12.587	109.364	 -7.473	-156.054	 -7.493	-156.086	-12.529	-167.523
   11.700000000	-13.116	106.077	 -7.521	-166.994	 -7.537	-167.045	-12.583	-175.279
   11.800000000	-13.773	103.267	 -7.569	-177.961	 -7.585	-178.024	-12.605	177.171
   11.900000000	-14.550	100.562	 -7.615	171.070	 -7.632	171.038	-12.599	169.539
   12.000000000	-15.629	 98.329	 -7.656	160.064	 -7.676	160.033	-12.523	161.896
   12.100000000	-17.021	 97.670	 -7.699	149.042	 -7.722	148.988	-12.366	154.934
   12.200000000	-18.713	 99.801	 -7.744	138.009	 -7.760	137.947	-12.159	148.053
   12.300000000	-20.527	105.373	 -7.797	126.969	 -7.813	126.911	-11.848	141.443
   12.400000000	-22.268	119.101	 -7.847	115.869	 -7.867	115.847	-11.513	135.208
   12.500000000	-22.728	138.034	 -7.905	104.811	 -7.924	104.769	-11.117	129.415
   12.600000000	-21.390	154.254	 -7.966	 93.746	 -7.986	 93.700	-10.718	123.681
   12.700000000	-19.666	162.013	 -8.030	 82.696	 -8.052	 82.643	-10.329	118.380
   12.800000000	-17.847	163.201	 -8.097	 71.690	 -8.115	 71.614	 -9.995	113.296
   12.900000000	-16.411	159.900	 -8.168	 60.689	 -8.186	 60.645	 -9.694	108.201
   13.000000000	-15.272	154.710	 -8.228	 49.763	 -8.249	 49.683	 -9.453	103.456
   13.100000000	-14.349	148.023	 -8.288	 38.819	 -8.314	 38.761	 -9.270	 98.748
   13.200000000	-13.521	139.944	 -8.355	 27.988	 -8.375	 27.912	 -9.153	 94.120
   13.300000000	-12.913	130.908	 -8.411	 17.195	 -8.423	 17.150	 -9.095	 89.517
   13.400000000	-12.301	121.693	 -8.459	  6.479	 -8.474	  6.404	 -9.116	 84.982
   13.500000000	-11.736	111.777	 -8.509	 -4.282	 -8.524	 -4.380	 -9.162	 79.894
   13.600000000	-11.166	101.550	 -8.561	-15.043	 -8.573	-15.062	 -9.287	 74.948
   13.700000000	-10.659	 91.924	 -8.610	-25.717	 -8.627	-25.795	 -9.464	 69.395
   13.800000000	-10.127	 82.613	 -8.670	-36.359	 -8.693	-36.398	 -9.667	 63.697
   13.900000000	 -9.569	 74.246	 -8.743	-46.962	 -8.755	-47.026	 -9.915	 57.353
   14.000000000	 -9.084	 65.919	 -8.820	-57.456	 -8.830	-57.570	-10.151	 50.825
   14.100000000	 -8.626	 58.994	 -8.895	-67.929	 -8.909	-68.009	-10.429	 43.747
   14.200000000	 -8.227	 52.455	 -8.969	-78.305	 -8.987	-78.400	-10.759	 36.827
   14.300000000	 -7.881	 47.021	 -9.046	-88.626	 -9.061	-88.686	-11.094	 30.305
   14.400000000	 -7.626	 42.294	 -9.115	-98.808	 -9.126	-98.896	-11.449	 24.351
   14.500000000	 -7.377	 38.383	 -9.175	-109.064	 -9.189	-109.090	-11.912	 18.615
   14.600000000	 -7.297	 35.167	 -9.215	-119.139	 -9.224	-119.256	-12.378	 14.699
   14.700000000	 -7.147	 33.222	 -9.245	-129.307	 -9.260	-129.388	-12.980	 12.327
   14.800000000	 -7.149	 31.786	 -9.255	-139.469	 -9.269	-139.542	-13.530	 11.371
   14.900000000	 -7.108	 30.603	 -9.266	-149.625	 -9.280	-149.694	-14.038	 13.612
   15.000000000	 -7.065	 30.925	 -9.269	-159.764	 -9.281	-159.885	-14.366	 17.792
   15.100000000	 -7.046	 30.687	 -9.270	-169.958	 -9.284	-170.034	-14.354	 23.051
   15.200000000	 -7.032	 31.167	 -9.263	179.910	 -9.278	179.795	-14.047	 28.295
   15.300000000	 -6.991	 31.278	 -9.268	169.777	 -9.284	169.751	-13.426	 32.459
   15.400000000	 -6.987	 30.826	 -9.277	159.740	 -9.294	159.653	-12.774	 34.686
   15.500000000	 -7.073	 30.320	 -9.268	149.733	 -9.293	149.705	-12.153	 35.204
   15.600000000	 -7.201	 28.881	 -9.273	139.826	 -9.295	139.764	-11.654	 35.160
   15.700000000	 -7.459	 26.725	 -9.265	129.903	 -9.287	129.863	-11.308	 34.033
   15.800000000	 -7.872	 23.587	 -9.241	119.919	 -9.262	119.884	-11.171	 32.431
   15.900000000	 -8.360	 19.920	 -9.213	109.897	 -9.232	109.881	-11.158	 30.409
   16.000000000	 -9.021	 14.775	 -9.170	 99.739	 -9.187	 99.704	-11.325	 28.870
   16.100000000	 -9.834	  8.082	 -9.120	 89.345	 -9.151	 89.307	-11.675	 26.162
   16.200000000	-10.702	  0.207	 -9.086	 78.819	 -9.118	 78.813	-12.030	 23.753
   16.300000000	-11.569	 -9.615	 -9.062	 68.136	 -9.083	 68.172	-12.665	 20.780
   16.400000000	-12.292	-21.352	 -9.042	 57.354	 -9.067	 57.385	-13.360	 16.645
   16.500000000	-12.880	-34.464	 -9.027	 46.525	 -9.065	 46.516	-14.180	 12.281
   16.600000000	-12.979	-47.198	 -9.027	 35.624	 -9.059	 35.652	-15.215	  5.433
   16.700000000	-12.881	-61.067	 -9.040	 24.715	 -9.072	 24.743	-16.264	 -2.587
   16.800000000	-12.481	-69.859	 -9.052	 13.903	 -9.081	 13.952	-18.155	-13.818
   16.900000000	-12.131	-80.549	 -9.071	  3.112	 -9.102	  3.136	-18.870	-31.620
   17.000000000	-11.660	-86.466	 -9.085	 -7.466	 -9.121	 -7.457	-20.046	-47.225
   17.100000000	-11.632	-94.036	 -9.100	-18.017	 -9.127	-18.016	-20.018	-69.770
   17.200000000	-11.279	-98.882	 -9.109	-28.559	 -9.138	-28.531	-19.781	-82.263
   17.300000000	-11.619	-102.363	 -9.089	-38.934	 -9.120	-38.897	-19.792	-96.430
   17.400000000	-11.868	-105.691	 -9.067	-49.313	 -9.100	-49.333	-19.414	-105.153
   17.500000000	-12.598	-108.074	 -9.019	-59.821	 -9.047	-59.801	-19.723	-110.993
   17.600000000	-13.578	-109.152	 -8.969	-70.391	 -8.991	-70.407	-20.309	-112.265
   17.700000000	-14.966	-108.320	 -8.912	-81.206	 -8.930	-81.195	-21.314	-109.117
   17.800000000	-16.651	-104.206	 -8.856	-92.213	 -8.879	-92.177	-22.569	-101.687
   17.900000000	-18.542	-94.093	 -8.812	-103.394	 -8.838	-103.395	-23.748	-88.206
   18.000000000	-20.504	-78.446	 -8.779	-114.779	 -8.804	-114.762	-23.924	-69.112
   18.100000000	-20.946	-54.891	 -8.770	-126.279	 -8.793	-126.283	-23.400	-52.093
   18.200000000	-20.134	-34.084	 -8.772	-137.925	 -8.801	-137.938	-22.723	-37.225
   18.300000000	-18.737	-21.374	 -8.801	-149.612	 -8.831	-149.614	-21.550	-22.166
   18.400000000	-17.352	-10.739	 -8.855	-161.352	 -8.884	-161.357	-20.398	 -9.549
   18.500000000	-16.349	 -4.542	 -8.928	-173.020	 -8.959	-172.975	-18.998	  1.566
   18.600000000	-15.372	  0.507	 -9.036	175.459	 -9.067	175.502	-17.299	 10.074
   18.700000000	-14.796	  4.365	 -9.172	164.230	 -9.199	164.231	-15.600	 15.486
   18.800000000	-14.543	  7.981	 -9.318	153.491	 -9.348	153.473	-14.154	 16.165
   18.900000000	-14.604	 12.279	 -9.427	143.456	 -9.457	143.398	-13.190	 14.005
   19.000000000	-14.767	 19.649	 -9.388	133.838	 -9.416	133.826	-12.818	 11.559
   19.100000000	-14.485	 26.378	 -9.175	123.723	 -9.211	123.872	-13.140	  8.999
   19.200000000	-14.147	 33.509	 -8.890	112.574	 -8.930	112.665	-14.022	  7.920
   19.300000000	-14.074	 34.539	 -8.654	100.318	 -8.695	100.397	-15.290	 13.337
   19.400000000	-14.322	 38.843	 -8.519	 87.502	 -8.559	 87.613	-16.708	 22.018
   19.500000000	-15.567	 43.123	 -8.454	 74.457	 -8.495	 74.524	-17.084	 37.499
   19.600000000	-16.053	 51.188	 -8.456	 61.256	 -8.499	 61.342	-16.390	 53.951
   19.700000000	-16.366	 62.631	 -8.498	 47.937	 -8.540	 48.026	-14.831	 62.635
   19.800000000	-16.068	 70.365	 -8.575	 34.581	 -8.612	 34.650	-13.231	 66.226
   19.900000000	-15.556	 75.442	 -8.673	 21.096	 -8.708	 21.216	-12.009	 65.581
   20.000000000	-14.949	 75.038	 -8.794	  7.621	 -8.832	  7.712	-11.050	 62.089
