! Date: Wednesday, June 05, 2013  1:51 PM
! Filename: C:\Data\Mike_Arnold\TGP2105-SM\Over_Temp\TGP2105-SM_EVB01_25C_Phase35.s2p 
! Comments: 
!^VDC(V):5.000
!^VDC(mA):0.032
!%Freq(GHz),S11(dB),S11(ang),S21(dB),S21(ang),S12(dB),S12(ang),S22(dB),S22(ang)
# GHz   S   DB   R   50
    5.000000000	-16.080	-157.687	 -8.063	-36.243	 -8.074	-36.301	 -8.320	 95.740
    5.100000000	-12.685	-162.411	 -8.207	-53.184	 -8.221	-53.219	 -8.400	 93.962
    5.200000000	-10.266	-171.154	 -8.397	-69.407	 -8.412	-69.413	 -8.348	 91.969
    5.300000000	 -8.595	178.783	 -8.618	-84.787	 -8.633	-84.844	 -8.159	 89.397
    5.400000000	 -7.427	168.599	 -8.821	-99.344	 -8.841	-99.392	 -7.982	 85.588
    5.500000000	 -6.597	158.858	 -8.967	-113.031	 -8.986	-113.089	 -7.864	 81.016
    5.600000000	 -6.023	149.269	 -9.001	-126.271	 -9.015	-126.301	 -7.828	 76.249
    5.700000000	 -5.639	140.184	 -8.953	-139.692	 -8.966	-139.740	 -7.754	 70.417
    5.800000000	 -5.418	131.657	 -8.896	-153.018	 -8.915	-153.064	 -7.807	 63.012
    5.900000000	 -5.277	123.313	 -8.807	-166.085	 -8.821	-166.115	 -8.091	 54.345
    6.000000000	 -5.264	114.918	 -8.666	-179.059	 -8.681	-179.123	 -8.583	 44.668
    6.100000000	 -5.409	106.694	 -8.466	167.844	 -8.486	167.797	 -9.319	 33.695
    6.200000000	 -5.651	 98.897	 -8.244	154.625	 -8.259	154.550	-10.358	 21.205
    6.300000000	 -5.969	 91.263	 -8.012	141.143	 -8.025	141.089	-11.672	  6.951
    6.400000000	 -6.412	 83.642	 -7.781	127.428	 -7.798	127.372	-13.292	 -9.936
    6.500000000	 -6.942	 76.528	 -7.568	113.577	 -7.585	113.542	-15.144	-30.764
    6.600000000	 -7.494	 69.903	 -7.393	 99.601	 -7.406	 99.535	-17.050	-56.744
    6.700000000	 -8.073	 63.002	 -7.257	 85.650	 -7.272	 85.607	-18.388	-87.142
    6.800000000	 -8.644	 56.206	 -7.139	 71.581	 -7.161	 71.673	-18.720	-119.317
    6.900000000	 -9.207	 49.576	 -7.060	 57.860	 -7.089	 57.885	-18.241	-147.658
    7.000000000	 -9.700	 42.326	 -7.010	 44.197	 -7.032	 44.279	-17.738	-171.191
    7.100000000	-10.159	 34.627	 -6.972	 30.761	 -6.998	 30.799	-17.349	168.803
    7.200000000	-10.596	 26.732	 -6.941	 17.426	 -6.970	 17.468	-17.160	150.551
    7.300000000	-10.968	 18.506	 -6.922	  4.277	 -6.946	  4.343	-17.082	132.426
    7.400000000	-11.280	  9.949	 -6.904	 -8.727	 -6.931	 -8.691	-17.171	114.405
    7.500000000	-11.575	  1.299	 -6.894	-21.630	 -6.919	-21.575	-17.257	 96.414
    7.600000000	-11.789	 -7.011	 -6.883	-34.369	 -6.909	-34.312	-17.161	 78.505
    7.700000000	-12.010	-15.384	 -6.874	-46.964	 -6.900	-46.892	-16.929	 60.842
    7.800000000	-12.224	-23.615	 -6.856	-59.419	 -6.888	-59.374	-16.650	 45.056
    7.900000000	-12.535	-31.723	 -6.839	-71.791	 -6.872	-71.731	-16.278	 31.101
    8.000000000	-12.876	-39.656	 -6.823	-84.065	 -6.849	-83.994	-15.956	 19.477
    8.100000000	-13.403	-47.886	 -6.792	-96.246	 -6.823	-96.162	-15.867	  9.188
    8.200000000	-14.109	-56.326	 -6.760	-108.406	 -6.790	-108.327	-16.032	  0.912
    8.300000000	-15.107	-64.923	 -6.723	-120.528	 -6.751	-120.435	-16.440	 -4.870
    8.400000000	-16.416	-73.925	 -6.692	-132.697	 -6.722	-132.624	-17.166	 -8.945
    8.500000000	-18.283	-84.508	 -6.662	-144.865	 -6.693	-144.767	-18.230	-10.517
    8.600000000	-20.835	-96.050	 -6.649	-157.014	 -6.679	-156.936	-19.494	 -7.139
    8.700000000	-24.428	-110.629	 -6.645	-169.184	 -6.673	-169.101	-20.719	 -0.029
    8.800000000	-29.144	-135.818	 -6.659	178.722	 -6.690	178.798	-21.501	 10.595
    8.900000000	-33.103	168.553	 -6.679	166.693	 -6.711	166.778	-21.696	 24.009
    9.000000000	-30.889	118.334	 -6.708	154.771	 -6.736	154.826	-21.410	 33.273
    9.100000000	-28.538	 97.428	 -6.739	142.915	 -6.768	142.976	-21.048	 41.373
    9.200000000	-27.697	 92.129	 -6.768	131.127	 -6.801	131.189	-21.094	 50.226
    9.300000000	-27.616	 95.539	 -6.794	119.385	 -6.828	119.476	-21.136	 58.115
    9.400000000	-27.728	109.588	 -6.824	107.676	 -6.857	107.762	-21.067	 70.009
    9.500000000	-26.063	130.749	 -6.856	 95.991	 -6.880	 96.071	-20.692	 84.172
    9.600000000	-23.122	141.716	 -6.897	 84.387	 -6.927	 84.473	-19.520	 96.225
    9.700000000	-20.434	146.163	 -6.947	 72.843	 -6.973	 72.926	-17.849	104.133
    9.800000000	-18.106	145.281	 -7.001	 61.410	 -7.036	 61.486	-16.319	108.806
    9.900000000	-16.432	141.843	 -7.068	 50.100	 -7.106	 50.179	-15.028	110.289
   10.000000000	-16.007	128.856	 -7.113	 38.544	 -7.150	 38.653	-14.665	109.656
   10.100000000	-15.209	122.063	 -7.178	 27.363	 -7.210	 27.443	-14.012	107.734
   10.200000000	-14.495	116.349	 -7.234	 16.317	 -7.269	 16.453	-13.511	104.304
   10.300000000	-14.224	109.962	 -7.292	  5.439	 -7.324	  5.524	-13.199	100.932
   10.400000000	-14.086	104.208	 -7.341	 -5.409	 -7.374	 -5.358	-13.111	 96.820
   10.500000000	-14.291	 99.128	 -7.381	-16.139	 -7.420	-16.024	-13.039	 91.927
   10.600000000	-14.681	 94.180	 -7.419	-26.807	 -7.450	-26.702	-13.246	 87.699
   10.700000000	-15.415	 89.707	 -7.457	-37.382	 -7.477	-37.399	-13.465	 82.469
   10.800000000	-16.380	 86.973	 -7.482	-48.025	 -7.503	-48.066	-13.727	 77.571
   10.900000000	-17.829	 84.831	 -7.506	-58.704	 -7.528	-58.799	-14.059	 72.122
   11.000000000	-19.600	 86.531	 -7.529	-69.465	 -7.553	-69.510	-14.283	 66.873
   11.100000000	-22.050	 92.684	 -7.560	-80.187	 -7.578	-80.238	-14.409	 61.362
   11.200000000	-24.277	112.141	 -7.593	-90.971	 -7.613	-91.010	-14.477	 55.897
   11.300000000	-24.369	142.655	 -7.631	-101.757	 -7.651	-101.816	-14.356	 50.833
   11.400000000	-21.756	163.306	 -7.679	-112.573	 -7.701	-112.623	-14.116	 45.569
   11.500000000	-18.790	171.394	 -7.745	-123.337	 -7.759	-123.398	-13.791	 40.337
   11.600000000	-16.461	172.423	 -7.809	-134.057	 -7.826	-134.096	-13.385	 35.192
   11.700000000	-14.565	170.699	 -7.886	-144.743	 -7.902	-144.789	-12.935	 29.913
   11.800000000	-13.015	167.200	 -7.964	-155.354	 -7.985	-155.388	-12.519	 24.794
   11.900000000	-11.800	162.242	 -8.054	-165.810	 -8.079	-165.886	-12.130	 19.666
   12.000000000	-10.866	157.035	 -8.139	-176.277	 -8.163	-176.300	-11.787	 14.622
   12.100000000	-10.112	151.541	 -8.230	173.434	 -8.244	173.360	-11.580	  9.343
   12.200000000	 -9.516	145.773	 -8.313	163.146	 -8.333	163.094	-11.425	  4.128
   12.300000000	 -9.092	139.526	 -8.384	152.945	 -8.397	152.868	-11.386	 -1.015
   12.400000000	 -8.785	133.482	 -8.453	142.778	 -8.468	142.713	-11.447	 -6.269
   12.500000000	 -8.580	126.999	 -8.505	132.594	 -8.525	132.527	-11.644	-11.634
   12.600000000	 -8.427	120.485	 -8.553	122.463	 -8.565	122.382	-11.929	-16.988
   12.700000000	 -8.394	113.589	 -8.580	112.207	 -8.598	112.142	-12.358	-22.505
   12.800000000	 -8.361	106.644	 -8.606	101.936	 -8.623	101.866	-12.901	-28.373
   12.900000000	 -8.341	 99.317	 -8.629	 91.626	 -8.641	 91.551	-13.549	-34.313
   13.000000000	 -8.354	 91.833	 -8.643	 81.255	 -8.661	 81.165	-14.340	-40.594
   13.100000000	 -8.369	 84.235	 -8.663	 70.807	 -8.679	 70.756	-15.246	-47.016
   13.200000000	 -8.318	 76.819	 -8.681	 60.423	 -8.695	 60.351	-16.277	-53.706
   13.300000000	 -8.248	 68.983	 -8.696	 50.007	 -8.711	 49.947	-17.470	-60.578
   13.400000000	 -8.136	 61.568	 -8.702	 39.575	 -8.724	 39.483	-18.853	-67.622
   13.500000000	 -7.994	 54.241	 -8.725	 29.174	 -8.735	 29.082	-20.441	-72.833
   13.600000000	 -7.772	 47.283	 -8.751	 18.724	 -8.761	 18.599	-22.424	-77.745
   13.700000000	 -7.588	 40.534	 -8.774	  8.332	 -8.795	  8.236	-24.861	-76.936
   13.800000000	 -7.352	 34.489	 -8.813	 -2.053	 -8.828	 -2.154	-28.038	-64.579
   13.900000000	 -7.116	 29.218	 -8.863	-12.390	 -8.875	-12.461	-29.180	-32.495
   14.000000000	 -6.858	 23.914	 -8.918	-22.724	 -8.926	-22.803	-25.961	 -3.726
   14.100000000	 -6.638	 19.485	 -8.973	-32.941	 -8.988	-33.038	-22.110	  3.802
   14.200000000	 -6.403	 15.092	 -9.046	-43.140	 -9.059	-43.184	-19.143	  3.553
   14.300000000	 -6.197	 11.232	 -9.119	-53.192	 -9.130	-53.298	-16.801	  0.757
   14.400000000	 -6.039	  7.483	 -9.190	-63.129	 -9.198	-63.240	-14.972	 -3.423
   14.500000000	 -5.894	  4.100	 -9.256	-72.969	 -9.270	-73.082	-13.549	 -9.121
   14.600000000	 -5.865	  0.351	 -9.297	-82.686	 -9.314	-82.745	-12.458	-14.276
   14.700000000	 -5.862	 -2.612	 -9.330	-92.197	 -9.348	-92.291	-11.698	-19.892
   14.800000000	 -5.999	 -6.126	 -9.326	-101.712	 -9.344	-101.776	-11.098	-25.659
   14.900000000	 -6.161	 -9.695	 -9.303	-111.129	 -9.317	-111.189	-10.813	-31.029
   15.000000000	 -6.515	-12.641	 -9.231	-120.522	 -9.252	-120.598	-10.751	-36.882
   15.100000000	 -6.940	-16.467	 -9.141	-129.992	 -9.153	-130.073	-10.871	-42.807
   15.200000000	 -7.568	-20.237	 -9.015	-139.560	 -9.032	-139.629	-11.225	-49.310
   15.300000000	 -8.311	-24.226	 -8.880	-149.267	 -8.897	-149.327	-11.808	-55.889
   15.400000000	 -9.196	-28.880	 -8.739	-159.110	 -8.755	-159.182	-12.567	-63.436
   15.500000000	-10.359	-34.381	 -8.595	-169.187	 -8.609	-169.218	-13.499	-71.973
   15.600000000	-11.621	-40.760	 -8.463	-179.358	 -8.485	-179.404	-14.709	-82.295
   15.700000000	-13.003	-49.335	 -8.352	170.303	 -8.373	170.245	-15.979	-94.869
   15.800000000	-14.371	-60.943	 -8.260	159.800	 -8.283	159.778	-17.083	-111.192
   15.900000000	-15.617	-74.912	 -8.202	149.245	 -8.222	149.214	-17.803	-130.403
   16.000000000	-16.233	-91.849	 -8.167	138.658	 -8.189	138.619	-17.693	-152.489
   16.100000000	-16.058	-108.940	 -8.154	128.001	 -8.180	128.013	-16.806	-170.454
   16.200000000	-15.489	-123.629	 -8.164	117.417	 -8.191	117.447	-15.807	173.497
   16.300000000	-14.677	-134.986	 -8.179	106.904	 -8.209	106.911	-14.596	161.482
   16.400000000	-13.917	-143.388	 -8.194	 96.466	 -8.225	 96.488	-13.679	151.492
   16.500000000	-13.232	-150.542	 -8.215	 86.064	 -8.244	 86.122	-12.936	142.373
   16.600000000	-12.946	-155.661	 -8.211	 75.780	 -8.241	 75.823	-12.506	134.693
   16.700000000	-12.562	-160.035	 -8.202	 65.500	 -8.232	 65.527	-12.330	126.787
   16.800000000	-12.887	-163.487	 -8.163	 55.315	 -8.193	 55.331	-12.208	121.127
   16.900000000	-12.964	-166.858	 -8.110	 45.024	 -8.140	 45.086	-12.880	113.982
   17.000000000	-13.710	-168.317	 -8.033	 34.786	 -8.067	 34.801	-13.352	106.085
   17.100000000	-14.275	-172.815	 -7.953	 24.418	 -7.979	 24.467	-14.520	 99.692
   17.200000000	-15.317	-172.371	 -7.862	 13.916	 -7.896	 13.919	-15.762	 88.172
   17.300000000	-17.065	-177.419	 -7.780	  3.362	 -7.809	  3.403	-17.085	 78.190
   17.400000000	-19.046	-179.458	 -7.699	 -7.256	 -7.728	 -7.263	-18.708	 63.119
   17.500000000	-22.146	171.623	 -7.636	-17.998	 -7.662	-18.003	-19.609	 44.952
   17.600000000	-26.927	150.850	 -7.576	-28.889	 -7.604	-28.880	-19.589	 24.695
   17.700000000	-29.702	 82.610	 -7.550	-39.850	 -7.573	-39.805	-18.512	  7.948
   17.800000000	-23.875	 36.255	 -7.539	-50.852	 -7.567	-50.858	-17.099	 -3.439
   17.900000000	-19.116	 20.376	 -7.550	-61.901	 -7.580	-61.929	-15.649	-11.034
   18.000000000	-16.109	 13.400	 -7.580	-72.960	 -7.608	-72.965	-14.220	-16.753
   18.100000000	-13.843	  6.727	 -7.629	-84.015	 -7.656	-83.973	-13.075	-21.207
   18.200000000	-12.295	  1.737	 -7.671	-94.878	 -7.695	-94.905	-12.219	-24.925
   18.300000000	-11.285	 -3.544	 -7.710	-105.649	 -7.743	-105.650	-11.531	-27.643
   18.400000000	-10.597	 -7.281	 -7.738	-116.338	 -7.762	-116.332	-11.141	-30.505
   18.500000000	-10.373	-11.246	 -7.734	-126.952	 -7.760	-126.930	-11.022	-32.954
   18.600000000	-10.381	-14.236	 -7.706	-137.554	 -7.740	-137.555	-11.122	-34.524
   18.700000000	-10.798	-16.551	 -7.654	-148.182	 -7.683	-148.205	-11.487	-34.885
   18.800000000	-11.556	-17.667	 -7.585	-158.943	 -7.614	-158.966	-11.961	-34.610
   18.900000000	-12.649	-17.480	 -7.512	-169.886	 -7.537	-169.849	-12.514	-33.252
   19.000000000	-14.126	-14.303	 -7.438	179.102	 -7.465	179.100	-13.145	-29.493
   19.100000000	-15.634	 -8.550	 -7.389	167.878	 -7.422	167.942	-13.522	-25.955
   19.200000000	-17.592	  3.854	 -7.356	156.681	 -7.392	156.751	-13.651	-23.963
   19.300000000	-18.740	 17.282	 -7.340	145.456	 -7.375	145.561	-13.953	-21.942
   19.400000000	-18.900	 38.156	 -7.339	134.125	 -7.379	134.170	-14.145	-24.187
   19.500000000	-19.091	 52.911	 -7.340	122.665	 -7.379	122.739	-14.424	-27.322
   19.600000000	-17.847	 62.454	 -7.369	111.017	 -7.404	111.104	-15.161	-33.288
   19.700000000	-17.055	 69.983	 -7.408	 99.267	 -7.449	 99.361	-15.879	-41.998
   19.800000000	-16.487	 71.838	 -7.457	 87.402	 -7.497	 87.476	-16.973	-53.611
   19.900000000	-16.163	 72.435	 -7.524	 75.369	 -7.562	 75.434	-17.900	-69.765
   20.000000000	-15.873	 68.616	 -7.611	 63.242	 -7.650	 63.303	-18.531	-87.415
