! Date: Wednesday, June 05, 2013  1:49 PM
! Filename: C:\Data\Mike_Arnold\TGP2105-SM\Over_Temp\TGP2105-SM_EVB01_25C_Phase3.s2p 
! Comments: 
!^VDC(V):5.000
!^VDC(mA):0.032
!%Freq(GHz),S11(dB),S11(ang),S21(dB),S21(ang),S12(dB),S12(ang),S22(dB),S22(ang)
# GHz   S   DB   R   50
    5.000000000	-17.130	-178.500	 -7.372	135.195	 -7.394	135.138	 -8.079	 88.648
    5.100000000	-13.962	-174.376	 -7.445	118.746	 -7.459	118.693	 -8.326	 86.904
    5.200000000	-11.434	-178.722	 -7.561	102.842	 -7.573	102.829	 -8.422	 85.142
    5.300000000	 -9.645	173.495	 -7.708	 87.630	 -7.724	 87.602	 -8.333	 82.936
    5.400000000	 -8.398	164.699	 -7.851	 73.018	 -7.862	 72.948	 -8.201	 79.237
    5.500000000	 -7.503	155.942	 -7.963	 58.979	 -7.980	 58.928	 -8.100	 74.326
    5.600000000	 -6.874	146.926	 -8.046	 45.419	 -8.057	 45.396	 -8.132	 68.504
    5.700000000	 -6.484	138.061	 -8.074	 32.148	 -8.095	 32.092	 -8.281	 61.456
    5.800000000	 -6.318	129.736	 -8.055	 19.132	 -8.070	 19.107	 -8.622	 53.318
    5.900000000	 -6.249	121.821	 -7.990	  6.144	 -8.004	  6.125	 -9.212	 43.918
    6.000000000	 -6.326	114.017	 -7.892	 -6.874	 -7.907	 -6.912	-10.063	 33.363
    6.100000000	 -6.574	106.439	 -7.780	-19.897	 -7.787	-19.923	-11.276	 21.000
    6.200000000	 -6.955	 99.510	 -7.647	-32.946	 -7.664	-32.965	-12.965	  6.756
    6.300000000	 -7.444	 93.181	 -7.480	-45.882	 -7.497	-45.912	-15.090	 -9.718
    6.400000000	 -8.047	 87.894	 -7.257	-59.436	 -7.273	-59.459	-17.379	-30.587
    6.500000000	 -8.581	 83.712	 -7.126	-73.551	 -7.139	-73.555	-19.389	-61.126
    6.600000000	 -8.967	 79.979	 -7.089	-87.407	 -7.105	-87.428	-20.114	-100.211
    6.700000000	 -9.288	 75.347	 -7.082	-101.094	 -7.095	-101.131	-19.229	-135.529
    6.800000000	 -9.570	 70.294	 -7.088	-114.632	 -7.118	-114.539	-17.762	-162.206
    6.900000000	 -9.808	 64.964	 -7.125	-127.796	 -7.151	-127.708	-16.520	177.318
    7.000000000	 -9.983	 58.535	 -7.169	-140.803	 -7.193	-140.709	-15.715	159.896
    7.100000000	-10.160	 51.316	 -7.209	-153.594	 -7.234	-153.522	-15.266	144.216
    7.200000000	-10.326	 43.681	 -7.246	-166.261	 -7.268	-166.181	-15.040	129.352
    7.300000000	-10.449	 35.435	 -7.281	-178.831	 -7.306	-178.747	-14.894	114.261
    7.400000000	-10.549	 26.635	 -7.307	168.755	 -7.330	168.822	-14.893	 98.836
    7.500000000	-10.643	 17.643	 -7.325	156.396	 -7.360	156.464	-14.892	 83.583
    7.600000000	-10.688	  8.740	 -7.353	144.123	 -7.378	144.200	-14.787	 68.542
    7.700000000	-10.738	 -0.265	 -7.367	131.992	 -7.393	132.068	-14.591	 53.633
    7.800000000	-10.813	 -9.105	 -7.367	119.917	 -7.398	119.971	-14.379	 39.863
    7.900000000	-10.960	-17.760	 -7.368	107.898	 -7.395	107.988	-14.146	 27.505
    8.000000000	-11.129	-26.273	 -7.351	 95.962	 -7.380	 96.021	-13.925	 16.911
    8.100000000	-11.462	-34.939	 -7.322	 84.028	 -7.357	 84.119	-13.887	  7.166
    8.200000000	-11.916	-43.587	 -7.286	 72.062	 -7.320	 72.170	-14.032	 -1.049
    8.300000000	-12.589	-52.141	 -7.241	 60.089	 -7.276	 60.212	-14.403	 -7.551
    8.400000000	-13.466	-60.824	 -7.191	 48.045	 -7.228	 48.173	-15.000	-12.892
    8.500000000	-14.692	-70.388	 -7.141	 35.893	 -7.177	 36.000	-15.908	-16.727
    8.600000000	-16.275	-79.896	 -7.106	 23.710	 -7.139	 23.768	-17.093	-17.455
    8.700000000	-18.258	-90.059	 -7.080	 11.367	 -7.109	 11.464	-18.487	-15.955
    8.800000000	-20.622	-102.045	 -7.064	 -0.988	 -7.098	 -0.879	-19.955	-11.278
    8.900000000	-23.478	-117.535	 -7.067	-13.297	 -7.099	-13.193	-21.478	 -2.094
    9.000000000	-26.281	-137.243	 -7.085	-25.565	 -7.117	-25.478	-22.600	  7.877
    9.100000000	-27.960	-161.486	 -7.108	-37.828	 -7.140	-37.726	-23.458	 20.530
    9.200000000	-27.299	177.874	 -7.143	-50.032	 -7.173	-49.952	-24.600	 36.823
    9.300000000	-25.552	165.861	 -7.179	-62.226	 -7.214	-62.129	-25.130	 54.645
    9.400000000	-23.387	160.478	 -7.218	-74.368	 -7.253	-74.281	-24.570	 78.139
    9.500000000	-20.991	157.755	 -7.273	-86.460	 -7.305	-86.340	-22.821	 99.033
    9.600000000	-18.884	153.439	 -7.333	-98.498	 -7.369	-98.384	-20.404	110.591
    9.700000000	-17.143	149.637	 -7.407	-110.382	 -7.440	-110.298	-18.107	115.455
    9.800000000	-15.633	144.835	 -7.491	-122.189	 -7.524	-122.101	-16.251	117.784
    9.900000000	-14.533	139.458	 -7.577	-133.838	 -7.605	-133.744	-14.842	117.219
   10.000000000	-14.346	126.387	 -7.635	-145.734	 -7.668	-145.631	-14.412	115.686
   10.100000000	-13.840	118.798	 -7.706	-157.215	 -7.733	-157.124	-13.752	112.957
   10.200000000	-13.423	112.499	 -7.776	-168.594	 -7.815	-168.460	-13.294	108.940
   10.300000000	-13.372	105.838	 -7.832	-179.810	 -7.867	-179.677	-12.998	105.323
   10.400000000	-13.437	 99.915	 -7.884	169.093	 -7.918	169.168	-12.928	101.168
   10.500000000	-13.828	 94.679	 -7.919	158.008	 -7.957	158.111	-12.877	 96.424
   10.600000000	-14.389	 89.672	 -7.951	147.019	 -7.987	147.120	-13.077	 92.501
   10.700000000	-15.297	 85.320	 -7.981	136.117	 -8.002	136.084	-13.279	 87.676
   10.800000000	-16.469	 82.824	 -8.000	125.118	 -8.019	125.071	-13.495	 83.204
   10.900000000	-18.158	 81.216	 -8.016	114.160	 -8.034	114.085	-13.758	 78.253
   11.000000000	-20.205	 84.621	 -8.029	103.111	 -8.045	103.096	-13.902	 73.357
   11.100000000	-22.919	 94.566	 -8.043	 92.133	 -8.063	 92.100	-13.925	 67.959
   11.200000000	-24.652	120.142	 -8.062	 81.111	 -8.085	 81.112	-13.887	 62.556
   11.300000000	-23.475	149.813	 -8.093	 70.114	 -8.113	 70.104	-13.683	 57.109
   11.400000000	-20.561	164.705	 -8.126	 59.182	 -8.148	 59.121	-13.381	 51.341
   11.500000000	-17.768	169.576	 -8.174	 48.282	 -8.193	 48.269	-13.016	 45.524
   11.600000000	-15.657	169.007	 -8.228	 37.468	 -8.247	 37.444	-12.595	 39.672
   11.700000000	-13.959	166.559	 -8.294	 26.728	 -8.311	 26.734	-12.147	 33.798
   11.800000000	-12.596	162.688	 -8.362	 16.174	 -8.382	 16.126	-11.738	 27.948
   11.900000000	-11.515	157.586	 -8.433	  5.714	 -8.450	  5.660	-11.379	 22.394
   12.000000000	-10.700	152.343	 -8.508	 -4.588	 -8.528	 -4.634	-11.061	 16.964
   12.100000000	-10.047	146.942	 -8.581	-14.820	 -8.593	-14.884	-10.876	 11.403
   12.200000000	 -9.539	141.287	 -8.645	-24.912	 -8.660	-24.964	-10.726	  5.979
   12.300000000	 -9.178	135.213	 -8.704	-34.931	 -8.718	-35.017	-10.709	  0.715
   12.400000000	 -8.940	129.359	 -8.750	-44.921	 -8.769	-44.993	-10.758	 -4.605
   12.500000000	 -8.785	123.035	 -8.792	-54.875	 -8.808	-54.950	-10.930	 -9.919
   12.600000000	 -8.677	116.725	 -8.827	-64.797	 -8.845	-64.873	-11.174	-15.133
   12.700000000	 -8.681	110.002	 -8.847	-74.813	 -8.865	-74.855	-11.549	-20.528
   12.800000000	 -8.679	103.238	 -8.866	-84.797	 -8.880	-84.841	-11.991	-26.176
   12.900000000	 -8.688	 96.107	 -8.875	-94.811	 -8.891	-94.904	-12.520	-31.817
   13.000000000	 -8.712	 88.766	 -8.886	-104.928	 -8.903	-104.985	-13.156	-37.724
   13.100000000	 -8.735	 81.348	 -8.893	-115.013	 -8.910	-115.079	-13.870	-43.788
   13.200000000	 -8.688	 74.069	 -8.904	-125.150	 -8.922	-125.203	-14.622	-49.904
   13.300000000	 -8.622	 66.324	 -8.912	-135.298	 -8.929	-135.382	-15.447	-56.178
   13.400000000	 -8.526	 59.099	 -8.928	-145.497	 -8.943	-145.564	-16.349	-62.775
   13.500000000	 -8.373	 51.974	 -8.947	-155.619	 -8.967	-155.689	-17.295	-67.784
   13.600000000	 -8.157	 45.204	 -8.978	-165.756	 -8.990	-165.803	-18.392	-72.645
   13.700000000	 -7.972	 38.677	 -9.006	-175.859	 -9.023	-175.899	-19.497	-75.021
   13.800000000	 -7.730	 32.809	 -9.044	174.102	 -9.055	174.010	-20.829	-74.354
   13.900000000	 -7.490	 27.729	 -9.081	164.062	 -9.092	164.003	-21.964	-68.880
   14.000000000	 -7.229	 22.599	 -9.127	154.052	 -9.138	153.955	-22.675	-57.197
   14.100000000	 -7.005	 18.341	 -9.179	144.134	 -9.184	144.016	-22.096	-43.170
   14.200000000	 -6.776	 14.146	 -9.229	134.192	 -9.237	134.120	-20.669	-33.047
   14.300000000	 -6.575	 10.508	 -9.279	124.383	 -9.286	124.291	-18.976	-26.824
   14.400000000	 -6.425	  6.926	 -9.323	114.619	 -9.336	114.530	-17.342	-24.516
   14.500000000	 -6.285	  3.763	 -9.361	104.928	 -9.374	104.866	-15.924	-25.862
   14.600000000	 -6.268	  0.210	 -9.375	 95.384	 -9.394	 95.314	-14.862	-27.628
   14.700000000	 -6.279	 -2.492	 -9.383	 85.900	 -9.398	 85.835	-14.130	-30.868
   14.800000000	 -6.431	 -5.723	 -9.353	 76.476	 -9.370	 76.423	-13.571	-34.741
   14.900000000	 -6.605	 -9.045	 -9.307	 67.071	 -9.323	 67.017	-13.393	-38.397
   15.000000000	 -6.989	-11.666	 -9.222	 57.689	 -9.240	 57.590	-13.482	-42.900
   15.100000000	 -7.437	-15.091	 -9.125	 48.211	 -9.140	 48.165	-13.804	-47.525
   15.200000000	 -8.105	-18.327	 -9.004	 38.643	 -9.014	 38.617	-14.469	-52.727
   15.300000000	 -8.887	-21.718	 -8.869	 28.990	 -8.884	 28.977	-15.481	-57.798
   15.400000000	 -9.813	-25.684	 -8.740	 19.206	 -8.754	 19.140	-16.803	-63.868
   15.500000000	-11.035	-30.214	 -8.603	  9.262	 -8.630	  9.222	-18.510	-70.841
   15.600000000	-12.381	-35.577	 -8.491	 -0.741	 -8.514	 -0.763	-20.985	-80.491
   15.700000000	-13.891	-42.968	 -8.402	-10.887	 -8.420	-10.880	-24.022	-95.215
   15.800000000	-15.488	-53.682	 -8.325	-21.104	 -8.348	-21.135	-27.179	-124.370
   15.900000000	-17.024	-67.211	 -8.274	-31.342	 -8.298	-31.373	-27.700	-167.334
   16.000000000	-17.943	-85.071	 -8.238	-41.628	 -8.258	-41.675	-24.516	159.924
   16.100000000	-17.872	-104.261	 -8.219	-51.981	 -8.253	-51.977	-21.752	146.553
   16.200000000	-17.223	-120.771	 -8.219	-62.307	 -8.248	-62.258	-19.607	135.806
   16.300000000	-16.244	-133.092	 -8.230	-72.584	 -8.258	-72.561	-17.897	129.967
   16.400000000	-15.310	-141.943	 -8.234	-82.812	 -8.264	-82.795	-16.786	124.010
   16.500000000	-14.511	-149.277	 -8.237	-93.049	 -8.268	-92.990	-15.911	117.849
   16.600000000	-14.160	-154.172	 -8.230	-103.250	 -8.255	-103.167	-15.552	112.302
   16.700000000	-13.719	-158.409	 -8.209	-113.479	 -8.241	-113.414	-15.472	105.278
   16.800000000	-14.105	-161.488	 -8.177	-123.659	 -8.208	-123.604	-15.614	101.276
   16.900000000	-14.241	-164.337	 -8.134	-133.993	 -8.165	-133.927	-16.799	 92.393
   17.000000000	-15.158	-164.571	 -8.080	-144.311	 -8.111	-144.270	-17.662	 83.064
   17.100000000	-15.940	-167.858	 -8.032	-154.796	 -8.063	-154.737	-19.875	 72.489
   17.200000000	-17.212	-163.759	 -7.985	-165.403	 -8.021	-165.352	-21.565	 51.299
   17.300000000	-19.440	-163.768	 -7.956	-176.019	 -7.988	-175.975	-23.279	 29.469
   17.400000000	-21.712	-156.432	 -7.942	173.228	 -7.973	173.301	-23.512	 -2.287
   17.500000000	-25.454	-146.838	 -7.943	162.469	 -7.970	162.499	-22.144	-23.932
   17.600000000	-30.396	-114.389	 -7.965	151.589	 -7.993	151.624	-20.245	-37.133
   17.700000000	-29.358	-48.543	 -7.998	140.627	 -8.030	140.650	-18.557	-43.167
   17.800000000	-23.791	-23.832	 -8.058	129.622	 -8.087	129.632	-17.261	-45.852
   17.900000000	-19.756	-17.088	 -8.142	118.511	 -8.163	118.522	-16.138	-46.363
   18.000000000	-17.271	-14.558	 -8.228	107.410	 -8.255	107.418	-14.994	-46.277
   18.100000000	-15.247	-15.227	 -8.340	 96.247	 -8.361	 96.207	-14.068	-46.472
   18.200000000	-13.971	-16.813	 -8.448	 85.062	 -8.477	 85.078	-13.410	-47.139
   18.300000000	-13.198	-19.743	 -8.576	 73.937	 -8.600	 73.974	-12.876	-47.429
   18.400000000	-12.867	-21.542	 -8.698	 62.811	 -8.723	 62.834	-12.638	-49.022
   18.500000000	-13.089	-24.130	 -8.834	 51.698	 -8.854	 51.719	-12.717	-51.148
   18.600000000	-13.739	-25.085	 -8.990	 40.630	 -9.011	 40.643	-13.146	-53.412
   18.700000000	-15.129	-24.157	 -9.161	 29.747	 -9.194	 29.763	-14.148	-55.527
   18.800000000	-17.280	-17.262	 -9.373	 19.240	 -9.403	 19.284	-15.807	-57.692
   18.900000000	-19.504	  1.894	 -9.573	  9.606	 -9.605	  9.612	-18.810	-56.572
   19.000000000	-19.285	 32.684	 -9.644	  0.640	 -9.670	  0.645	-23.898	-29.638
   19.100000000	-16.843	 48.687	 -9.493	 -8.500	 -9.535	 -8.383	-21.706	 20.814
   19.200000000	-14.749	 57.117	 -9.237	-18.765	 -9.273	-18.677	-17.374	 28.680
   19.300000000	-13.511	 58.024	 -9.027	-30.164	 -9.062	-30.071	-14.900	 26.982
   19.400000000	-12.420	 60.002	 -8.914	-42.158	 -8.950	-42.005	-13.762	 19.658
   19.500000000	-12.129	 60.379	 -8.877	-54.196	 -8.918	-54.085	-13.177	 12.248
   19.600000000	-11.558	 58.773	 -8.895	-66.285	 -8.922	-66.120	-13.299	  4.830
   19.700000000	-11.409	 57.233	 -8.914	-78.281	 -8.950	-78.141	-13.624	 -4.550
   19.800000000	-11.433	 53.377	 -8.955	-90.405	 -8.985	-90.281	-14.416	-14.446
   19.900000000	-11.683	 48.891	 -8.989	-102.689	 -9.030	-102.637	-15.422	-27.304
   20.000000000	-11.873	 42.216	 -9.056	-115.107	 -9.100	-114.974	-16.469	-41.822
