! Date: Wednesday, June 05, 2013  1:51 PM
! Filename: C:\Data\Mike_Arnold\TGP2105-SM\Over_Temp\TGP2105-SM_EVB01_25C_Phase32.s2p 
! Comments: 
!^VDC(V):5.000
!^VDC(mA):0.015
!%Freq(GHz),S11(dB),S11(ang),S21(dB),S21(ang),S12(dB),S12(ang),S22(dB),S22(ang)
# GHz   S   DB   R   50
    5.000000000	-12.288	-120.191	 -9.517	-63.422	 -9.533	-63.504	 -4.868	104.425
    5.100000000	 -9.694	-142.432	 -9.693	-78.815	 -9.706	-78.875	 -4.855	 99.651
    5.200000000	 -7.882	-160.020	 -9.898	-93.425	 -9.914	-93.444	 -4.844	 94.581
    5.300000000	 -6.653	-174.920	-10.097	-107.174	-10.112	-107.204	 -4.825	 89.314
    5.400000000	 -5.819	172.073	-10.240	-120.165	-10.261	-120.198	 -4.863	 83.546
    5.500000000	 -5.231	160.571	-10.312	-132.488	-10.325	-132.508	 -4.946	 77.626
    5.600000000	 -4.828	149.880	-10.251	-144.517	-10.272	-144.609	 -5.081	 71.645
    5.700000000	 -4.564	139.885	-10.129	-156.745	-10.142	-156.786	 -5.217	 64.889
    5.800000000	 -4.442	130.531	 -9.955	-168.934	 -9.969	-168.990	 -5.476	 57.334
    5.900000000	 -4.387	121.575	 -9.729	178.959	 -9.744	178.930	 -5.899	 48.992
    6.000000000	 -4.430	112.633	 -9.442	166.732	 -9.460	166.696	 -6.468	 40.116
    6.100000000	 -4.616	103.836	 -9.102	154.198	 -9.112	154.162	 -7.221	 30.344
    6.200000000	 -4.891	 95.323	 -8.732	141.454	 -8.745	141.393	 -8.210	 19.795
    6.300000000	 -5.244	 86.861	 -8.355	128.258	 -8.367	128.264	 -9.449	  8.407
    6.400000000	 -5.723	 78.257	 -7.985	114.701	 -7.997	114.693	-10.969	 -3.897
    6.500000000	 -6.322	 69.921	 -7.642	100.878	 -7.654	100.905	-12.863	-17.468
    6.600000000	 -6.996	 61.974	 -7.331	 86.856	 -7.349	 86.838	-15.232	-31.917
    6.700000000	 -7.735	 53.703	 -7.078	 72.682	 -7.090	 72.655	-18.131	-47.364
    6.800000000	 -8.546	 45.493	 -6.855	 58.339	 -6.878	 58.388	-21.798	-64.825
    6.900000000	 -9.415	 37.606	 -6.686	 44.178	 -6.713	 44.217	-27.124	-85.496
    7.000000000	-10.272	 29.527	 -6.563	 30.047	 -6.589	 30.124	-38.109	-115.953
    7.100000000	-11.149	 21.358	 -6.473	 16.064	 -6.495	 16.142	-36.013	 77.110
    7.200000000	-12.046	 13.579	 -6.406	  2.222	 -6.427	  2.261	-27.909	 51.653
    7.300000000	-12.886	  6.199	 -6.361	-11.446	 -6.387	-11.380	-23.820	 34.061
    7.400000000	-13.653	 -0.690	 -6.339	-24.975	 -6.362	-24.906	-21.016	 17.694
    7.500000000	-14.346	 -7.108	 -6.332	-38.335	 -6.358	-38.238	-19.019	  2.878
    7.600000000	-14.908	-12.411	 -6.333	-51.483	 -6.362	-51.417	-17.456	 -9.787
    7.700000000	-15.346	-17.131	 -6.351	-64.444	 -6.370	-64.353	-16.217	-21.431
    7.800000000	-15.711	-21.285	 -6.364	-77.205	 -6.383	-77.164	-15.350	-32.657
    7.900000000	-16.074	-25.119	 -6.376	-89.848	 -6.399	-89.806	-14.788	-42.909
    8.000000000	-16.348	-28.407	 -6.382	-102.369	 -6.406	-102.312	-14.581	-52.326
    8.100000000	-16.774	-31.703	 -6.388	-114.768	 -6.414	-114.713	-14.608	-62.304
    8.200000000	-17.269	-34.208	 -6.387	-127.138	 -6.419	-127.031	-15.018	-72.727
    8.300000000	-17.913	-35.535	 -6.390	-139.437	 -6.420	-139.327	-15.839	-83.605
    8.400000000	-18.535	-35.994	 -6.403	-151.679	 -6.427	-151.639	-16.966	-95.883
    8.500000000	-19.331	-35.658	 -6.408	-163.951	 -6.438	-163.866	-18.451	-110.889
    8.600000000	-19.947	-33.859	 -6.428	-176.165	 -6.456	-176.107	-20.257	-130.859
    8.700000000	-20.357	-32.649	 -6.458	171.662	 -6.485	171.710	-21.547	-156.153
    8.800000000	-20.711	-34.302	 -6.495	159.525	 -6.524	159.588	-21.622	176.423
    8.900000000	-21.191	-38.846	 -6.538	147.424	 -6.569	147.507	-20.404	153.037
    9.000000000	-21.805	-47.744	 -6.584	135.407	 -6.611	135.490	-18.984	138.195
    9.100000000	-22.550	-63.690	 -6.636	123.403	 -6.666	123.477	-17.516	128.165
    9.200000000	-23.066	-88.882	 -6.694	111.435	 -6.724	111.540	-16.091	123.086
    9.300000000	-22.477	-119.529	 -6.762	 99.508	 -6.796	 99.587	-14.934	119.186
    9.400000000	-20.562	-147.195	 -6.849	 87.622	 -6.879	 87.715	-13.736	116.603
    9.500000000	-18.111	-168.178	 -6.953	 75.818	 -6.985	 75.928	-12.671	114.880
    9.600000000	-16.061	175.439	 -7.075	 64.199	 -7.108	 64.287	-11.712	112.487
    9.700000000	-14.395	162.966	 -7.203	 52.822	 -7.239	 52.921	-10.842	109.568
    9.800000000	-13.093	152.054	 -7.331	 41.639	 -7.365	 41.742	-10.170	106.740
    9.900000000	-12.194	142.389	 -7.466	 30.644	 -7.500	 30.769	 -9.656	103.489
   10.000000000	-12.030	127.637	 -7.550	 19.217	 -7.576	 19.327	 -9.532	 99.666
   10.100000000	-11.681	117.658	 -7.642	  8.372	 -7.673	  8.466	 -9.370	 95.560
   10.200000000	-11.426	108.966	 -7.724	 -2.306	 -7.758	 -2.179	 -9.288	 90.805
   10.300000000	-11.486	100.194	 -7.800	-12.830	 -7.830	-12.735	 -9.318	 86.322
   10.400000000	-11.685	 92.210	 -7.852	-23.340	 -7.887	-23.227	 -9.465	 81.297
   10.500000000	-12.184	 84.625	 -7.890	-33.751	 -7.923	-33.643	 -9.601	 75.998
   10.600000000	-12.873	 77.082	 -7.917	-44.190	 -7.947	-44.086	 -9.915	 70.952
   10.700000000	-13.925	 69.437	 -7.938	-54.535	 -7.956	-54.591	-10.207	 65.356
   10.800000000	-15.355	 62.651	 -7.951	-65.060	 -7.972	-65.089	-10.509	 59.880
   10.900000000	-17.412	 54.678	 -7.963	-75.630	 -7.979	-75.662	-10.829	 53.930
   11.000000000	-20.392	 47.768	 -7.976	-86.262	 -7.991	-86.308	-11.075	 48.143
   11.100000000	-25.518	 37.269	 -7.992	-96.914	 -8.009	-96.979	-11.229	 42.198
   11.200000000	-41.889	  8.341	 -8.015	-107.693	 -8.033	-107.743	-11.334	 36.311
   11.300000000	-27.889	-145.482	 -8.054	-118.402	 -8.071	-118.467	-11.333	 30.688
   11.400000000	-21.200	-155.949	 -8.102	-129.169	 -8.123	-129.180	-11.248	 25.153
   11.500000000	-17.408	-163.988	 -8.163	-139.899	 -8.184	-139.910	-11.124	 19.544
   11.600000000	-14.935	-171.483	 -8.225	-150.539	 -8.246	-150.568	-10.954	 14.161
   11.700000000	-13.091	-178.609	 -8.307	-161.128	 -8.324	-161.141	-10.760	  8.832
   11.800000000	-11.659	174.357	 -8.388	-171.586	 -8.403	-171.615	-10.613	  3.504
   11.900000000	-10.564	167.058	 -8.464	178.021	 -8.483	177.987	-10.491	 -1.716
   12.000000000	 -9.763	160.114	 -8.545	167.730	 -8.566	167.690	-10.427	 -6.791
   12.100000000	 -9.113	153.375	 -8.615	157.517	 -8.634	157.465	-10.461	-12.275
   12.200000000	 -8.620	146.708	 -8.681	147.428	 -8.697	147.362	-10.548	-17.517
   12.300000000	 -8.281	139.776	 -8.737	137.323	 -8.747	137.214	-10.756	-22.947
   12.400000000	 -8.058	133.211	 -8.771	127.200	 -8.792	127.158	-11.055	-28.482
   12.500000000	 -7.911	126.360	 -8.809	117.088	 -8.818	117.045	-11.474	-34.331
   12.600000000	 -7.824	119.545	 -8.826	106.969	 -8.841	106.892	-12.000	-40.188
   12.700000000	 -7.833	112.391	 -8.826	 96.763	 -8.844	 96.697	-12.677	-46.546
   12.800000000	 -7.851	105.186	 -8.834	 86.485	 -8.849	 86.440	-13.435	-53.245
   12.900000000	 -7.869	 97.760	 -8.832	 76.145	 -8.843	 76.115	-14.356	-60.210
   13.000000000	 -7.918	 90.139	 -8.818	 65.749	 -8.842	 65.731	-15.403	-68.052
   13.100000000	 -7.961	 82.438	 -8.819	 55.341	 -8.834	 55.301	-16.618	-76.321
   13.200000000	 -7.948	 74.860	 -8.819	 44.921	 -8.829	 44.845	-17.981	-85.108
   13.300000000	 -7.905	 66.969	 -8.814	 34.483	 -8.827	 34.390	-19.550	-94.629
   13.400000000	 -7.841	 59.494	 -8.812	 24.057	 -8.820	 23.975	-21.329	-105.556
   13.500000000	 -7.726	 52.150	 -8.809	 13.602	 -8.821	 13.500	-23.748	-115.368
   13.600000000	 -7.548	 45.108	 -8.818	  3.088	 -8.833	  3.016	-27.004	-127.861
   13.700000000	 -7.398	 38.412	 -8.827	 -7.311	 -8.843	 -7.358	-32.935	-140.846
   13.800000000	 -7.194	 32.319	 -8.851	-17.719	 -8.862	-17.793	-46.325	 92.092
   13.900000000	 -6.999	 27.054	 -8.879	-28.074	 -8.888	-28.173	-30.565	 35.777
   14.000000000	 -6.761	 21.718	 -8.911	-38.435	 -8.928	-38.501	-24.399	 24.399
   14.100000000	 -6.574	 17.242	 -8.960	-48.692	 -8.971	-48.749	-20.636	 14.102
   14.200000000	 -6.384	 12.808	 -9.007	-58.910	 -9.021	-58.961	-18.064	  5.360
   14.300000000	 -6.223	  8.886	 -9.056	-68.989	 -9.069	-69.044	-16.074	 -1.970
   14.400000000	 -6.117	  5.079	 -9.101	-78.952	 -9.114	-79.037	-14.557	 -8.981
   14.500000000	 -6.031	  1.720	 -9.135	-88.830	 -9.151	-88.936	-13.418	-16.509
   14.600000000	 -6.071	 -2.005	 -9.149	-98.636	 -9.162	-98.704	-12.611	-22.853
   14.700000000	 -6.145	 -4.809	 -9.143	-108.341	 -9.152	-108.392	-12.125	-29.466
   14.800000000	 -6.363	 -8.101	 -9.092	-118.001	 -9.107	-118.075	-11.811	-35.951
   14.900000000	 -6.610	-11.352	 -9.028	-127.686	 -9.038	-127.737	-11.859	-41.960
   15.000000000	 -7.061	-13.831	 -8.922	-137.432	 -8.936	-137.463	-12.170	-48.425
   15.100000000	 -7.573	-16.974	 -8.798	-147.247	 -8.812	-147.314	-12.726	-54.958
   15.200000000	 -8.296	-19.818	 -8.657	-157.248	 -8.672	-157.320	-13.598	-62.157
   15.300000000	 -9.111	-22.654	 -8.514	-167.365	 -8.528	-167.440	-14.866	-69.589
   15.400000000	-10.046	-25.961	 -8.379	-177.658	 -8.393	-177.752	-16.460	-78.692
   15.500000000	-11.234	-29.694	 -8.245	171.857	 -8.261	171.837	-18.473	-89.982
   15.600000000	-12.488	-34.112	 -8.135	161.309	 -8.151	161.289	-21.135	-107.252
   15.700000000	-13.857	-40.652	 -8.041	150.637	 -8.061	150.655	-23.659	-134.617
   15.800000000	-15.227	-50.365	 -7.980	139.881	 -7.996	139.868	-24.008	-171.322
   15.900000000	-16.513	-62.695	 -7.935	129.143	 -7.952	129.108	-22.160	158.598
   16.000000000	-17.241	-79.266	 -7.918	118.313	 -7.938	118.274	-19.532	139.922
   16.100000000	-17.169	-97.312	 -7.922	107.485	 -7.950	107.523	-17.668	129.169
   16.200000000	-16.544	-113.204	 -7.942	 96.726	 -7.968	 96.746	-16.148	119.232
   16.300000000	-15.590	-125.645	 -7.969	 86.029	 -7.997	 86.046	-15.027	112.087
   16.400000000	-14.623	-134.730	 -7.992	 75.349	 -8.023	 75.407	-14.347	104.721
   16.500000000	-13.787	-142.299	 -8.021	 64.745	 -8.051	 64.815	-13.868	 97.175
   16.600000000	-13.313	-147.215	 -8.032	 54.194	 -8.056	 54.265	-13.832	 89.520
   16.700000000	-12.731	-151.598	 -8.039	 43.678	 -8.069	 43.719	-14.002	 80.533
   16.800000000	-12.826	-154.419	 -8.028	 33.209	 -8.053	 33.273	-14.582	 73.603
   16.900000000	-12.613	-157.728	 -8.005	 22.680	 -8.031	 22.708	-15.675	 60.002
   17.000000000	-12.975	-159.147	 -7.973	 12.191	 -8.001	 12.270	-16.475	 47.299
   17.100000000	-13.188	-164.018	 -7.932	  1.699	 -7.961	  1.731	-17.902	 28.900
   17.200000000	-13.716	-165.068	 -7.898	 -8.885	 -7.925	 -8.816	-17.985	  7.854
   17.300000000	-14.879	-171.152	 -7.853	-19.436	 -7.882	-19.410	-18.007	-10.871
   17.400000000	-16.171	-176.487	 -7.812	-30.053	 -7.846	-30.012	-17.144	-29.129
   17.500000000	-18.203	172.420	 -7.784	-40.710	 -7.811	-40.671	-16.115	-40.908
   17.600000000	-20.927	153.400	 -7.763	-51.485	 -7.786	-51.451	-14.987	-49.327
   17.700000000	-23.340	114.861	 -7.749	-62.327	 -7.775	-62.298	-13.985	-54.397
   17.800000000	-21.809	 68.372	 -7.753	-73.236	 -7.771	-73.208	-13.180	-57.959
   17.900000000	-18.183	 39.628	 -7.766	-84.207	 -7.797	-84.158	-12.493	-60.314
   18.000000000	-15.296	 25.814	 -7.801	-95.146	 -7.823	-95.122	-11.849	-62.152
   18.100000000	-13.099	 15.165	 -7.842	-106.062	 -7.871	-106.065	-11.416	-64.293
   18.200000000	-11.588	  7.727	 -7.878	-116.894	 -7.902	-116.885	-11.220	-66.699
   18.300000000	-10.609	  1.045	 -7.903	-127.655	 -7.929	-127.625	-11.228	-68.573
   18.400000000	 -9.942	 -3.733	 -7.909	-138.374	 -7.930	-138.335	-11.490	-71.296
   18.500000000	 -9.695	 -8.180	 -7.879	-149.095	 -7.906	-149.069	-12.057	-74.225
   18.600000000	 -9.650	-11.579	 -7.833	-159.848	 -7.861	-159.847	-12.987	-76.771
   18.700000000	 -9.941	-14.217	 -7.754	-170.728	 -7.783	-170.727	-14.426	-78.849
   18.800000000	-10.497	-15.959	 -7.674	178.191	 -7.697	178.226	-16.236	-79.844
   18.900000000	-11.284	-17.058	 -7.584	166.965	 -7.616	167.041	-18.576	-79.169
   19.000000000	-12.384	-16.860	 -7.507	155.577	 -7.535	155.609	-22.069	-73.516
   19.100000000	-13.624	-16.336	 -7.446	143.974	 -7.480	144.108	-25.879	-58.231
   19.200000000	-15.656	-13.371	 -7.409	132.331	 -7.444	132.469	-28.325	-33.669
   19.300000000	-17.848	-10.799	 -7.394	120.593	 -7.431	120.676	-29.943	  5.030
   19.400000000	-21.292	  3.233	 -7.402	108.709	 -7.439	108.780	-30.378	 28.399
   19.500000000	-26.210	 29.226	 -7.428	 96.636	 -7.464	 96.737	-29.088	 57.384
   19.600000000	-24.568	 76.046	 -7.483	 84.348	 -7.516	 84.455	-26.580	 87.665
   19.700000000	-20.704	 98.713	 -7.569	 71.965	 -7.600	 72.079	-23.534	100.357
   19.800000000	-18.001	102.057	 -7.676	 59.463	 -7.711	 59.542	-20.561	105.611
   19.900000000	-16.196	100.792	 -7.809	 46.798	 -7.843	 46.897	-18.466	106.610
   20.000000000	-15.038	 94.049	 -7.968	 34.153	 -7.997	 34.277	-16.964	103.488
