! Date: Wednesday, June 05, 2013  1:49 PM
! Filename: C:\Data\Mike_Arnold\TGP2105-SM\Over_Temp\TGP2105-SM_EVB01_25C_Phase8.s2p 
! Comments: 
!^VDC(V):5.000
!^VDC(mA):0.053
!%Freq(GHz),S11(dB),S11(ang),S21(dB),S21(ang),S12(dB),S12(ang),S22(dB),S22(ang)
# GHz   S   DB   R   50
    5.000000000	 -7.463	 69.716	 -8.173	167.475	 -8.195	167.455	 -4.906	 95.542
    5.100000000	 -9.220	 53.823	 -7.747	152.357	 -7.763	152.373	 -5.331	 89.406
    5.200000000	-11.894	 35.351	 -7.360	136.746	 -7.376	136.736	 -5.869	 84.044
    5.300000000	-16.002	 10.455	 -7.069	120.784	 -7.087	120.779	 -6.425	 80.075
    5.400000000	-21.917	-40.747	 -6.891	104.666	 -6.906	104.673	 -6.944	 77.055
    5.500000000	-20.035	-124.184	 -6.817	 88.794	 -6.835	 88.810	 -7.336	 74.751
    5.600000000	-15.112	-160.912	 -6.831	 73.435	 -6.846	 73.429	 -7.612	 72.678
    5.700000000	-12.142	178.512	 -6.906	 58.626	 -6.924	 58.639	 -7.757	 69.741
    5.800000000	-10.327	163.360	 -6.993	 44.527	 -7.010	 44.517	 -7.884	 65.871
    5.900000000	 -9.117	150.270	 -7.078	 30.958	 -7.094	 30.953	 -8.099	 60.889
    6.000000000	 -8.372	138.387	 -7.137	 17.827	 -7.159	 17.840	 -8.424	 55.055
    6.100000000	 -7.989	127.487	 -7.175	  5.084	 -7.190	  5.092	 -8.930	 48.301
    6.200000000	 -7.833	117.370	 -7.172	 -7.265	 -7.188	 -7.269	 -9.662	 41.450
    6.300000000	 -7.873	107.215	 -7.088	-19.175	 -7.104	-19.177	-10.456	 35.076
    6.400000000	 -8.251	 97.590	 -6.866	-31.431	 -6.878	-31.452	-11.144	 27.497
    6.500000000	 -8.784	 89.200	 -6.651	-44.582	 -6.669	-44.587	-12.066	 17.289
    6.600000000	 -9.341	 81.634	 -6.503	-57.773	 -6.517	-57.791	-13.394	  6.027
    6.700000000	 -9.979	 73.702	 -6.382	-71.084	 -6.400	-71.086	-15.046	 -5.155
    6.800000000	-10.716	 65.820	 -6.282	-84.439	 -6.304	-84.369	-16.963	-16.490
    6.900000000	-11.530	 58.421	 -6.216	-97.667	 -6.238	-97.597	-19.228	-27.140
    7.000000000	-12.339	 50.564	 -6.174	-110.832	 -6.197	-110.761	-21.629	-34.708
    7.100000000	-13.199	 42.564	 -6.146	-123.917	 -6.169	-123.855	-24.131	-37.566
    7.200000000	-14.075	 34.729	 -6.134	-136.917	 -6.157	-136.863	-26.241	-32.376
    7.300000000	-14.923	 27.027	 -6.132	-149.852	 -6.162	-149.761	-26.731	-18.321
    7.400000000	-15.714	 19.376	 -6.148	-162.643	 -6.170	-162.567	-25.010	 -7.801
    7.500000000	-16.471	 12.329	 -6.168	-175.377	 -6.194	-175.278	-22.796	 -6.581
    7.600000000	-17.079	  6.549	 -6.201	172.025	 -6.226	172.106	-20.696	 -9.083
    7.700000000	-17.576	  1.565	 -6.239	159.554	 -6.261	159.641	-18.847	-14.137
    7.800000000	-17.938	 -2.271	 -6.275	147.207	 -6.298	147.278	-17.414	-20.983
    7.900000000	-18.226	 -5.023	 -6.312	134.929	 -6.337	135.000	-16.308	-27.803
    8.000000000	-18.259	 -7.358	 -6.348	122.791	 -6.377	122.864	-15.475	-34.627
    8.100000000	-18.422	 -9.701	 -6.384	110.681	 -6.416	110.769	-14.931	-42.736
    8.200000000	-18.565	-11.806	 -6.411	 98.606	 -6.441	 98.731	-14.728	-51.397
    8.300000000	-18.825	-13.563	 -6.431	 86.631	 -6.468	 86.747	-14.826	-60.363
    8.400000000	-19.223	-14.693	 -6.455	 74.623	 -6.487	 74.721	-15.230	-70.943
    8.500000000	-20.015	-14.568	 -6.475	 62.577	 -6.503	 62.726	-15.945	-83.771
    8.600000000	-20.809	-11.754	 -6.504	 50.483	 -6.533	 50.580	-17.064	-99.634
    8.700000000	-21.490	 -6.526	 -6.541	 38.351	 -6.570	 38.419	-18.170	-119.979
    8.800000000	-21.934	 -0.016	 -6.598	 26.127	 -6.625	 26.238	-18.873	-145.018
    8.900000000	-21.914	  6.782	 -6.665	 14.000	 -6.699	 14.117	-18.564	-172.731
    9.000000000	-21.505	  9.918	 -6.749	  1.943	 -6.780	  2.052	-17.473	164.826
    9.100000000	-21.222	  8.372	 -6.839	-10.038	 -6.873	 -9.961	-16.077	147.188
    9.200000000	-21.432	  2.566	 -6.941	-21.952	 -6.974	-21.871	-14.668	135.058
    9.300000000	-22.176	 -7.826	 -7.041	-33.788	 -7.074	-33.655	-13.620	125.921
    9.400000000	-23.445	-25.853	 -7.141	-45.526	 -7.170	-45.354	-12.703	119.311
    9.500000000	-24.779	-57.514	 -7.234	-57.181	 -7.268	-57.052	-11.983	115.103
    9.600000000	-24.265	-97.084	 -7.327	-68.827	 -7.358	-68.675	-11.385	111.682
    9.700000000	-21.284	-129.451	 -7.435	-80.418	 -7.463	-80.352	-10.810	108.841
    9.800000000	-18.196	-150.955	 -7.545	-91.922	 -7.573	-91.829	-10.312	106.915
    9.900000000	-15.672	-165.852	 -7.662	-103.371	 -7.696	-103.198	 -9.882	104.762
   10.000000000	-15.059	178.759	 -7.725	-115.167	 -7.762	-115.039	 -9.874	101.651
   10.100000000	-13.643	166.812	 -7.834	-126.475	 -7.869	-126.390	 -9.680	 98.551
   10.200000000	-12.326	156.085	 -7.946	-137.752	 -7.976	-137.628	 -9.500	 94.712
   10.300000000	-11.438	146.598	 -8.060	-148.824	 -8.092	-148.670	 -9.403	 90.781
   10.400000000	-10.692	137.689	 -8.162	-159.774	 -8.198	-159.667	 -9.399	 86.163
   10.500000000	-10.194	129.856	 -8.271	-170.612	 -8.303	-170.454	 -9.379	 80.875
   10.600000000	 -9.861	122.107	 -8.359	178.715	 -8.387	178.842	 -9.539	 75.602
   10.700000000	 -9.724	114.843	 -8.449	168.217	 -8.464	168.195	 -9.699	 69.418
   10.800000000	 -9.674	108.091	 -8.514	157.644	 -8.536	157.655	 -9.896	 63.156
   10.900000000	 -9.851	101.289	 -8.566	147.164	 -8.582	147.148	-10.162	 56.270
   11.000000000	-10.102	 94.931	 -8.604	136.674	 -8.623	136.645	-10.383	 49.464
   11.100000000	-10.578	 88.370	 -8.630	126.177	 -8.646	126.132	-10.584	 42.424
   11.200000000	-11.182	 82.339	 -8.641	115.702	 -8.660	115.692	-10.789	 35.484
   11.300000000	-12.033	 76.220	 -8.643	105.197	 -8.660	105.154	-10.937	 29.054
   11.400000000	-13.104	 70.282	 -8.636	 94.653	 -8.658	 94.617	-11.047	 22.925
   11.500000000	-14.537	 65.093	 -8.620	 84.109	 -8.645	 84.070	-11.146	 17.290
   11.600000000	-16.343	 60.132	 -8.602	 73.515	 -8.626	 73.517	-11.206	 12.253
   11.700000000	-18.854	 56.745	 -8.587	 62.895	 -8.606	 62.886	-11.206	  7.753
   11.800000000	-22.510	 57.820	 -8.575	 52.314	 -8.588	 52.290	-11.218	  3.676
   11.900000000	-27.610	 74.312	 -8.555	 41.688	 -8.576	 41.691	-11.209	  0.082
   12.000000000	-30.048	130.735	 -8.543	 31.080	 -8.564	 31.085	-11.175	 -3.177
   12.100000000	-24.798	163.350	 -8.540	 20.539	 -8.556	 20.467	-11.176	 -6.652
   12.200000000	-20.828	168.020	 -8.543	 10.009	 -8.557	  9.936	-11.152	-10.066
   12.300000000	-18.283	165.039	 -8.548	 -0.541	 -8.561	 -0.592	-11.186	-13.573
   12.400000000	-16.476	160.862	 -8.552	-11.057	 -8.566	-11.135	-11.232	-17.350
   12.500000000	-15.200	154.941	 -8.561	-21.581	 -8.572	-21.610	-11.363	-21.513
   12.600000000	-14.193	148.490	 -8.564	-32.054	 -8.582	-32.077	-11.524	-25.822
   12.700000000	-13.556	141.512	 -8.568	-42.540	 -8.584	-42.560	-11.770	-30.725
   12.800000000	-13.011	134.096	 -8.570	-53.044	 -8.589	-53.074	-12.056	-36.034
   12.900000000	-12.581	125.948	 -8.578	-63.535	 -8.596	-63.585	-12.405	-41.693
   13.000000000	-12.277	117.637	 -8.580	-74.074	 -8.597	-74.114	-12.802	-47.973
   13.100000000	-12.012	109.120	 -8.584	-84.635	 -8.605	-84.661	-13.231	-54.630
   13.200000000	-11.700	100.476	 -8.592	-95.174	 -8.604	-95.183	-13.648	-61.707
   13.300000000	-11.429	 91.229	 -8.598	-105.719	 -8.616	-105.749	-14.078	-69.297
   13.400000000	-11.114	 82.569	 -8.610	-116.232	 -8.622	-116.319	-14.508	-77.550
   13.500000000	-10.766	 73.890	 -8.618	-126.774	 -8.637	-126.839	-14.943	-85.167
   13.600000000	-10.337	 65.488	 -8.643	-137.264	 -8.654	-137.336	-15.420	-93.484
   13.700000000	 -9.980	 57.656	 -8.665	-147.747	 -8.679	-147.769	-15.911	-100.929
   13.800000000	 -9.564	 50.607	 -8.690	-158.215	 -8.702	-158.266	-16.664	-108.687
   13.900000000	 -9.152	 44.636	 -8.714	-168.625	 -8.725	-168.695	-17.597	-115.834
   14.000000000	 -8.748	 38.719	 -8.747	-179.081	 -8.761	-179.119	-19.048	-122.489
   14.100000000	 -8.382	 34.037	 -8.785	170.506	 -8.795	170.442	-21.135	-127.568
   14.200000000	 -8.017	 29.585	 -8.818	160.110	 -8.831	160.075	-24.211	-130.992
   14.300000000	 -7.662	 25.886	 -8.865	149.713	 -8.877	149.644	-30.166	-129.574
   14.400000000	 -7.368	 22.489	 -8.908	139.372	 -8.920	139.295	-40.657	-39.367
   14.500000000	 -7.056	 19.514	 -8.955	129.105	 -8.976	129.016	-28.482	  4.652
   14.600000000	 -6.884	 16.406	 -8.990	118.886	 -9.010	118.848	-23.170	  7.177
   14.700000000	 -6.688	 14.063	 -9.029	108.821	 -9.048	108.770	-20.243	  4.195
   14.800000000	 -6.651	 11.448	 -9.046	 98.812	 -9.059	 98.749	-18.208	 -0.778
   14.900000000	 -6.632	  8.605	 -9.053	 88.890	 -9.071	 88.860	-17.001	 -4.260
   15.000000000	 -6.768	  6.783	 -9.036	 79.087	 -9.048	 79.049	-16.335	 -8.218
   15.100000000	 -6.982	  4.170	 -8.992	 69.320	 -9.004	 69.292	-16.049	-11.926
   15.200000000	 -7.365	  2.125	 -8.927	 59.546	 -8.947	 59.506	-16.217	-15.219
   15.300000000	 -7.820	  0.031	 -8.849	 49.732	 -8.861	 49.684	-16.682	-17.062
   15.400000000	 -8.394	 -2.248	 -8.764	 39.877	 -8.778	 39.797	-17.519	-18.522
   15.500000000	 -9.172	 -4.367	 -8.659	 29.860	 -8.683	 29.857	-18.613	-18.215
   15.600000000	-10.000	 -6.732	 -8.575	 19.793	 -8.585	 19.795	-20.152	-14.927
   15.700000000	-10.955	 -9.873	 -8.483	  9.681	 -8.504	  9.650	-21.829	 -8.492
   15.800000000	-12.016	-14.215	 -8.406	 -0.599	 -8.429	 -0.627	-23.635	  2.075
   15.900000000	-13.131	-19.306	 -8.349	-10.940	 -8.371	-10.952	-24.943	 17.832
   16.000000000	-14.212	-27.148	 -8.302	-21.332	 -8.323	-21.396	-25.489	 39.605
   16.100000000	-15.158	-38.244	 -8.266	-31.896	 -8.294	-31.853	-25.377	 56.617
   16.200000000	-15.820	-51.269	 -8.253	-42.460	 -8.284	-42.395	-24.004	 69.788
   16.300000000	-15.921	-65.773	 -8.251	-53.067	 -8.282	-52.986	-22.901	 80.366
   16.400000000	-15.489	-79.641	 -8.259	-63.671	 -8.291	-63.617	-21.900	 84.743
   16.500000000	-14.807	-92.152	 -8.274	-74.268	 -8.310	-74.227	-20.855	 86.121
   16.600000000	-14.048	-100.658	 -8.288	-84.824	 -8.322	-84.755	-20.482	 84.395
   16.700000000	-13.188	-109.062	 -8.318	-95.397	 -8.349	-95.301	-20.260	 78.847
   16.800000000	-12.754	-113.059	 -8.334	-105.808	 -8.362	-105.755	-20.638	 75.926
   16.900000000	-12.238	-118.501	 -8.351	-116.350	 -8.382	-116.303	-22.021	 58.803
   17.000000000	-11.974	-119.983	 -8.363	-126.703	 -8.397	-126.660	-22.438	 41.698
   17.100000000	-11.897	-124.398	 -8.379	-137.145	 -8.409	-137.110	-23.551	 11.564
   17.200000000	-11.639	-125.005	 -8.404	-147.561	 -8.428	-147.499	-21.436	-15.332
   17.300000000	-12.009	-126.962	 -8.410	-157.917	 -8.445	-157.864	-19.788	-35.647
   17.400000000	-12.180	-128.559	 -8.436	-168.283	 -8.468	-168.214	-17.583	-50.881
   17.500000000	-12.773	-131.067	 -8.455	-178.644	 -8.481	-178.607	-15.958	-60.385
   17.600000000	-13.612	-134.082	 -8.477	170.892	 -8.510	170.936	-14.584	-67.170
   17.700000000	-14.927	-137.954	 -8.505	160.389	 -8.529	160.427	-13.611	-71.670
   17.800000000	-16.855	-142.728	 -8.527	149.741	 -8.557	149.773	-12.978	-75.117
   17.900000000	-20.036	-148.628	 -8.556	138.975	 -8.585	139.008	-12.592	-77.227
   18.000000000	-25.565	-165.222	 -8.590	128.001	 -8.620	128.048	-12.308	-78.120
   18.100000000	-34.469	106.281	 -8.640	116.899	 -8.672	116.929	-12.195	-78.900
   18.200000000	-24.147	 46.208	 -8.710	105.659	 -8.741	105.717	-12.212	-79.749
   18.300000000	-19.308	 33.372	 -8.797	 94.474	 -8.827	 94.455	-12.365	-80.078
   18.400000000	-16.286	 27.035	 -8.901	 83.168	 -8.936	 83.210	-12.637	-81.795
   18.500000000	-14.680	 22.278	 -9.033	 71.973	 -9.056	 72.026	-13.129	-85.023
   18.600000000	-13.620	 18.870	 -9.181	 60.957	 -9.205	 60.993	-13.963	-89.724
   18.700000000	-13.224	 17.596	 -9.357	 50.215	 -9.381	 50.270	-15.396	-97.385
   18.800000000	-13.214	 18.866	 -9.528	 40.108	 -9.560	 40.087	-17.464	-109.647
   18.900000000	-13.305	 23.227	 -9.649	 30.584	 -9.678	 30.599	-20.565	-132.731
   19.000000000	-13.071	 30.581	 -9.611	 21.622	 -9.634	 21.613	-23.579	175.074
   19.100000000	-12.340	 34.989	 -9.361	 11.984	 -9.396	 12.114	-21.223	120.102
   19.200000000	-11.707	 38.183	 -9.045	  1.206	 -9.087	  1.365	-18.060	 92.434
   19.300000000	-11.417	 36.609	 -8.790	-10.581	 -8.826	-10.477	-15.561	 77.365
   19.400000000	-11.400	 36.729	 -8.616	-22.957	 -8.654	-22.831	-14.398	 66.333
   19.500000000	-12.136	 35.057	 -8.505	-35.533	 -8.540	-35.407	-13.563	 56.935
   19.600000000	-12.642	 34.161	 -8.447	-48.189	 -8.480	-48.037	-13.314	 50.243
   19.700000000	-13.670	 33.927	 -8.389	-60.972	 -8.433	-60.790	-13.454	 42.518
   19.800000000	-14.878	 32.721	 -8.347	-73.987	 -8.385	-73.873	-13.981	 36.287
   19.900000000	-16.483	 33.083	 -8.312	-87.266	 -8.353	-87.159	-15.004	 29.848
   20.000000000	-17.835	 34.024	 -8.312	-100.820	 -8.353	-100.668	-16.323	 23.621
