! Date: Wednesday, June 05, 2013  1:52 PM
! Filename: C:\Data\Mike_Arnold\TGP2105-SM\Over_Temp\TGP2105-SM_EVB01_25C_Phase56.s2p 
! Comments: 
!^VDC(V):5.000
!^VDC(mA):0.061
!%Freq(GHz),S11(dB),S11(ang),S21(dB),S21(ang),S12(dB),S12(ang),S22(dB),S22(ang)
# GHz   S   DB   R   50
    5.000000000	 -8.463	 91.883	 -6.988	 87.545	 -7.002	 87.526	 -8.517	-131.241
    5.100000000	 -9.403	 82.442	 -6.843	 71.377	 -6.859	 71.380	 -8.174	-142.575
    5.200000000	-10.751	 72.595	 -6.698	 55.434	 -6.712	 55.402	 -8.076	-153.041
    5.300000000	-12.692	 62.146	 -6.568	 39.546	 -6.585	 39.535	 -8.172	-162.877
    5.400000000	-15.740	 51.053	 -6.458	 23.815	 -6.473	 23.790	 -8.434	-171.158
    5.500000000	-21.332	 41.087	 -6.380	  8.247	 -6.395	  8.257	 -8.821	-177.813
    5.600000000	-39.103	 62.734	 -6.308	 -7.038	 -6.319	 -7.061	 -9.213	177.617
    5.700000000	-23.645	-167.732	 -6.250	-22.604	 -6.262	-22.600	 -9.506	175.319
    5.800000000	-16.886	-174.091	 -6.301	-38.048	 -6.311	-38.103	 -9.432	174.187
    5.900000000	-13.125	174.799	 -6.435	-52.998	 -6.454	-53.006	 -9.091	172.726
    6.000000000	-10.830	163.182	 -6.615	-67.231	 -6.628	-67.247	 -8.645	169.763
    6.100000000	 -9.334	152.101	 -6.799	-80.805	 -6.810	-80.803	 -8.220	165.799
    6.200000000	 -8.269	141.418	 -6.952	-93.681	 -6.963	-93.690	 -7.852	161.056
    6.300000000	 -7.528	130.650	 -7.065	-106.163	 -7.081	-106.196	 -7.608	155.528
    6.400000000	 -7.104	120.124	 -7.122	-118.294	 -7.135	-118.319	 -7.513	149.336
    6.500000000	 -6.876	109.820	 -7.109	-130.209	 -7.122	-130.256	 -7.575	142.983
    6.600000000	 -6.755	 99.501	 -7.067	-142.029	 -7.080	-142.067	 -7.745	136.310
    6.700000000	 -6.813	 88.571	 -6.944	-153.970	 -6.964	-153.982	 -8.095	129.186
    6.800000000	 -7.010	 77.396	 -6.782	-166.098	 -6.806	-166.015	 -8.619	121.848
    6.900000000	 -7.320	 66.036	 -6.602	-178.350	 -6.626	-178.293	 -9.318	114.381
    7.000000000	 -7.717	 54.049	 -6.415	169.079	 -6.438	169.164	-10.215	106.416
    7.100000000	 -8.220	 41.680	 -6.226	156.330	 -6.250	156.411	-11.346	 98.435
    7.200000000	 -8.803	 29.136	 -6.052	143.434	 -6.076	143.471	-12.705	 90.439
    7.300000000	 -9.430	 16.475	 -5.901	130.345	 -5.928	130.406	-14.248	 82.641
    7.400000000	-10.088	  3.741	 -5.778	117.186	 -5.801	117.266	-16.035	 75.069
    7.500000000	-10.806	 -8.828	 -5.676	104.047	 -5.702	104.084	-18.041	 68.714
    7.600000000	-11.555	-20.883	 -5.602	 90.891	 -5.632	 90.953	-20.074	 64.591
    7.700000000	-12.378	-32.444	 -5.556	 77.831	 -5.577	 77.902	-21.941	 63.078
    7.800000000	-13.328	-43.312	 -5.521	 64.865	 -5.545	 64.907	-23.250	 66.829
    7.900000000	-14.503	-53.623	 -5.506	 51.939	 -5.530	 52.018	-23.098	 72.964
    8.000000000	-15.931	-63.079	 -5.505	 39.140	 -5.529	 39.200	-21.618	 75.980
    8.100000000	-17.798	-72.072	 -5.524	 26.395	 -5.552	 26.448	-19.785	 74.516
    8.200000000	-20.331	-79.685	 -5.562	 13.763	 -5.586	 13.853	-17.867	 70.166
    8.300000000	-24.108	-84.145	 -5.618	  1.352	 -5.643	  1.428	-16.026	 64.049
    8.400000000	-29.904	-77.948	 -5.680	-10.916	 -5.708	-10.834	-14.571	 56.845
    8.500000000	-37.072	-16.507	 -5.757	-23.023	 -5.785	-22.940	-13.389	 49.420
    8.600000000	-29.866	 30.603	 -5.838	-34.927	 -5.862	-34.817	-12.441	 42.349
    8.700000000	-25.779	 33.207	 -5.901	-46.641	 -5.927	-46.561	-11.801	 35.087
    8.800000000	-23.988	 29.220	 -5.954	-58.272	 -5.985	-58.170	-11.439	 28.000
    8.900000000	-23.351	 24.447	 -5.997	-69.764	 -6.030	-69.687	-11.348	 21.697
    9.000000000	-23.600	 19.677	 -6.023	-81.214	 -6.052	-81.142	-11.464	 14.989
    9.100000000	-24.947	 15.368	 -6.029	-92.710	 -6.062	-92.618	-11.821	  8.988
    9.200000000	-27.980	 14.762	 -6.025	-104.216	 -6.051	-104.149	-12.527	  3.439
    9.300000000	-33.445	 29.238	 -6.018	-115.768	 -6.046	-115.687	-13.323	 -1.958
    9.400000000	-36.312	100.090	 -6.011	-127.352	 -6.040	-127.243	-14.386	 -6.780
    9.500000000	-29.320	137.461	 -6.010	-138.970	 -6.035	-138.901	-15.662	-12.182
    9.600000000	-24.980	141.173	 -6.012	-150.610	 -6.042	-150.484	-16.974	-17.861
    9.700000000	-22.445	142.791	 -6.025	-162.169	 -6.046	-162.083	-18.312	-24.600
    9.800000000	-20.603	143.871	 -6.041	-173.717	 -6.070	-173.624	-19.625	-35.566
    9.900000000	-19.272	145.029	 -6.072	174.749	 -6.100	174.819	-20.468	-50.946
   10.000000000	-18.753	136.274	 -6.118	163.244	 -6.152	163.317	-19.430	-63.752
   10.100000000	-17.764	135.417	 -6.160	151.807	 -6.198	151.871	-18.541	-78.727
   10.200000000	-16.499	135.014	 -6.222	140.451	 -6.250	140.533	-17.363	-90.812
   10.300000000	-15.546	133.520	 -6.288	129.176	 -6.317	129.259	-16.045	-102.407
   10.400000000	-14.490	131.188	 -6.358	117.982	 -6.390	118.071	-14.707	-111.839
   10.500000000	-13.635	128.636	 -6.438	106.964	 -6.470	107.033	-13.672	-120.520
   10.600000000	-12.846	124.775	 -6.534	 95.977	 -6.565	 96.060	-12.581	-128.421
   10.700000000	-12.302	120.319	 -6.630	 85.256	 -6.649	 85.221	-11.824	-135.509
   10.800000000	-11.825	115.821	 -6.723	 74.502	 -6.745	 74.466	-11.181	-142.681
   10.900000000	-11.622	110.585	 -6.812	 63.871	 -6.835	 63.849	-10.705	-149.036
   11.000000000	-11.481	105.499	 -6.895	 53.288	 -6.916	 53.271	-10.382	-155.714
   11.100000000	-11.599	 99.877	 -6.967	 42.776	 -6.980	 42.725	-10.212	-162.100
   11.200000000	-11.817	 94.639	 -7.025	 32.245	 -7.048	 32.220	-10.119	-168.430
   11.300000000	-12.255	 89.111	 -7.078	 21.737	 -7.099	 21.738	-10.118	-174.880
   11.400000000	-12.873	 83.520	 -7.125	 11.216	 -7.140	 11.201	-10.182	178.576
   11.500000000	-13.725	 78.358	 -7.167	  0.710	 -7.186	  0.675	-10.286	172.093
   11.600000000	-14.823	 72.784	 -7.203	 -9.853	 -7.221	 -9.924	-10.397	165.491
   11.700000000	-16.357	 67.542	 -7.236	-20.516	 -7.253	-20.508	-10.517	158.880
   11.800000000	-18.457	 62.971	 -7.271	-31.165	 -7.288	-31.178	-10.580	152.352
   11.900000000	-21.323	 60.130	 -7.310	-41.838	 -7.330	-41.873	-10.581	145.803
   12.000000000	-26.029	 60.422	 -7.356	-52.580	 -7.377	-52.598	-10.508	139.256
   12.100000000	-35.463	 99.175	 -7.412	-63.349	 -7.426	-63.369	-10.372	133.216
   12.200000000	-28.705	-176.454	 -7.475	-74.109	 -7.493	-74.174	-10.182	127.125
   12.300000000	-22.639	-172.014	 -7.553	-84.891	 -7.570	-84.925	 -9.927	121.223
   12.400000000	-18.960	-175.290	 -7.639	-95.709	 -7.653	-95.726	 -9.653	115.508
   12.500000000	-16.539	178.411	 -7.735	-106.415	 -7.746	-106.501	 -9.362	110.080
   12.600000000	-14.711	170.804	 -7.836	-117.182	 -7.852	-117.252	 -9.081	104.598
   12.700000000	-13.435	162.674	 -7.941	-127.889	 -7.960	-127.937	 -8.826	 99.460
   12.800000000	-12.379	153.682	 -8.045	-138.600	 -8.064	-138.645	 -8.621	 94.428
   12.900000000	-11.566	143.937	 -8.155	-149.236	 -8.170	-149.279	 -8.452	 89.396
   13.000000000	-10.930	133.894	 -8.260	-159.881	 -8.272	-159.905	 -8.340	 84.540
   13.100000000	-10.409	123.674	 -8.359	-170.485	 -8.374	-170.515	 -8.275	 79.650
   13.200000000	 -9.910	113.156	 -8.461	178.980	 -8.479	178.929	 -8.278	 74.662
   13.300000000	 -9.503	102.307	 -8.554	168.499	 -8.572	168.434	 -8.338	 69.598
   13.400000000	 -9.092	 91.825	 -8.641	157.998	 -8.647	157.936	 -8.468	 64.535
   13.500000000	 -8.678	 81.258	 -8.728	147.498	 -8.743	147.466	 -8.619	 58.846
   13.600000000	 -8.256	 70.970	 -8.822	137.049	 -8.835	136.981	 -8.847	 53.120
   13.700000000	 -7.905	 61.267	 -8.906	126.723	 -8.923	126.679	 -9.115	 46.755
   13.800000000	 -7.542	 52.246	 -9.004	116.473	 -9.021	116.422	 -9.398	 40.188
   13.900000000	 -7.213	 44.240	 -9.097	106.286	 -9.107	106.188	 -9.737	 33.026
   14.000000000	 -6.921	 36.382	 -9.181	 96.212	 -9.191	 96.147	-10.062	 25.807
   14.100000000	 -6.713	 29.756	 -9.251	 86.235	 -9.259	 86.191	-10.430	 18.231
   14.200000000	 -6.555	 23.570	 -9.299	 76.365	 -9.314	 76.325	-10.859	 10.795
   14.300000000	 -6.473	 18.301	 -9.332	 66.557	 -9.339	 66.469	-11.325	  3.956
   14.400000000	 -6.481	 13.649	 -9.333	 56.738	 -9.350	 56.672	-11.877	 -2.144
   14.500000000	 -6.525	  9.885	 -9.317	 46.897	 -9.324	 46.844	-12.551	 -8.111
   14.600000000	 -6.715	  6.397	 -9.261	 37.031	 -9.275	 36.984	-13.357	-11.950
   14.700000000	 -6.912	  4.452	 -9.189	 27.034	 -9.202	 26.975	-14.439	-14.056
   14.800000000	 -7.247	  2.655	 -9.095	 16.883	 -9.102	 16.821	-15.509	-13.831
   14.900000000	 -7.534	  1.460	 -8.994	  6.626	 -9.007	  6.595	-16.741	 -8.702
   15.000000000	 -7.919	  1.832	 -8.882	 -3.765	 -8.900	 -3.772	-17.671	  0.689
   15.100000000	 -8.259	  1.687	 -8.787	-14.224	 -8.800	-14.291	-17.832	 12.515
   15.200000000	 -8.651	  2.301	 -8.692	-24.800	 -8.709	-24.830	-17.217	 23.536
   15.300000000	 -8.979	  2.687	 -8.620	-35.344	 -8.636	-35.398	-16.101	 30.958
   15.400000000	 -9.320	  2.268	 -8.556	-45.923	 -8.570	-45.972	-15.061	 34.426
   15.500000000	 -9.814	  1.447	 -8.497	-56.507	 -8.512	-56.547	-14.171	 35.267
   15.600000000	-10.325	 -0.483	 -8.452	-67.062	 -8.473	-67.058	-13.544	 35.522
   15.700000000	-11.000	 -3.832	 -8.411	-77.611	 -8.438	-77.648	-13.131	 34.604
   15.800000000	-11.853	 -8.932	 -8.384	-88.230	 -8.397	-88.242	-12.994	 33.332
   15.900000000	-12.823	-15.088	 -8.358	-98.851	 -8.377	-98.924	-12.982	 31.763
   16.000000000	-13.909	-23.993	 -8.339	-109.642	 -8.358	-109.652	-13.178	 30.783
   16.100000000	-14.894	-35.944	 -8.323	-120.564	 -8.355	-120.529	-13.591	 28.153
   16.200000000	-15.664	-49.518	 -8.330	-131.519	 -8.357	-131.462	-14.053	 25.749
   16.300000000	-15.883	-64.233	 -8.344	-142.549	 -8.375	-142.500	-14.941	 22.251
   16.400000000	-15.547	-77.842	 -8.366	-153.637	 -8.393	-153.601	-16.076	 16.990
   16.500000000	-14.908	-90.078	 -8.401	-164.774	 -8.426	-164.717	-17.625	 11.209
   16.600000000	-14.107	-98.046	 -8.438	-175.892	 -8.465	-175.827	-19.932	  1.730
   16.700000000	-13.151	-106.232	 -8.490	172.993	 -8.519	173.073	-22.882	-11.827
   16.800000000	-12.554	-109.721	 -8.537	162.010	 -8.564	162.080	-28.782	-45.677
   16.900000000	-11.852	-115.715	 -8.589	151.044	 -8.619	151.074	-27.588	-99.466
   17.000000000	-11.428	-117.965	 -8.628	140.259	 -8.657	140.302	-25.376	-140.345
   17.100000000	-11.217	-123.462	 -8.658	129.520	 -8.689	129.544	-21.766	-155.543
   17.200000000	-10.947	-125.743	 -8.678	118.846	 -8.704	118.901	-20.789	-167.508
   17.300000000	-11.310	-129.159	 -8.666	108.224	 -8.693	108.287	-19.742	-179.522
   17.400000000	-11.578	-132.165	 -8.645	 97.561	 -8.670	 97.614	-19.588	172.025
   17.500000000	-12.315	-135.801	 -8.594	 86.812	 -8.623	 86.820	-19.975	160.899
   17.600000000	-13.297	-139.513	 -8.534	 75.883	 -8.561	 75.875	-20.990	147.846
   17.700000000	-14.731	-143.867	 -8.472	 64.668	 -8.500	 64.677	-22.326	129.181
   17.800000000	-16.632	-149.057	 -8.421	 53.285	 -8.444	 53.298	-22.918	104.610
   17.900000000	-19.466	-156.259	 -8.369	 41.634	 -8.401	 41.686	-22.156	 78.463
   18.000000000	-23.377	-175.360	 -8.332	 29.831	 -8.360	 29.873	-20.302	 57.416
   18.100000000	-27.757	134.285	 -8.324	 17.796	 -8.347	 17.856	-18.179	 44.558
   18.200000000	-23.550	 78.809	 -8.329	  5.759	 -8.351	  5.743	-16.226	 36.948
   18.300000000	-19.040	 58.870	 -8.365	 -6.386	 -8.386	 -6.340	-14.355	 31.223
   18.400000000	-15.570	 49.050	 -8.414	-18.465	 -8.437	-18.436	-12.844	 27.010
   18.500000000	-13.320	 42.428	 -8.472	-30.432	 -8.504	-30.357	-11.614	 23.313
   18.600000000	-11.573	 36.711	 -8.541	-42.176	 -8.574	-42.137	-10.580	 19.883
   18.700000000	-10.371	 31.886	 -8.607	-53.683	 -8.634	-53.678	 -9.785	 16.916
   18.800000000	 -9.564	 27.570	 -8.653	-65.077	 -8.682	-65.055	 -9.254	 13.371
   18.900000000	 -9.109	 23.392	 -8.676	-76.360	 -8.704	-76.287	 -8.978	  9.890
   19.000000000	 -8.980	 19.808	 -8.663	-87.459	 -8.690	-87.425	 -8.925	  7.631
   19.100000000	 -9.095	 15.864	 -8.627	-98.654	 -8.666	-98.538	 -9.061	  5.212
   19.200000000	 -9.610	 13.472	 -8.551	-109.776	 -8.590	-109.667	 -9.396	  2.699
   19.300000000	-10.354	  9.388	 -8.439	-121.170	 -8.474	-121.065	 -9.947	  2.141
   19.400000000	-11.487	  8.221	 -8.318	-132.899	 -8.346	-132.795	-10.695	  1.017
   19.500000000	-13.276	  4.790	 -8.188	-145.117	 -8.224	-144.972	-11.378	  1.935
   19.600000000	-14.999	  4.957	 -8.086	-157.597	 -8.118	-157.489	-12.242	  3.936
   19.700000000	-17.510	  6.557	 -7.997	-170.332	 -8.033	-170.214	-12.839	  5.858
   19.800000000	-20.155	  9.716	 -7.928	176.626	 -7.963	176.756	-13.393	  8.085
   19.900000000	-23.590	 16.952	 -7.875	163.361	 -7.911	163.437	-13.869	  8.386
   20.000000000	-26.253	 30.167	 -7.847	149.908	 -7.884	150.024	-14.242	  7.412
