! Date: Wednesday, June 05, 2013  1:49 PM
! Filename: C:\Data\Mike_Arnold\TGP2105-SM\Over_Temp\TGP2105-SM_EVB01_25C_Phase0.s2p 
! Comments: 
!^VDC(V):5.000
!^VDC(mA):0.010
!%Freq(GHz),S11(dB),S11(ang),S21(dB),S21(ang),S12(dB),S12(ang),S22(dB),S22(ang)
# GHz   S   DB   R   50
    5.000000000	-12.108	-130.654	 -8.386	108.575	 -8.401	108.534	 -5.324	101.871
    5.100000000	 -9.656	-150.490	 -8.539	 93.496	 -8.564	 93.478	 -5.305	 97.430
    5.200000000	 -7.981	-166.629	 -8.718	 79.198	 -8.731	 79.168	 -5.281	 92.516
    5.300000000	 -6.860	179.397	 -8.876	 65.616	 -8.893	 65.590	 -5.248	 87.298
    5.400000000	 -6.106	166.998	 -8.984	 52.634	 -9.002	 52.603	 -5.278	 81.387
    5.500000000	 -5.592	156.026	 -9.041	 40.136	 -9.053	 40.075	 -5.381	 75.011
    5.600000000	 -5.250	145.593	 -9.020	 27.907	 -9.042	 27.889	 -5.598	 68.368
    5.700000000	 -5.076	135.711	 -8.935	 15.764	 -8.949	 15.742	 -5.914	 61.183
    5.800000000	 -5.062	126.551	 -8.780	  3.731	 -8.796	  3.696	 -6.370	 53.419
    5.900000000	 -5.129	117.899	 -8.572	 -8.467	 -8.586	 -8.512	 -7.026	 45.030
    6.000000000	 -5.311	109.367	 -8.324	-20.925	 -8.342	-20.992	 -7.892	 36.161
    6.100000000	 -5.652	101.005	 -8.066	-33.622	 -8.081	-33.650	 -9.055	 26.638
    6.200000000	 -6.116	 93.207	 -7.792	-46.437	 -7.810	-46.422	-10.611	 17.012
    6.300000000	 -6.690	 85.735	 -7.502	-59.346	 -7.518	-59.376	-12.499	  7.800
    6.400000000	 -7.436	 78.916	 -7.173	-72.899	 -7.191	-72.899	-14.718	 -1.997
    6.500000000	 -8.223	 73.240	 -6.932	-87.039	 -6.944	-87.087	-17.740	-13.231
    6.600000000	 -8.948	 68.456	 -6.778	-101.068	 -6.795	-101.113	-22.474	-24.187
    6.700000000	 -9.642	 63.341	 -6.681	-115.053	 -6.693	-115.100	-31.141	-24.631
    6.800000000	-10.328	 58.405	 -6.605	-128.974	 -6.628	-128.913	-34.979	 86.134
    6.900000000	-10.963	 53.687	 -6.573	-142.635	 -6.598	-142.580	-26.139	 94.534
    7.000000000	-11.498	 48.418	 -6.569	-156.115	 -6.594	-156.047	-22.323	 82.055
    7.100000000	-11.988	 42.769	 -6.574	-169.449	 -6.602	-169.395	-20.127	 67.185
    7.200000000	-12.413	 36.995	 -6.594	177.412	 -6.617	177.446	-18.614	 51.856
    7.300000000	-12.725	 30.932	 -6.624	164.339	 -6.649	164.419	-17.334	 36.727
    7.400000000	-12.935	 24.420	 -6.662	151.445	 -6.686	151.496	-16.219	 21.786
    7.500000000	-13.101	 17.767	 -6.699	138.660	 -6.728	138.742	-15.281	  7.546
    7.600000000	-13.130	 11.155	 -6.744	126.045	 -6.766	126.089	-14.461	 -5.183
    7.700000000	-13.116	  4.390	 -6.789	113.539	 -6.811	113.615	-13.737	-16.940
    7.800000000	-13.082	 -2.254	 -6.822	101.194	 -6.842	101.267	-13.213	-28.146
    7.900000000	-13.097	 -8.832	 -6.848	 88.921	 -6.872	 89.013	-12.888	-38.513
    8.000000000	-13.107	-15.159	 -6.870	 76.778	 -6.897	 76.833	-12.797	-48.029
    8.100000000	-13.260	-21.400	 -6.871	 64.592	 -6.904	 64.730	-12.890	-57.873
    8.200000000	-13.516	-27.429	 -6.877	 52.414	 -6.899	 52.524	-13.278	-67.736
    8.300000000	-13.891	-32.769	 -6.864	 40.300	 -6.898	 40.417	-13.987	-77.911
    8.400000000	-14.365	-37.766	 -6.856	 28.091	 -6.885	 28.191	-14.951	-88.974
    8.500000000	-15.025	-42.809	 -6.851	 15.830	 -6.882	 15.923	-16.213	-101.858
    8.600000000	-15.714	-47.083	 -6.851	  3.496	 -6.885	  3.623	-17.803	-117.766
    8.700000000	-16.450	-51.690	 -6.867	 -8.854	 -6.896	 -8.763	-19.260	-137.639
    8.800000000	-17.188	-58.026	 -6.885	-21.263	 -6.919	-21.168	-20.108	-161.060
    8.900000000	-17.966	-66.416	 -6.923	-33.675	 -6.954	-33.578	-19.790	174.348
    9.000000000	-18.674	-77.987	 -6.972	-46.048	 -7.003	-45.963	-18.782	156.140
    9.100000000	-19.126	-93.990	 -7.034	-58.475	 -7.066	-58.365	-17.390	142.841
    9.200000000	-19.060	-114.905	 -7.112	-70.809	 -7.139	-70.755	-15.864	134.855
    9.300000000	-18.318	-137.173	 -7.200	-83.166	 -7.230	-83.051	-14.590	128.598
    9.400000000	-17.001	-157.651	 -7.312	-95.408	 -7.345	-95.329	-13.326	123.990
    9.500000000	-15.412	-174.874	 -7.450	-107.502	 -7.476	-107.430	-12.220	120.532
    9.600000000	-14.018	170.302	 -7.590	-119.426	 -7.621	-119.305	-11.277	116.783
    9.700000000	-12.837	158.306	 -7.744	-131.133	 -7.770	-131.082	-10.444	112.834
    9.800000000	-11.922	147.692	 -7.891	-142.590	 -7.923	-142.494	 -9.804	109.423
    9.900000000	-11.298	138.150	 -8.033	-153.853	 -8.068	-153.745	 -9.333	105.731
   10.000000000	-11.265	123.582	 -8.131	-165.593	 -8.160	-165.460	 -9.232	101.573
   10.100000000	-11.092	113.547	 -8.226	-176.737	 -8.260	-176.580	 -9.106	 97.272
   10.200000000	-11.001	104.971	 -8.313	172.320	 -8.342	172.452	 -9.055	 92.459
   10.300000000	-11.212	 96.220	 -8.373	161.513	 -8.404	161.575	 -9.110	 87.968
   10.400000000	-11.556	 88.232	 -8.415	150.665	 -8.454	150.805	 -9.271	 83.136
   10.500000000	-12.223	 80.675	 -8.441	139.956	 -8.481	140.023	 -9.423	 78.062
   10.600000000	-13.083	 73.292	 -8.460	129.172	 -8.495	129.324	 -9.730	 73.251
   10.700000000	-14.330	 65.817	 -8.471	118.499	 -8.495	118.468	-10.004	 67.929
   10.800000000	-16.038	 59.368	 -8.472	107.627	 -8.493	107.624	-10.287	 62.825
   10.900000000	-18.516	 51.877	 -8.476	 96.798	 -8.489	 96.754	-10.560	 57.118
   11.000000000	-22.272	 46.524	 -8.477	 85.843	 -8.491	 85.824	-10.747	 51.600
   11.100000000	-29.805	 39.924	 -8.482	 74.952	 -8.502	 74.904	-10.839	 45.725
   11.200000000	-36.556	-161.422	 -8.501	 64.009	 -8.518	 63.953	-10.888	 39.852
   11.300000000	-24.134	-159.528	 -8.529	 53.073	 -8.543	 53.022	-10.826	 34.094
   11.400000000	-19.308	-165.615	 -8.566	 42.209	 -8.581	 42.193	-10.695	 28.221
   11.500000000	-16.202	-172.358	 -8.618	 31.428	 -8.632	 31.380	-10.544	 22.359
   11.600000000	-14.108	-179.219	 -8.674	 20.744	 -8.695	 20.737	-10.362	 16.625
   11.700000000	-12.518	174.107	 -8.738	 10.168	 -8.755	 10.157	-10.155	 10.864
   11.800000000	-11.282	167.543	 -8.803	 -0.233	 -8.824	 -0.272	-10.004	  5.211
   11.900000000	-10.340	160.676	 -8.868	-10.518	 -8.885	-10.542	 -9.885	 -0.280
   12.000000000	 -9.649	154.022	 -8.934	-20.642	 -8.952	-20.679	 -9.828	 -5.555
   12.100000000	 -9.102	147.605	 -8.991	-30.722	 -9.004	-30.775	 -9.867	-11.137
   12.200000000	 -8.703	141.257	 -9.038	-40.654	 -9.052	-40.727	 -9.946	-16.555
   12.300000000	 -8.426	134.656	 -9.074	-50.553	 -9.090	-50.658	-10.139	-22.035
   12.400000000	 -8.265	128.345	 -9.099	-60.468	 -9.117	-60.506	-10.406	-27.522
   12.500000000	 -8.167	121.746	 -9.120	-70.347	 -9.136	-70.399	-10.786	-33.225
   12.600000000	 -8.125	115.217	 -9.133	-80.232	 -9.148	-80.315	-11.251	-38.945
   12.700000000	 -8.175	108.251	 -9.130	-90.198	 -9.143	-90.264	-11.819	-45.107
   12.800000000	 -8.213	101.357	 -9.127	-100.189	 -9.138	-100.278	-12.469	-51.517
   12.900000000	 -8.257	 94.086	 -9.115	-110.251	 -9.128	-110.310	-13.213	-58.189
   13.000000000	 -8.319	 86.638	 -9.103	-120.390	 -9.121	-120.439	-14.063	-65.340
   13.100000000	 -8.374	 79.135	 -9.093	-130.548	 -9.110	-130.595	-14.998	-72.903
   13.200000000	 -8.365	 71.732	 -9.083	-140.696	 -9.099	-140.784	-15.987	-80.733
   13.300000000	 -8.332	 63.959	 -9.079	-150.924	 -9.092	-150.987	-17.047	-88.839
   13.400000000	 -8.279	 56.705	 -9.071	-161.155	 -9.089	-161.222	-18.205	-97.450
   13.500000000	 -8.158	 49.604	 -9.078	-171.328	 -9.091	-171.429	-19.571	-104.561
   13.600000000	 -7.975	 42.825	 -9.089	178.425	 -9.102	178.361	-21.172	-111.935
   13.700000000	 -7.819	 36.311	 -9.095	168.305	 -9.112	168.255	-23.158	-115.824
   13.800000000	 -7.613	 30.480	 -9.117	158.154	 -9.125	158.053	-26.133	-116.429
   13.900000000	 -7.409	 25.399	 -9.132	148.009	 -9.144	147.935	-30.141	-102.355
   14.000000000	 -7.175	 20.298	 -9.164	137.940	 -9.175	137.840	-32.222	-54.895
   14.100000000	 -6.993	 15.997	 -9.191	127.899	 -9.200	127.778	-27.413	-23.535
   14.200000000	 -6.802	 11.776	 -9.221	117.886	 -9.237	117.858	-23.448	-17.285
   14.300000000	 -6.650	  8.117	 -9.245	107.947	 -9.261	107.882	-20.600	-16.998
   14.400000000	 -6.547	  4.531	 -9.270	 98.078	 -9.282	 98.035	-18.581	-19.297
   14.500000000	 -6.470	  1.395	 -9.284	 88.302	 -9.298	 88.240	-17.091	-24.073
   14.600000000	 -6.523	 -2.079	 -9.271	 78.604	 -9.285	 78.511	-16.103	-27.767
   14.700000000	 -6.614	 -4.574	 -9.249	 68.967	 -9.260	 68.872	-15.589	-32.430
   14.800000000	 -6.852	 -7.584	 -9.193	 59.257	 -9.206	 59.172	-15.289	-36.854
   14.900000000	 -7.113	-10.463	 -9.123	 49.606	 -9.140	 49.533	-15.478	-40.573
   15.000000000	 -7.586	-12.450	 -9.023	 39.887	 -9.038	 39.830	-16.041	-44.475
   15.100000000	 -8.122	-15.090	 -8.918	 30.067	 -8.927	 30.015	-16.956	-47.673
   15.200000000	 -8.869	-17.259	 -8.790	 20.212	 -8.803	 20.130	-18.414	-50.364
   15.300000000	 -9.695	-19.306	 -8.671	 10.185	 -8.680	 10.154	-20.542	-50.366
   15.400000000	-10.637	-21.701	 -8.558	  0.143	 -8.571	  0.079	-23.422	-47.419
   15.500000000	-11.846	-24.327	 -8.446	-10.099	 -8.469	-10.122	-27.257	-34.513
   15.600000000	-13.112	-27.578	 -8.360	-20.309	 -8.377	-20.322	-31.080	  6.034
   15.700000000	-14.533	-32.865	 -8.293	-30.608	 -8.312	-30.599	-28.457	 50.212
   15.800000000	-16.047	-41.217	 -8.240	-40.933	 -8.255	-40.970	-24.924	 67.275
   15.900000000	-17.616	-52.359	 -8.200	-51.291	 -8.227	-51.335	-22.307	 72.978
   16.000000000	-18.711	-69.181	 -8.190	-61.678	 -8.208	-61.702	-20.271	 76.899
   16.100000000	-18.870	-89.413	 -8.181	-72.138	 -8.207	-72.100	-19.127	 77.491
   16.200000000	-18.293	-107.863	 -8.191	-82.555	 -8.220	-82.519	-17.963	 76.124
   16.300000000	-17.200	-121.975	 -8.207	-92.979	 -8.232	-92.911	-17.310	 74.805
   16.400000000	-16.069	-131.874	 -8.221	-103.382	 -8.254	-103.343	-16.930	 70.926
   16.500000000	-15.066	-139.872	 -8.240	-113.796	 -8.268	-113.758	-16.693	 66.120
   16.600000000	-14.514	-144.816	 -8.244	-124.198	 -8.275	-124.155	-16.928	 59.023
   16.700000000	-13.851	-149.229	 -8.256	-134.659	 -8.286	-134.627	-17.274	 49.354
   16.800000000	-13.970	-151.643	 -8.243	-145.054	 -8.268	-145.014	-18.346	 40.397
   16.900000000	-13.788	-154.529	 -8.241	-155.580	 -8.270	-155.494	-19.154	 19.396
   17.000000000	-14.254	-154.861	 -8.227	-166.061	 -8.258	-165.977	-19.527	  1.529
   17.100000000	-14.594	-158.730	 -8.223	-176.616	 -8.253	-176.550	-19.425	-24.457
   17.200000000	-15.226	-157.385	 -8.223	172.822	 -8.257	172.855	-18.007	-41.821
   17.300000000	-16.694	-160.418	 -8.221	162.218	 -8.250	162.277	-17.058	-56.628
   17.400000000	-18.263	-160.887	 -8.230	151.563	 -8.259	151.584	-15.745	-67.580
   17.500000000	-21.068	-164.131	 -8.250	140.830	 -8.280	140.883	-14.829	-74.391
   17.600000000	-26.018	-168.148	 -8.274	130.060	 -8.300	130.086	-14.026	-78.726
   17.700000000	-44.621	162.241	 -8.318	119.113	 -8.343	119.114	-13.439	-80.890
   17.800000000	-27.457	  9.313	 -8.367	108.131	 -8.400	108.133	-13.019	-82.219
   17.900000000	-20.690	  3.010	 -8.442	 96.994	 -8.469	 96.983	-12.705	-82.615
   18.000000000	-17.308	 -0.590	 -8.534	 85.833	 -8.558	 85.882	-12.409	-82.662
   18.100000000	-14.922	 -5.574	 -8.628	 74.640	 -8.657	 74.658	-12.237	-83.251
   18.200000000	-13.480	 -9.741	 -8.733	 63.433	 -8.763	 63.441	-12.265	-84.717
   18.300000000	-12.662	-14.444	 -8.836	 52.240	 -8.869	 52.233	-12.508	-86.112
   18.400000000	-12.282	-17.394	 -8.947	 40.964	 -8.978	 40.971	-12.993	-89.130
   18.500000000	-12.464	-20.599	 -9.076	 29.668	 -9.098	 29.653	-13.858	-93.635
   18.600000000	-13.026	-22.022	 -9.213	 18.370	 -9.241	 18.413	-15.252	-99.675
   18.700000000	-14.219	-21.399	 -9.399	  7.279	 -9.424	  7.281	-17.570	-109.616
   18.800000000	-16.018	-15.751	 -9.625	 -3.305	 -9.653	 -3.315	-21.165	-127.585
   18.900000000	-17.861	 -0.958	 -9.847	-12.989	 -9.872	-13.003	-26.192	-175.336
   19.000000000	-18.053	 23.333	 -9.921	-21.650	 -9.943	-21.664	-23.029	106.817
   19.100000000	-16.353	 37.669	 -9.720	-30.537	 -9.761	-30.451	-18.366	 74.811
   19.200000000	-14.939	 46.180	 -9.381	-40.695	 -9.419	-40.588	-16.120	 56.149
   19.300000000	-14.209	 47.501	 -9.067	-52.314	 -9.105	-52.189	-14.967	 45.160
   19.400000000	-13.649	 51.776	 -8.859	-64.681	 -8.893	-64.567	-15.019	 35.256
   19.500000000	-13.850	 55.047	 -8.745	-77.421	 -8.784	-77.319	-15.455	 28.796
   19.600000000	-13.477	 57.541	 -8.715	-90.206	 -8.751	-90.084	-16.648	 25.867
   19.700000000	-13.317	 60.329	 -8.718	-103.079	 -8.757	-102.954	-18.196	 24.661
   19.800000000	-13.151	 60.144	 -8.765	-116.028	 -8.809	-115.940	-20.153	 30.194
   19.900000000	-13.078	 58.779	 -8.843	-129.069	 -8.876	-128.962	-22.228	 41.994
   20.000000000	-12.900	 53.911	 -8.949	-142.099	 -8.990	-141.967	-22.973	 58.789
