! Date: Wednesday, June 05, 2013  1:49 PM
! Filename: C:\Data\Mike_Arnold\TGP2105-SM\Over_Temp\TGP2105-SM_EVB01_25C_Phase7.s2p 
! Comments: 
!^VDC(V):5.000
!^VDC(mA):0.100
!%Freq(GHz),S11(dB),S11(ang),S21(dB),S21(ang),S12(dB),S12(ang),S22(dB),S22(ang)
# GHz   S   DB   R   50
    5.000000000	-20.332	 53.091	 -7.358	166.216	 -7.373	166.171	 -7.010	 89.269
    5.100000000	-25.570	 -7.171	 -7.253	149.464	 -7.270	149.408	 -7.331	 84.416
    5.200000000	-21.763	-84.576	 -7.186	132.948	 -7.200	132.909	 -7.703	 80.142
    5.300000000	-16.773	-116.260	 -7.165	116.824	 -7.179	116.784	 -8.012	 76.636
    5.400000000	-13.621	-135.713	 -7.176	101.113	 -7.194	101.076	 -8.275	 72.997
    5.500000000	-11.460	-151.183	 -7.219	 85.891	 -7.235	 85.861	 -8.497	 69.037
    5.600000000	-10.027	-165.220	 -7.266	 71.172	 -7.276	 71.135	 -8.752	 64.571
    5.700000000	 -9.078	-177.688	 -7.293	 56.863	 -7.310	 56.811	 -9.036	 59.025
    5.800000000	 -8.480	171.334	 -7.303	 42.934	 -7.322	 42.876	 -9.438	 52.420
    5.900000000	 -8.080	161.069	 -7.288	 29.182	 -7.308	 29.141	-10.067	 44.487
    6.000000000	 -7.930	151.446	 -7.262	 15.611	 -7.278	 15.574	-10.917	 35.380
    6.100000000	 -8.015	142.767	 -7.213	  2.195	 -7.233	  2.169	-12.124	 24.436
    6.200000000	 -8.252	134.980	 -7.158	-11.025	 -7.174	-11.061	-13.830	 11.803
    6.300000000	 -8.653	127.834	 -7.054	-24.093	 -7.074	-24.132	-16.036	 -2.526
    6.400000000	 -9.258	122.536	 -6.884	-37.554	 -6.895	-37.568	-18.479	-21.044
    6.500000000	 -9.751	119.031	 -6.784	-51.582	 -6.794	-51.606	-20.881	-50.346
    6.600000000	-10.046	115.919	 -6.766	-65.400	 -6.777	-65.395	-22.046	-92.117
    6.700000000	-10.318	112.281	 -6.774	-78.968	 -6.792	-79.011	-21.001	-131.777
    6.800000000	-10.540	108.384	 -6.800	-92.411	 -6.826	-92.401	-19.107	-160.298
    6.900000000	-10.688	104.166	 -6.848	-105.564	 -6.873	-105.500	-17.545	178.904
    7.000000000	-10.829	 98.614	 -6.899	-118.500	 -6.925	-118.456	-16.572	161.549
    7.100000000	-10.974	 92.370	 -6.949	-131.248	 -6.974	-131.183	-15.970	146.004
    7.200000000	-11.121	 85.424	 -7.000	-143.871	 -7.021	-143.776	-15.636	131.239
    7.300000000	-11.256	 77.585	 -7.040	-156.372	 -7.066	-156.244	-15.427	116.204
    7.400000000	-11.397	 68.917	 -7.073	-168.750	 -7.101	-168.651	-15.360	100.920
    7.500000000	-11.531	 59.862	 -7.106	178.971	 -7.136	179.036	-15.331	 85.861
    7.600000000	-11.581	 50.320	 -7.140	166.763	 -7.167	166.850	-15.181	 70.869
    7.700000000	-11.609	 40.551	 -7.170	154.683	 -7.192	154.749	-14.926	 56.196
    7.800000000	-11.610	 30.802	 -7.183	142.669	 -7.211	142.744	-14.650	 42.585
    7.900000000	-11.628	 21.358	 -7.201	130.741	 -7.225	130.805	-14.315	 30.464
    8.000000000	-11.628	 11.899	 -7.203	118.907	 -7.234	118.995	-13.982	 19.886
    8.100000000	-11.738	  2.771	 -7.199	107.117	 -7.230	107.190	-13.825	  9.987
    8.200000000	-11.931	 -6.228	 -7.181	 95.329	 -7.216	 95.398	-13.847	  1.657
    8.300000000	-12.280	-14.726	 -7.154	 83.618	 -7.183	 83.691	-14.060	 -5.430
    8.400000000	-12.767	-23.048	 -7.110	 71.827	 -7.142	 71.862	-14.513	-11.732
    8.500000000	-13.595	-31.267	 -7.062	 59.926	 -7.090	 60.013	-15.331	-16.967
    8.600000000	-14.654	-38.874	 -7.013	 47.940	 -7.047	 48.021	-16.516	-19.918
    8.700000000	-16.042	-45.872	 -6.972	 35.836	 -7.007	 35.925	-18.106	-21.075
    8.800000000	-17.800	-52.577	 -6.946	 23.668	 -6.977	 23.756	-20.104	-18.470
    8.900000000	-20.109	-58.215	 -6.933	 11.466	 -6.965	 11.541	-22.543	 -8.550
    9.000000000	-22.792	-62.229	 -6.937	 -0.753	 -6.970	 -0.669	-24.401	  7.920
    9.100000000	-25.755	-64.977	 -6.952	-12.949	 -6.985	-12.838	-24.923	 30.274
    9.200000000	-28.999	-71.434	 -6.978	-25.056	 -7.009	-24.980	-24.549	 51.189
    9.300000000	-32.025	-87.589	 -7.010	-37.162	 -7.041	-37.071	-23.511	 64.629
    9.400000000	-32.174	-118.518	 -7.047	-49.246	 -7.080	-49.141	-22.478	 77.482
    9.500000000	-28.382	-146.587	 -7.087	-61.229	 -7.121	-61.137	-21.608	 90.334
    9.600000000	-24.648	-163.153	 -7.136	-73.177	 -7.170	-73.074	-20.287	101.057
    9.700000000	-21.394	-172.524	 -7.195	-85.053	 -7.228	-85.008	-18.637	108.763
    9.800000000	-18.743	178.936	 -7.268	-96.964	 -7.300	-96.854	-17.033	114.524
    9.900000000	-16.728	171.282	 -7.355	-108.672	 -7.385	-108.569	-15.605	116.811
   10.000000000	-16.529	157.548	 -7.399	-120.576	 -7.434	-120.483	-15.214	116.927
   10.100000000	-15.499	148.737	 -7.476	-132.204	 -7.509	-132.079	-14.387	115.696
   10.200000000	-14.496	140.884	 -7.555	-143.652	 -7.583	-143.554	-13.718	112.611
   10.300000000	-13.952	133.320	 -7.637	-154.969	 -7.670	-154.865	-13.206	109.398
   10.400000000	-13.521	126.221	 -7.705	-166.188	 -7.742	-166.072	-12.942	105.349
   10.500000000	-13.393	120.113	 -7.774	-177.295	 -7.813	-177.202	-12.718	100.265
   10.600000000	-13.430	113.890	 -7.834	171.735	 -7.874	171.824	-12.751	 95.728
   10.700000000	-13.754	108.219	 -7.897	160.867	 -7.920	160.820	-12.838	 90.076
   10.800000000	-14.227	103.533	 -7.944	149.921	 -7.966	149.883	-12.957	 84.578
   10.900000000	-15.072	 98.913	 -7.978	139.012	 -7.995	138.987	-13.200	 78.532
   11.000000000	-16.126	 95.660	 -8.012	128.105	 -8.032	128.053	-13.359	 72.544
   11.100000000	-17.714	 93.110	 -8.037	117.185	 -8.059	117.158	-13.473	 66.229
   11.200000000	-19.705	 94.379	 -8.060	106.243	 -8.085	106.221	-13.548	 60.045
   11.300000000	-22.497	101.825	 -8.087	 95.339	 -8.108	 95.295	-13.488	 54.186
   11.400000000	-25.232	123.856	 -8.117	 84.370	 -8.135	 84.366	-13.333	 48.383
   11.500000000	-24.728	159.602	 -8.154	 73.457	 -8.172	 73.439	-13.100	 42.729
   11.600000000	-21.573	179.260	 -8.192	 62.597	 -8.208	 62.555	-12.790	 37.459
   11.700000000	-18.504	-174.021	 -8.240	 51.793	 -8.258	 51.723	-12.411	 32.087
   11.800000000	-16.098	-173.839	 -8.292	 41.020	 -8.315	 41.013	-12.048	 26.978
   11.900000000	-14.258	-176.814	 -8.353	 30.373	 -8.374	 30.350	-11.697	 22.045
   12.000000000	-12.846	179.360	 -8.422	 19.858	 -8.440	 19.829	-11.369	 17.215
   12.100000000	-11.709	174.760	 -8.484	  9.387	 -8.500	  9.324	-11.142	 12.101
   12.200000000	-10.800	169.748	 -8.552	 -0.954	 -8.568	 -1.025	-10.965	  7.064
   12.300000000	-10.140	164.150	 -8.613	-11.202	 -8.622	-11.273	-10.888	  2.128
   12.400000000	 -9.627	158.744	 -8.667	-21.415	 -8.680	-21.500	-10.886	 -3.012
   12.500000000	 -9.259	152.919	 -8.704	-31.586	 -8.723	-31.626	-11.009	 -8.150
   12.600000000	 -8.974	146.958	 -8.746	-41.689	 -8.765	-41.763	-11.199	-13.243
   12.700000000	 -8.848	140.874	 -8.771	-51.838	 -8.791	-51.908	-11.524	-18.650
   12.800000000	 -8.737	134.561	 -8.793	-62.007	 -8.810	-62.079	-11.919	-24.227
   12.900000000	 -8.686	127.865	 -8.803	-72.212	 -8.823	-72.243	-12.404	-29.774
   13.000000000	 -8.687	120.955	 -8.816	-82.397	 -8.831	-82.466	-12.975	-35.620
   13.100000000	 -8.708	113.917	 -8.814	-92.665	 -8.837	-92.741	-13.624	-41.626
   13.200000000	 -8.680	106.667	 -8.824	-102.929	 -8.836	-103.039	-14.295	-47.713
   13.300000000	 -8.679	 98.957	 -8.827	-113.285	 -8.840	-113.352	-15.023	-53.974
   13.400000000	 -8.627	 91.499	 -8.832	-123.589	 -8.845	-123.664	-15.817	-60.400
   13.500000000	 -8.531	 83.853	 -8.851	-133.929	 -8.859	-133.993	-16.605	-65.762
   13.600000000	 -8.359	 76.175	 -8.867	-144.258	 -8.877	-144.347	-17.489	-71.261
   13.700000000	 -8.205	 68.866	 -8.893	-154.565	 -8.905	-154.618	-18.392	-74.903
   13.800000000	 -7.978	 61.996	 -8.917	-164.841	 -8.932	-164.958	-19.471	-76.681
   13.900000000	 -7.704	 55.959	 -8.961	-175.112	 -8.970	-175.251	-20.583	-75.105
   14.000000000	 -7.416	 49.851	 -9.013	174.564	 -9.021	174.535	-21.759	-68.440
   14.100000000	 -7.125	 44.754	 -9.063	164.404	 -9.074	164.328	-22.151	-56.203
   14.200000000	 -6.827	 39.814	 -9.126	154.251	 -9.143	154.183	-21.606	-43.247
   14.300000000	 -6.529	 35.503	 -9.190	144.168	 -9.208	144.084	-20.267	-32.265
   14.400000000	 -6.272	 31.525	 -9.265	134.193	 -9.279	134.107	-18.606	-26.143
   14.500000000	 -6.001	 27.914	 -9.337	124.286	 -9.347	124.227	-16.991	-24.846
   14.600000000	 -5.863	 24.338	 -9.383	114.620	 -9.406	114.524	-15.715	-25.056
   14.700000000	 -5.697	 21.479	 -9.440	104.992	 -9.455	104.920	-14.765	-27.265
   14.800000000	 -5.682	 18.545	 -9.454	 95.512	 -9.464	 95.407	-13.984	-30.693
   14.900000000	 -5.695	 15.477	 -9.450	 86.145	 -9.466	 86.075	-13.625	-34.045
   15.000000000	 -5.821	 13.454	 -9.413	 76.860	 -9.430	 76.781	-13.535	-38.524
   15.100000000	 -6.041	 10.719	 -9.353	 67.591	 -9.365	 67.505	-13.703	-43.326
   15.200000000	 -6.408	  8.644	 -9.260	 58.281	 -9.273	 58.188	-14.205	-48.893
   15.300000000	 -6.849	  6.518	 -9.148	 48.858	 -9.160	 48.750	-15.060	-54.459
   15.400000000	 -7.411	  4.259	 -9.020	 39.339	 -9.038	 39.256	-16.245	-61.218
   15.500000000	 -8.167	  2.273	 -8.888	 29.673	 -8.913	 29.630	-17.865	-69.022
   15.600000000	 -9.004	 -0.016	 -8.764	 19.899	 -8.788	 19.902	-20.204	-79.509
   15.700000000	-10.004	 -2.812	 -8.650	 10.022	 -8.672	  9.995	-23.182	-94.741
   15.800000000	-11.174	 -6.571	 -8.550	 -0.030	 -8.569	 -0.062	-26.336	-123.501
   15.900000000	-12.474	-10.851	 -8.467	-10.151	 -8.489	-10.157	-27.254	-166.057
   16.000000000	-13.916	-17.430	 -8.403	-20.360	 -8.425	-20.413	-24.445	159.874
   16.100000000	-15.468	-27.542	 -8.351	-30.708	 -8.385	-30.671	-21.889	145.685
   16.200000000	-16.967	-40.484	 -8.325	-41.000	 -8.355	-40.976	-19.864	134.737
   16.300000000	-17.993	-57.492	 -8.310	-51.371	 -8.335	-51.325	-18.266	129.345
   16.400000000	-18.245	-76.062	 -8.297	-61.723	 -8.326	-61.659	-17.200	124.240
   16.500000000	-17.904	-93.879	 -8.296	-72.025	 -8.325	-71.995	-16.322	119.037
   16.600000000	-17.280	-105.885	 -8.286	-82.342	 -8.319	-82.277	-15.906	114.273
   16.700000000	-16.422	-117.064	 -8.276	-92.677	 -8.307	-92.596	-15.748	108.285
   16.800000000	-16.265	-121.749	 -8.257	-102.896	 -8.291	-102.820	-15.739	104.827
   16.900000000	-15.934	-128.101	 -8.226	-113.212	 -8.257	-113.192	-16.763	 96.665
   17.000000000	-16.137	-128.208	 -8.191	-123.526	 -8.220	-123.474	-17.423	 87.477
   17.100000000	-16.587	-132.606	 -8.156	-133.875	 -8.184	-133.852	-19.391	 77.527
   17.200000000	-16.817	-129.048	 -8.127	-144.383	 -8.155	-144.343	-20.883	 56.721
   17.300000000	-18.127	-126.539	 -8.101	-154.840	 -8.131	-154.825	-22.434	 35.097
   17.400000000	-18.925	-120.735	 -8.081	-165.446	 -8.114	-165.388	-22.722	  3.468
   17.500000000	-20.389	-113.162	 -8.082	-176.026	 -8.111	-176.016	-21.378	-19.762
   17.600000000	-21.885	-100.842	 -8.095	173.242	 -8.124	173.271	-19.570	-35.324
   17.700000000	-23.260	-80.602	 -8.122	162.459	 -8.150	162.452	-18.000	-43.360
   17.800000000	-23.106	-54.443	 -8.162	151.571	 -8.190	151.589	-16.855	-47.648
   17.900000000	-20.994	-31.793	 -8.214	140.564	 -8.251	140.612	-15.976	-49.169
   18.000000000	-18.734	-17.961	 -8.291	129.511	 -8.319	129.551	-15.079	-48.776
   18.100000000	-16.269	-11.872	 -8.382	118.391	 -8.412	118.425	-14.350	-48.189
   18.200000000	-14.460	 -9.503	 -8.482	107.248	 -8.514	107.255	-13.760	-47.524
   18.300000000	-13.140	-10.175	 -8.604	 96.141	 -8.633	 96.114	-13.217	-46.654
   18.400000000	-12.179	-11.046	 -8.735	 85.009	 -8.760	 85.010	-12.881	-47.203
   18.500000000	-11.752	-13.397	 -8.868	 73.956	 -8.899	 73.956	-12.796	-48.781
   18.600000000	-11.629	-15.505	 -9.026	 63.032	 -9.061	 63.092	-13.060	-50.771
   18.700000000	-12.056	-17.661	 -9.203	 52.366	 -9.228	 52.379	-13.867	-53.206
   18.800000000	-13.043	-18.626	 -9.395	 42.081	 -9.425	 42.116	-15.296	-55.982
   18.900000000	-14.668	-17.070	 -9.558	 32.525	 -9.590	 32.523	-17.998	-56.300
   19.000000000	-16.966	 -7.993	 -9.596	 23.639	 -9.622	 23.616	-22.828	-37.172
   19.100000000	-18.534	 10.436	 -9.419	 14.370	 -9.455	 14.477	-22.447	 12.487
   19.200000000	-18.563	 36.102	 -9.150	  3.968	 -9.190	  4.011	-18.313	 26.334
   19.300000000	-17.363	 49.829	 -8.933	 -7.608	 -8.972	 -7.486	-15.678	 27.452
   19.400000000	-15.766	 61.028	 -8.822	-19.702	 -8.862	-19.541	-14.410	 21.844
   19.500000000	-15.061	 67.632	 -8.787	-31.855	 -8.825	-31.763	-13.624	 15.481
   19.600000000	-13.919	 69.620	 -8.808	-44.025	 -8.839	-43.953	-13.579	  8.815
   19.700000000	-13.270	 71.290	 -8.839	-56.203	 -8.873	-56.074	-13.735	 -0.156
   19.800000000	-12.909	 70.010	 -8.879	-68.516	 -8.914	-68.372	-14.344	 -9.813
   19.900000000	-12.784	 68.352	 -8.936	-80.935	 -8.973	-80.847	-15.236	-22.530
   20.000000000	-12.675	 64.309	 -8.999	-93.450	 -9.042	-93.333	-16.184	-37.065
