! Date: Wednesday, June 05, 2013  1:50 PM
! Filename: C:\Data\Mike_Arnold\TGP2105-SM\Over_Temp\TGP2105-SM_EVB01_25C_Phase26.s2p 
! Comments: 
!^VDC(V):5.000
!^VDC(mA):0.072
!%Freq(GHz),S11(dB),S11(ang),S21(dB),S21(ang),S12(dB),S12(ang),S22(dB),S22(ang)
# GHz   S   DB   R   50
    5.000000000	-11.777	112.166	 -6.370	-88.816	 -6.388	-88.839	 -8.688	-159.921
    5.100000000	-11.761	109.826	 -6.333	-105.638	 -6.348	-105.664	 -8.264	-169.606
    5.200000000	-11.924	106.342	 -6.291	-121.796	 -6.305	-121.815	 -8.116	-179.434
    5.300000000	-12.348	102.111	 -6.243	-137.547	 -6.265	-137.541	 -8.182	170.638
    5.400000000	-13.136	 98.232	 -6.184	-152.914	 -6.201	-152.981	 -8.493	161.592
    5.500000000	-14.344	 96.873	 -6.121	-168.136	 -6.134	-168.136	 -9.006	153.620
    5.600000000	-15.666	 99.429	 -6.066	176.872	 -6.082	176.808	 -9.637	147.458
    5.700000000	-16.739	107.501	 -6.041	161.987	 -6.054	161.957	-10.367	143.002
    5.800000000	-16.957	119.980	 -6.046	147.343	 -6.062	147.354	-11.038	140.839
    5.900000000	-15.718	130.432	 -6.089	133.031	 -6.099	133.030	-11.533	140.663
    6.000000000	-14.026	133.378	 -6.172	119.116	 -6.186	119.092	-11.704	140.646
    6.100000000	-12.603	131.025	 -6.278	105.760	 -6.289	105.706	-11.707	139.594
    6.200000000	-11.492	125.448	 -6.380	 93.196	 -6.388	 93.191	-11.694	137.222
    6.300000000	-10.843	117.788	 -6.364	 81.421	 -6.381	 81.372	-11.944	134.268
    6.400000000	-10.708	110.695	 -6.180	 69.181	 -6.194	 69.154	-12.163	132.407
    6.500000000	-10.589	104.554	 -6.032	 56.168	 -6.045	 56.142	-12.153	129.215
    6.600000000	-10.471	 97.597	 -5.952	 43.185	 -5.968	 43.142	-12.262	123.051
    6.700000000	-10.576	 89.152	 -5.885	 30.363	 -5.898	 30.326	-12.759	115.085
    6.800000000	-10.895	 80.241	 -5.807	 17.535	 -5.828	 17.572	-13.639	105.808
    6.900000000	-11.393	 71.381	 -5.735	  4.814	 -5.753	  4.837	-14.946	 95.331
    7.000000000	-12.032	 62.036	 -5.670	 -7.983	 -5.694	 -7.933	-16.733	 82.501
    7.100000000	-12.834	 52.851	 -5.622	-20.776	 -5.643	-20.728	-19.176	 65.951
    7.200000000	-13.734	 44.225	 -5.591	-33.567	 -5.610	-33.525	-22.248	 41.761
    7.300000000	-14.611	 36.213	 -5.578	-46.301	 -5.603	-46.254	-24.866	  4.288
    7.400000000	-15.434	 28.767	 -5.585	-58.994	 -5.607	-58.928	-24.533	-40.251
    7.500000000	-16.211	 22.339	 -5.605	-71.573	 -5.633	-71.535	-22.348	-72.587
    7.600000000	-16.746	 16.948	 -5.646	-83.983	 -5.671	-83.932	-20.396	-93.444
    7.700000000	-17.122	 12.225	 -5.689	-96.281	 -5.713	-96.230	-19.025	-109.225
    7.800000000	-17.311	  8.364	 -5.736	-108.455	 -5.757	-108.406	-18.094	-123.677
    7.900000000	-17.429	  5.233	 -5.786	-120.514	 -5.813	-120.482	-17.610	-138.350
    8.000000000	-17.375	  2.589	 -5.834	-132.476	 -5.865	-132.479	-17.493	-153.779
    8.100000000	-17.347	  0.500	 -5.893	-144.392	 -5.928	-144.307	-17.400	-170.400
    8.200000000	-17.211	 -1.222	 -5.957	-156.219	 -5.987	-156.144	-17.214	171.326
    8.300000000	-17.060	 -2.336	 -6.019	-167.954	 -6.050	-167.855	-16.815	151.569
    8.400000000	-16.804	 -4.250	 -6.087	-179.613	 -6.115	-179.513	-16.202	133.086
    8.500000000	-16.706	 -6.500	 -6.156	168.820	 -6.183	168.909	-15.391	116.343
    8.600000000	-16.564	 -9.560	 -6.222	157.355	 -6.252	157.425	-14.491	101.541
    8.700000000	-16.527	-13.939	 -6.288	145.935	 -6.314	146.003	-13.734	 89.228
    8.800000000	-16.758	-20.330	 -6.338	134.572	 -6.366	134.622	-13.173	 78.867
    8.900000000	-17.282	-28.382	 -6.379	123.230	 -6.411	123.301	-12.739	 70.632
    9.000000000	-18.118	-38.533	 -6.409	111.900	 -6.439	111.983	-12.584	 63.248
    9.100000000	-19.252	-52.505	 -6.430	100.513	 -6.462	100.589	-12.562	 57.437
    9.200000000	-20.678	-72.883	 -6.445	 89.080	 -6.475	 89.157	-12.775	 53.689
    9.300000000	-21.789	-100.089	 -6.457	 77.571	 -6.488	 77.658	-13.068	 50.183
    9.400000000	-21.536	-131.220	 -6.475	 66.022	 -6.508	 66.101	-13.439	 48.353
    9.500000000	-19.922	-158.082	 -6.501	 54.485	 -6.533	 54.570	-13.947	 47.154
    9.600000000	-18.197	-177.947	 -6.534	 42.955	 -6.569	 43.031	-14.409	 46.001
    9.700000000	-16.674	168.562	 -6.574	 31.497	 -6.603	 31.594	-14.830	 44.681
    9.800000000	-15.496	158.299	 -6.608	 20.109	 -6.638	 20.191	-15.477	 42.494
    9.900000000	-14.679	150.596	 -6.642	  8.725	 -6.676	  8.850	-16.307	 38.408
   10.000000000	-14.646	138.139	 -6.694	 -2.908	 -6.722	 -2.837	-17.080	 28.112
   10.100000000	-14.293	131.434	 -6.725	-14.321	 -6.754	-14.238	-18.093	 16.876
   10.200000000	-13.848	126.773	 -6.770	-25.700	 -6.799	-25.579	-18.917	  2.383
   10.300000000	-13.643	122.726	 -6.808	-36.945	 -6.835	-36.861	-19.721	-16.536
   10.400000000	-13.361	119.592	 -6.850	-48.248	 -6.891	-48.173	-19.703	-39.008
   10.500000000	-13.183	117.225	 -6.899	-59.478	 -6.932	-59.387	-19.104	-59.340
   10.600000000	-12.931	114.777	 -6.956	-70.671	 -6.989	-70.585	-17.912	-78.889
   10.700000000	-12.789	112.289	 -7.022	-81.741	 -7.042	-81.773	-16.717	-93.400
   10.800000000	-12.594	109.990	 -7.088	-92.879	 -7.105	-92.915	-15.634	-106.043
   10.900000000	-12.567	107.014	 -7.153	-103.947	 -7.169	-103.971	-14.685	-116.046
   11.000000000	-12.519	104.121	 -7.217	-114.970	 -7.234	-115.017	-14.000	-125.238
   11.100000000	-12.683	100.693	 -7.275	-125.969	 -7.294	-126.033	-13.540	-133.347
   11.200000000	-12.876	 97.661	 -7.333	-136.964	 -7.353	-136.993	-13.212	-140.831
   11.300000000	-13.254	 94.496	 -7.380	-147.947	 -7.398	-147.957	-13.036	-148.251
   11.400000000	-13.745	 91.270	 -7.426	-158.917	 -7.441	-158.947	-12.986	-155.208
   11.500000000	-14.391	 88.751	 -7.463	-169.914	 -7.482	-169.941	-12.980	-161.995
   11.600000000	-15.195	 86.171	 -7.499	179.105	 -7.518	179.071	-13.026	-168.789
   11.700000000	-16.252	 84.509	 -7.530	168.101	 -7.551	168.039	-13.092	-175.544
   11.800000000	-17.563	 84.251	 -7.563	157.065	 -7.582	157.052	-13.096	177.743
   11.900000000	-19.015	 86.180	 -7.594	146.043	 -7.615	145.987	-13.019	170.883
   12.000000000	-20.817	 91.016	 -7.631	134.999	 -7.648	134.934	-12.875	163.915
   12.100000000	-22.620	103.064	 -7.671	123.931	 -7.686	123.854	-12.605	157.362
   12.200000000	-23.335	122.527	 -7.717	112.871	 -7.731	112.777	-12.281	150.613
   12.300000000	-22.342	139.563	 -7.767	101.810	 -7.784	101.763	-11.875	143.942
   12.400000000	-20.494	150.644	 -7.822	 90.740	 -7.839	 90.694	-11.445	137.582
   12.500000000	-18.576	153.623	 -7.889	 79.730	 -7.902	 79.645	-10.975	131.419
   12.600000000	-16.871	152.419	 -7.957	 68.700	 -7.970	 68.651	-10.529	125.337
   12.700000000	-15.625	148.433	 -8.030	 57.737	 -8.046	 57.669	-10.108	119.666
   12.800000000	-14.511	142.515	 -8.102	 46.826	 -8.120	 46.776	 -9.742	114.192
   12.900000000	-13.627	134.876	 -8.183	 35.938	 -8.200	 35.900	 -9.426	108.812
   13.000000000	-12.931	126.532	 -8.252	 25.126	 -8.272	 25.061	 -9.180	103.695
   13.100000000	-12.341	117.616	 -8.330	 14.346	 -8.348	 14.279	 -8.986	 98.686
   13.200000000	-11.759	108.218	 -8.407	  3.640	 -8.423	  3.571	 -8.867	 93.698
   13.300000000	-11.284	 98.183	 -8.476	 -7.016	 -8.494	 -7.090	 -8.813	 88.728
   13.400000000	-10.802	 88.551	 -8.546	-17.567	 -8.560	-17.623	 -8.829	 83.855
   13.500000000	-10.313	 78.820	 -8.613	-28.119	 -8.630	-28.198	 -8.903	 78.336
   13.600000000	 -9.802	 69.281	 -8.685	-38.630	 -8.699	-38.710	 -9.054	 72.967
   13.700000000	 -9.372	 60.341	 -8.758	-49.051	 -8.771	-49.119	 -9.283	 66.942
   13.800000000	 -8.930	 52.120	 -8.841	-59.372	 -8.849	-59.485	 -9.534	 60.794
   13.900000000	 -8.508	 44.923	 -8.913	-69.657	 -8.925	-69.745	 -9.867	 54.122
   14.000000000	 -8.141	 37.865	 -8.995	-79.868	 -9.008	-79.959	-10.203	 47.375
   14.100000000	 -7.842	 32.015	 -9.074	-89.942	 -9.082	-90.069	-10.586	 40.223
   14.200000000	 -7.591	 26.617	 -9.137	-100.045	 -9.149	-100.114	-11.036	 33.360
   14.300000000	 -7.412	 22.118	 -9.196	-110.026	 -9.211	-110.127	-11.488	 27.130
   14.400000000	 -7.309	 18.228	 -9.242	-120.014	 -9.253	-120.085	-11.968	 21.757
   14.500000000	 -7.220	 15.217	 -9.273	-129.982	 -9.286	-130.069	-12.533	 16.850
   14.600000000	 -7.282	 12.462	 -9.284	-139.967	 -9.298	-140.040	-13.090	 14.107
   14.700000000	 -7.299	 11.119	 -9.288	-149.948	 -9.307	-150.046	-13.710	 13.346
   14.800000000	 -7.436	  9.904	 -9.273	-160.038	 -9.287	-160.132	-14.173	 14.161
   14.900000000	 -7.506	  8.869	 -9.254	-170.143	 -9.272	-170.224	-14.475	 17.781
   15.000000000	 -7.632	  9.191	 -9.229	179.736	 -9.247	179.616	-14.478	 22.627
   15.100000000	 -7.737	  8.627	 -9.211	169.569	 -9.228	169.513	-14.158	 27.192
   15.200000000	 -7.899	  8.439	 -9.186	159.427	 -9.201	159.326	-13.640	 31.055
   15.300000000	 -8.040	  7.763	 -9.170	149.295	 -9.183	149.198	-12.963	 33.590
   15.400000000	 -8.235	  6.185	 -9.153	139.180	 -9.172	139.104	-12.378	 34.514
   15.500000000	 -8.582	  4.135	 -9.127	129.116	 -9.147	129.078	-11.865	 34.256
   15.600000000	 -8.982	  0.945	 -9.106	119.036	 -9.126	118.992	-11.493	 33.929
   15.700000000	 -9.534	 -3.605	 -9.078	108.936	 -9.101	108.928	-11.255	 32.853
   15.800000000	-10.257	 -9.944	 -9.056	 98.766	 -9.073	 98.720	-11.185	 31.544
   15.900000000	-11.073	-17.328	 -9.025	 88.556	 -9.052	 88.499	-11.196	 29.913
   16.000000000	-11.961	-27.398	 -9.006	 78.195	 -9.024	 78.124	-11.362	 28.835
   16.100000000	-12.745	-40.034	 -8.980	 67.621	 -9.008	 67.637	-11.657	 26.341
   16.200000000	-13.341	-54.026	 -8.980	 57.051	 -9.005	 57.061	-11.949	 24.042
   16.300000000	-13.525	-68.904	 -8.975	 46.377	 -9.003	 46.390	-12.516	 20.769
   16.400000000	-13.287	-82.814	 -8.989	 35.660	 -9.024	 35.677	-13.160	 16.116
   16.500000000	-12.841	-95.499	 -9.007	 24.943	 -9.036	 24.988	-13.956	 11.023
   16.600000000	-12.314	-104.605	 -9.028	 14.275	 -9.059	 14.286	-15.020	  3.310
   16.700000000	-11.657	-113.540	 -9.049	  3.575	 -9.079	  3.613	-16.143	 -5.660
   16.800000000	-11.373	-118.525	 -9.059	 -6.964	 -9.085	 -6.984	-18.126	-17.819
   16.900000000	-10.975	-125.049	 -9.071	-17.596	 -9.100	-17.568	-18.892	-36.272
   17.000000000	-10.915	-128.354	 -9.060	-27.987	 -9.092	-27.960	-20.202	-52.319
   17.100000000	-11.000	-134.410	 -9.046	-38.469	 -9.078	-38.431	-20.189	-74.830
   17.200000000	-11.145	-136.977	 -9.022	-48.834	 -9.049	-48.828	-20.109	-86.877
   17.300000000	-11.940	-141.006	 -8.967	-59.292	 -8.998	-59.308	-20.220	-100.303
   17.400000000	-12.733	-143.997	 -8.914	-69.772	 -8.939	-69.771	-19.967	-107.574
   17.500000000	-14.136	-147.544	 -8.849	-80.414	 -8.872	-80.410	-20.337	-111.590
   17.600000000	-16.049	-150.536	 -8.776	-91.176	 -8.801	-91.201	-20.879	-110.780
   17.700000000	-18.953	-152.567	 -8.714	-102.235	 -8.741	-102.238	-21.636	-105.450
   17.800000000	-23.400	-150.529	 -8.670	-113.472	 -8.693	-113.468	-22.416	-97.322
   17.900000000	-32.206	-124.797	 -8.642	-124.833	 -8.660	-124.825	-23.017	-85.979
   18.000000000	-31.403	-18.351	 -8.626	-136.313	 -8.655	-136.336	-23.226	-72.071
   18.100000000	-23.583	 -2.808	 -8.640	-147.992	 -8.673	-147.978	-23.261	-57.856
   18.200000000	-20.015	  1.078	 -8.670	-159.709	 -8.697	-159.706	-23.296	-42.000
   18.300000000	-17.927	  1.641	 -8.724	-171.430	 -8.742	-171.454	-22.432	-22.089
   18.400000000	-16.362	  4.140	 -8.795	176.799	 -8.821	176.771	-20.931	 -5.498
   18.500000000	-15.483	  5.527	 -8.886	165.100	 -8.919	165.123	-18.967	  6.300
   18.600000000	-14.735	  7.413	 -9.017	153.534	 -9.051	153.548	-16.906	 13.196
   18.700000000	-14.416	  9.935	 -9.171	142.296	 -9.191	142.290	-15.093	 16.529
   18.800000000	-14.359	 13.905	 -9.340	131.540	 -9.368	131.545	-13.692	 15.591
   18.900000000	-14.387	 19.693	 -9.465	121.480	 -9.491	121.512	-12.814	 12.333
   19.000000000	-14.125	 27.632	 -9.439	111.972	 -9.465	111.979	-12.552	  8.961
   19.100000000	-13.511	 32.200	 -9.226	101.981	 -9.266	102.049	-13.025	  5.346
   19.200000000	-13.142	 36.534	 -8.931	 90.804	 -8.969	 90.906	-14.196	  3.532
   19.300000000	-13.263	 36.839	 -8.685	 78.462	 -8.719	 78.546	-15.961	  9.448
   19.400000000	-13.554	 41.519	 -8.542	 65.514	 -8.584	 65.574	-17.854	 21.886
   19.500000000	-14.439	 47.062	 -8.495	 52.289	 -8.529	 52.351	-17.899	 42.951
   19.600000000	-14.332	 53.788	 -8.516	 38.987	 -8.554	 39.049	-16.376	 60.801
   19.700000000	-14.128	 60.101	 -8.575	 25.700	 -8.612	 25.776	-14.359	 67.002
   19.800000000	-13.722	 61.461	 -8.669	 12.326	 -8.703	 12.427	-12.647	 68.119
   19.900000000	-13.506	 60.183	 -8.776	 -1.038	 -8.806	 -0.966	-11.473	 65.760
   20.000000000	-13.321	 54.939	 -8.895	-14.417	 -8.932	-14.346	-10.614	 61.259
