! Date: Wednesday, June 05, 2013  1:50 PM
! Filename: C:\Data\Mike_Arnold\TGP2105-SM\Over_Temp\TGP2105-SM_EVB01_25C_Phase20.s2p 
! Comments: 
!^VDC(V):5.000
!^VDC(mA):0.092
!%Freq(GHz),S11(dB),S11(ang),S21(dB),S21(ang),S12(dB),S12(ang),S22(dB),S22(ang)
# GHz   S   DB   R   50
    5.000000000	-19.108	 39.740	 -6.566	-129.063	 -6.588	-129.091	 -8.701	-139.992
    5.100000000	-22.110	 -9.564	 -6.536	-146.145	 -6.557	-146.160	 -8.655	-147.894
    5.200000000	-20.286	-68.665	 -6.554	-162.754	 -6.571	-162.755	 -8.614	-154.535
    5.300000000	-16.503	-102.608	 -6.620	-178.889	 -6.636	-178.922	 -8.488	-160.912
    5.400000000	-13.554	-123.922	 -6.725	165.536	 -6.743	165.503	 -8.287	-166.705
    5.500000000	-11.338	-140.417	 -6.856	150.588	 -6.873	150.556	 -8.007	-172.515
    5.600000000	 -9.750	-154.870	 -7.010	136.250	 -7.029	136.238	 -7.669	-178.513
    5.700000000	 -8.601	-167.753	 -7.154	122.511	 -7.171	122.462	 -7.379	174.969
    5.800000000	 -7.761	-179.204	 -7.283	109.419	 -7.298	109.351	 -7.136	168.220
    5.900000000	 -7.099	169.769	 -7.375	 96.804	 -7.392	 96.778	 -6.972	161.456
    6.000000000	 -6.680	159.210	 -7.433	 84.604	 -7.443	 84.525	 -6.915	154.168
    6.100000000	 -6.471	149.204	 -7.418	 72.784	 -7.428	 72.747	 -7.018	146.779
    6.200000000	 -6.414	139.567	 -7.341	 61.248	 -7.350	 61.272	 -7.272	139.564
    6.300000000	 -6.502	130.084	 -7.156	 49.831	 -7.175	 49.821	 -7.698	132.581
    6.400000000	 -6.767	121.100	 -6.869	 37.817	 -6.886	 37.839	 -8.201	125.504
    6.500000000	 -7.142	112.354	 -6.615	 25.285	 -6.626	 25.285	 -8.883	117.761
    6.600000000	 -7.634	103.709	 -6.372	 12.600	 -6.386	 12.565	 -9.877	109.337
    6.700000000	 -8.335	 94.731	 -6.144	 -0.346	 -6.161	 -0.369	-11.301	100.756
    6.800000000	 -9.239	 86.132	 -5.924	-13.618	 -5.950	-13.582	-13.246	 92.449
    6.900000000	-10.341	 78.480	 -5.758	-26.972	 -5.787	-26.925	-15.953	 85.351
    7.000000000	-11.549	 71.301	 -5.641	-40.435	 -5.664	-40.402	-19.772	 80.912
    7.100000000	-12.882	 65.371	 -5.566	-53.916	 -5.589	-53.842	-25.889	 87.916
    7.200000000	-14.177	 61.241	 -5.532	-67.250	 -5.561	-67.199	-30.683	151.391
    7.300000000	-15.286	 58.146	 -5.540	-80.477	 -5.565	-80.395	-24.534	-175.434
    7.400000000	-16.112	 55.717	 -5.572	-93.499	 -5.593	-93.462	-20.821	-175.562
    7.500000000	-16.621	 53.642	 -5.617	-106.360	 -5.647	-106.313	-18.593	177.739
    7.600000000	-16.721	 50.898	 -5.680	-119.064	 -5.710	-119.005	-17.212	167.939
    7.700000000	-16.565	 47.199	 -5.756	-131.571	 -5.781	-131.501	-16.343	156.600
    7.800000000	-16.212	 42.771	 -5.826	-143.889	 -5.851	-143.847	-15.670	144.547
    7.900000000	-15.769	 38.263	 -5.903	-156.168	 -5.930	-156.077	-15.049	131.044
    8.000000000	-15.174	 32.869	 -5.988	-168.261	 -6.018	-168.196	-14.413	116.717
    8.100000000	-14.615	 27.342	 -6.076	179.787	 -6.104	179.894	-13.784	102.930
    8.200000000	-14.054	 21.456	 -6.166	167.974	 -6.197	168.047	-13.096	 89.872
    8.300000000	-13.509	 15.517	 -6.254	156.312	 -6.282	156.400	-12.357	 77.677
    8.400000000	-13.075	  8.637	 -6.334	144.792	 -6.357	144.852	-11.739	 66.603
    8.500000000	-12.865	  1.676	 -6.396	133.337	 -6.428	133.410	-11.249	 56.789
    8.600000000	-12.748	 -5.855	 -6.449	121.994	 -6.476	122.073	-10.837	 48.215
    8.700000000	-12.819	-14.162	 -6.476	110.653	 -6.511	110.713	-10.619	 40.494
    8.800000000	-13.147	-23.541	 -6.491	 99.271	 -6.521	 99.345	-10.567	 33.623
    8.900000000	-13.765	-33.784	 -6.482	 87.864	 -6.515	 87.920	-10.676	 28.088
    9.000000000	-14.608	-45.414	 -6.467	 76.285	 -6.493	 76.373	-10.913	 22.680
    9.100000000	-15.667	-59.161	 -6.447	 64.648	 -6.480	 64.735	-11.260	 18.409
    9.200000000	-16.941	-76.429	 -6.426	 52.899	 -6.455	 52.965	-11.783	 15.059
    9.300000000	-18.133	-96.970	 -6.415	 41.031	 -6.443	 41.131	-12.259	 11.626
    9.400000000	-18.764	-120.399	 -6.417	 29.097	 -6.445	 29.223	-12.804	  8.610
    9.500000000	-18.544	-143.409	 -6.421	 17.218	 -6.450	 17.283	-13.394	  4.396
    9.600000000	-17.843	-162.964	 -6.442	  5.295	 -6.472	  5.415	-13.966	 -0.771
    9.700000000	-16.856	-176.970	 -6.481	 -6.546	 -6.510	 -6.460	-14.560	 -7.740
    9.800000000	-15.857	172.706	 -6.507	-18.380	 -6.548	-18.309	-15.282	-18.039
    9.900000000	-14.999	165.119	 -6.560	-30.199	 -6.586	-30.085	-15.883	-31.769
   10.000000000	-14.901	151.265	 -6.622	-42.065	 -6.658	-41.975	-15.284	-45.329
   10.100000000	-14.332	143.571	 -6.687	-53.786	 -6.722	-53.690	-14.954	-60.699
   10.200000000	-13.653	136.862	 -6.769	-65.433	 -6.804	-65.340	-14.371	-75.063
   10.300000000	-13.247	130.422	 -6.849	-76.972	 -6.884	-76.848	-13.637	-88.970
   10.400000000	-12.852	124.095	 -6.940	-88.432	 -6.978	-88.302	-12.796	-101.024
   10.500000000	-12.709	118.356	 -7.024	-99.711	 -7.064	-99.662	-12.134	-111.518
   10.600000000	-12.679	112.159	 -7.126	-110.998	 -7.160	-110.882	-11.382	-121.009
   10.700000000	-12.902	105.948	 -7.225	-122.039	 -7.244	-122.069	-10.874	-129.033
   10.800000000	-13.264	100.265	 -7.310	-133.162	 -7.334	-133.177	-10.437	-136.727
   10.900000000	-14.005	 94.115	 -7.393	-144.182	 -7.409	-144.240	-10.094	-143.199
   11.000000000	-14.950	 88.718	 -7.469	-155.245	 -7.483	-155.291	 -9.857	-149.692
   11.100000000	-16.444	 82.958	 -7.530	-166.310	 -7.553	-166.310	 -9.717	-155.627
   11.200000000	-18.463	 78.828	 -7.592	-177.384	 -7.612	-177.420	 -9.608	-161.390
   11.300000000	-21.621	 76.090	 -7.652	171.470	 -7.673	171.443	 -9.543	-167.300
   11.400000000	-26.893	 80.457	 -7.711	160.330	 -7.733	160.267	 -9.488	-173.296
   11.500000000	-34.532	145.995	 -7.783	149.081	 -7.794	149.045	 -9.427	-179.466
   11.600000000	-26.183	-157.916	 -7.856	137.859	 -7.872	137.854	 -9.349	174.085
   11.700000000	-20.609	-153.620	 -7.946	126.658	 -7.960	126.605	 -9.257	167.160
   11.800000000	-17.114	-156.447	 -8.038	115.454	 -8.057	115.444	 -9.110	160.010
   11.900000000	-14.734	-161.709	 -8.156	104.325	 -8.175	104.301	 -8.942	152.499
   12.000000000	-12.933	-167.035	 -8.278	 93.263	 -8.294	 93.245	 -8.731	144.672
   12.100000000	-11.474	-172.988	 -8.410	 82.342	 -8.431	 82.255	 -8.509	137.015
   12.200000000	-10.323	-179.239	 -8.563	 71.517	 -8.580	 71.453	 -8.287	129.225
   12.300000000	 -9.451	174.044	 -8.716	 60.806	 -8.734	 60.762	 -8.058	121.679
   12.400000000	 -8.741	167.476	 -8.863	 50.274	 -8.878	 50.226	 -7.855	114.266
   12.500000000	 -8.206	160.484	 -9.009	 39.858	 -9.026	 39.799	 -7.680	107.289
   12.600000000	 -7.784	153.306	 -9.146	 29.551	 -9.165	 29.490	 -7.537	100.445
   12.700000000	 -7.524	145.943	 -9.266	 19.383	 -9.283	 19.295	 -7.448	 94.178
   12.800000000	 -7.323	138.305	 -9.376	  9.222	 -9.389	  9.162	 -7.420	 88.095
   12.900000000	 -7.201	130.279	 -9.466	 -0.841	 -9.490	 -0.916	 -7.437	 82.227
   13.000000000	 -7.154	122.043	 -9.545	-10.907	 -9.556	-11.002	 -7.522	 76.663
   13.100000000	 -7.154	113.632	 -9.602	-20.958	 -9.616	-21.030	 -7.664	 71.244
   13.200000000	 -7.142	105.063	 -9.652	-30.978	 -9.666	-31.055	 -7.865	 65.842
   13.300000000	 -7.177	 96.084	 -9.691	-41.051	 -9.703	-41.102	 -8.129	 60.488
   13.400000000	 -7.188	 87.435	 -9.714	-51.045	 -9.728	-51.085	 -8.489	 55.196
   13.500000000	 -7.184	 78.622	 -9.733	-61.068	 -9.747	-61.162	 -8.861	 49.499
   13.600000000	 -7.123	 69.941	 -9.752	-71.119	 -9.764	-71.233	 -9.326	 43.863
   13.700000000	 -7.118	 61.641	 -9.773	-81.187	 -9.780	-81.237	 -9.842	 37.899
   13.800000000	 -7.061	 53.923	 -9.779	-91.213	 -9.797	-91.251	-10.390	 31.802
   13.900000000	 -6.996	 47.131	 -9.799	-101.156	 -9.807	-101.230	-10.997	 25.559
   14.000000000	 -6.939	 40.473	 -9.805	-111.186	 -9.816	-111.255	-11.592	 19.687
   14.100000000	 -6.911	 35.050	 -9.807	-121.154	 -9.813	-121.206	-12.213	 13.876
   14.200000000	 -6.894	 30.070	 -9.806	-131.143	 -9.815	-131.250	-12.905	  8.831
   14.300000000	 -6.892	 26.177	 -9.783	-141.224	 -9.802	-141.314	-13.574	  5.259
   14.400000000	 -6.934	 22.962	 -9.769	-151.314	 -9.783	-151.358	-14.229	  3.429
   14.500000000	 -6.934	 20.669	 -9.750	-161.442	 -9.767	-161.484	-14.827	  2.667
   14.600000000	 -7.025	 18.742	 -9.714	-171.597	 -9.728	-171.695	-15.216	  4.814
   14.700000000	 -7.017	 18.072	 -9.698	178.139	 -9.706	178.075	-15.392	  8.560
   14.800000000	 -7.083	 17.408	 -9.660	167.902	 -9.674	167.798	-15.132	 11.951
   14.900000000	 -7.068	 16.630	 -9.639	157.614	 -9.654	157.539	-14.637	 15.708
   15.000000000	 -7.086	 16.843	 -9.617	147.437	 -9.631	147.350	-14.027	 17.836
   15.100000000	 -7.132	 16.009	 -9.591	137.315	 -9.602	137.243	-13.418	 18.399
   15.200000000	 -7.260	 15.448	 -9.558	127.264	 -9.573	127.186	-12.963	 17.805
   15.300000000	 -7.427	 14.435	 -9.524	117.244	 -9.536	117.164	-12.625	 16.723
   15.400000000	 -7.700	 12.747	 -9.473	107.309	 -9.492	107.255	-12.513	 14.834
   15.500000000	 -8.161	 11.037	 -9.412	 97.327	 -9.439	 97.296	-12.597	 12.558
   15.600000000	 -8.728	  8.595	 -9.341	 87.384	 -9.367	 87.360	-12.923	 11.072
   15.700000000	 -9.484	  5.462	 -9.272	 77.299	 -9.290	 77.276	-13.446	  9.481
   15.800000000	-10.465	  1.284	 -9.188	 67.105	 -9.213	 67.026	-14.241	  8.306
   15.900000000	-11.595	 -3.273	 -9.118	 56.789	 -9.141	 56.721	-15.205	  7.777
   16.000000000	-12.917	 -9.732	 -9.051	 46.277	 -9.075	 46.252	-16.556	  9.195
   16.100000000	-14.385	-18.831	 -8.994	 35.579	 -9.021	 35.605	-18.179	  9.802
   16.200000000	-15.858	-30.126	 -8.955	 24.878	 -8.988	 24.882	-19.955	 13.794
   16.300000000	-16.997	-44.837	 -8.931	 13.997	 -8.961	 14.026	-22.627	 19.917
   16.400000000	-17.492	-61.711	 -8.917	  3.121	 -8.949	  3.125	-25.853	 31.485
   16.500000000	-17.396	-79.014	 -8.920	 -7.820	 -8.948	 -7.795	-28.737	 62.933
   16.600000000	-16.773	-91.549	 -8.922	-18.685	 -8.954	-18.626	-28.211	104.184
   16.700000000	-15.851	-103.914	 -8.934	-29.561	 -8.969	-29.523	-24.905	123.610
   16.800000000	-15.349	-109.487	 -8.940	-40.329	 -8.972	-40.261	-21.339	134.590
   16.900000000	-14.771	-117.765	 -8.928	-51.037	 -8.959	-51.057	-20.259	136.563
   17.000000000	-14.626	-120.316	 -8.914	-61.715	 -8.945	-61.714	-18.652	131.611
   17.100000000	-14.819	-127.080	 -8.888	-72.367	 -8.918	-72.365	-18.133	130.604
   17.200000000	-14.979	-127.806	 -8.852	-83.161	 -8.880	-83.083	-18.024	121.171
   17.300000000	-16.185	-129.375	 -8.805	-93.883	 -8.828	-93.868	-17.911	113.183
   17.400000000	-17.286	-128.200	 -8.756	-104.787	 -8.782	-104.764	-18.477	102.602
   17.500000000	-19.270	-125.055	 -8.714	-115.784	 -8.743	-115.758	-18.891	 88.865
   17.600000000	-21.760	-115.263	 -8.675	-127.018	 -8.702	-126.974	-19.232	 71.604
   17.700000000	-24.363	-92.486	 -8.656	-138.400	 -8.687	-138.393	-18.993	 53.243
   17.800000000	-24.515	-58.474	 -8.669	-149.919	 -8.690	-149.909	-18.193	 37.800
   17.900000000	-21.932	-32.592	 -8.698	-161.585	 -8.727	-161.542	-17.116	 26.270
   18.000000000	-19.542	-18.562	 -8.751	-173.286	 -8.777	-173.252	-15.847	 17.708
   18.100000000	-17.133	-11.769	 -8.833	174.904	 -8.857	174.942	-14.701	 12.391
   18.200000000	-15.335	 -7.689	 -8.929	163.092	 -8.960	163.082	-13.640	  9.208
   18.300000000	-13.953	 -6.716	 -9.055	151.248	 -9.088	151.283	-12.508	  6.990
   18.400000000	-12.804	 -5.802	 -9.211	139.536	 -9.240	139.588	-11.548	  4.924
   18.500000000	-12.118	 -6.807	 -9.378	127.928	 -9.406	127.989	-10.758	  2.582
   18.600000000	-11.658	 -8.149	 -9.579	116.535	 -9.612	116.599	-10.099	  0.026
   18.700000000	-11.686	-10.001	 -9.806	105.578	 -9.835	105.583	 -9.650	 -2.742
   18.800000000	-12.253	-11.211	-10.035	 95.171	-10.059	 95.199	 -9.468	 -6.898
   18.900000000	-13.347	-10.735	-10.219	 85.681	-10.254	 85.707	 -9.684	-11.730
   19.000000000	-14.908	 -5.228	-10.222	 76.975	-10.249	 76.975	-10.506	-15.469
   19.100000000	-16.059	  4.706	 -9.958	 67.725	-10.001	 67.814	-11.946	-17.171
   19.200000000	-16.982	 18.974	 -9.573	 56.881	 -9.612	 57.066	-13.781	-14.037
   19.300000000	-17.527	 29.396	 -9.249	 44.591	 -9.293	 44.749	-15.477	 -1.236
   19.400000000	-17.576	 46.608	 -9.067	 31.518	 -9.108	 31.619	-16.010	 13.428
   19.500000000	-17.625	 62.464	 -9.001	 18.236	 -9.039	 18.340	-15.075	 25.658
   19.600000000	-16.036	 72.252	 -9.019	  4.960	 -9.062	  5.067	-14.068	 32.122
   19.700000000	-14.712	 78.186	 -9.075	 -8.192	 -9.116	 -8.110	-13.097	 32.087
   19.800000000	-13.760	 78.081	 -9.151	-21.424	 -9.186	-21.324	-12.544	 29.872
   19.900000000	-13.179	 76.382	 -9.235	-34.736	 -9.276	-34.628	-12.433	 24.865
   20.000000000	-12.801	 71.665	 -9.332	-48.055	 -9.371	-47.902	-12.600	 18.628
