! Date: Wednesday, June 05, 2013  1:52 PM
! Filename: C:\Data\Mike_Arnold\TGP2105-SM\Over_Temp\TGP2105-SM_EVB01_25C_Phase50.s2p 
! Comments: 
!^VDC(V):5.000
!^VDC(mA):0.037
!%Freq(GHz),S11(dB),S11(ang),S21(dB),S21(ang),S12(dB),S12(ang),S22(dB),S22(ang)
# GHz   S   DB   R   50
    5.000000000	-12.560	-176.907	 -7.189	 49.167	 -7.202	 49.135	-12.030	-172.391
    5.100000000	-11.358	177.532	 -7.270	 31.719	 -7.277	 31.678	-12.652	-174.997
    5.200000000	-10.283	172.271	 -7.383	 14.858	 -7.398	 14.818	-13.098	-174.687
    5.300000000	 -9.350	166.565	 -7.536	 -1.357	 -7.553	 -1.418	-13.024	-173.289
    5.400000000	 -8.536	160.495	 -7.713	-16.844	 -7.726	-16.888	-12.497	-172.110
    5.500000000	 -7.834	154.318	 -7.880	-31.436	 -7.900	-31.524	-11.700	-173.128
    5.600000000	 -7.273	147.669	 -7.972	-45.424	 -7.985	-45.493	-10.858	-175.482
    5.700000000	 -6.816	141.275	 -7.995	-59.581	 -8.009	-59.620	 -9.980	-178.830
    5.800000000	 -6.395	135.015	 -8.074	-73.550	 -8.088	-73.593	 -9.038	176.016
    5.900000000	 -5.992	128.230	 -8.180	-86.880	 -8.190	-86.915	 -8.275	169.384
    6.000000000	 -5.699	120.757	 -8.233	-99.645	 -8.249	-99.695	 -7.732	161.629
    6.100000000	 -5.562	113.037	 -8.240	-112.004	 -8.252	-112.031	 -7.419	153.596
    6.200000000	 -5.500	105.285	 -8.167	-124.043	 -8.178	-124.076	 -7.267	145.361
    6.300000000	 -5.522	 97.176	 -8.034	-136.081	 -8.050	-136.098	 -7.302	136.701
    6.400000000	 -5.681	 88.586	 -7.840	-148.169	 -7.851	-148.207	 -7.529	127.498
    6.500000000	 -5.970	 79.863	 -7.589	-160.468	 -7.606	-160.503	 -7.978	117.903
    6.600000000	 -6.335	 71.087	 -7.327	-172.993	 -7.339	-173.000	 -8.622	107.700
    6.700000000	 -6.829	 61.596	 -7.035	174.175	 -7.052	174.147	 -9.529	 96.402
    6.800000000	 -7.460	 52.011	 -6.738	160.905	 -6.770	160.961	-10.755	 83.930
    6.900000000	 -8.227	 42.616	 -6.483	147.460	 -6.505	147.491	-12.350	 70.047
    7.000000000	 -9.045	 33.196	 -6.274	133.781	 -6.292	133.819	-14.274	 53.381
    7.100000000	 -9.936	 24.063	 -6.103	119.998	 -6.125	120.059	-16.556	 32.512
    7.200000000	-10.855	 15.584	 -5.979	106.254	 -6.005	106.314	-18.881	  5.248
    7.300000000	-11.706	  7.740	 -5.903	 92.618	 -5.928	 92.669	-20.363	-28.165
    7.400000000	-12.452	  0.510	 -5.860	 79.157	 -5.878	 79.233	-20.326	-61.185
    7.500000000	-13.124	 -6.165	 -5.837	 65.860	 -5.860	 65.910	-19.543	-88.258
    7.600000000	-13.645	-11.983	 -5.840	 52.787	 -5.861	 52.848	-18.775	-109.410
    7.700000000	-14.070	-17.433	 -5.851	 39.906	 -5.873	 39.988	-18.367	-126.897
    7.800000000	-14.401	-22.323	 -5.861	 27.274	 -5.886	 27.314	-18.207	-143.301
    7.900000000	-14.752	-26.759	 -5.880	 14.754	 -5.901	 14.797	-18.419	-160.502
    8.000000000	-15.021	-30.617	 -5.892	  2.383	 -5.919	  2.432	-18.840	-179.549
    8.100000000	-15.340	-34.399	 -5.908	 -9.905	 -5.940	 -9.836	-19.200	160.510
    8.200000000	-15.644	-37.854	 -5.929	-22.033	 -5.957	-21.943	-19.224	139.145
    8.300000000	-15.957	-41.366	 -5.952	-34.075	 -5.975	-34.005	-18.809	117.985
    8.400000000	-16.277	-45.557	 -5.973	-46.012	 -5.999	-45.909	-18.176	 99.815
    8.500000000	-16.822	-51.316	 -5.992	-57.847	 -6.021	-57.769	-17.503	 85.477
    8.600000000	-17.459	-58.168	 -6.014	-69.672	 -6.041	-69.569	-16.797	 74.240
    8.700000000	-18.376	-67.277	 -6.031	-81.400	 -6.055	-81.347	-16.336	 66.023
    8.800000000	-19.540	-80.511	 -6.046	-93.147	 -6.071	-93.079	-16.092	 60.192
    8.900000000	-20.953	-99.041	 -6.067	-104.845	 -6.093	-104.762	-15.897	 57.607
    9.000000000	-22.152	-124.091	 -6.092	-116.542	 -6.119	-116.478	-15.789	 55.781
    9.100000000	-22.242	-153.648	 -6.123	-128.207	 -6.151	-128.157	-15.567	 55.567
    9.200000000	-20.984	178.978	 -6.165	-139.817	 -6.195	-139.741	-15.368	 56.672
    9.300000000	-19.359	158.301	 -6.209	-151.339	 -6.236	-151.281	-15.055	 56.090
    9.400000000	-17.955	143.209	 -6.261	-162.745	 -6.292	-162.658	-14.792	 55.334
    9.500000000	-16.936	132.577	 -6.310	-174.032	 -6.337	-173.929	-14.746	 53.360
    9.600000000	-16.270	123.758	 -6.345	174.813	 -6.376	174.920	-14.885	 50.028
    9.700000000	-16.024	117.736	 -6.366	163.695	 -6.396	163.808	-15.232	 45.911
    9.800000000	-16.027	113.932	 -6.380	152.626	 -6.412	152.695	-16.069	 40.834
    9.900000000	-16.244	112.183	 -6.387	141.528	 -6.417	141.633	-17.339	 34.196
   10.000000000	-16.242	101.133	 -6.424	130.175	 -6.451	130.251	-18.203	 19.322
   10.100000000	-16.491	 98.569	 -6.433	119.024	 -6.459	119.128	-19.739	  3.550
   10.200000000	-16.576	 98.653	 -6.446	107.939	 -6.477	107.992	-20.988	-16.352
   10.300000000	-16.779	 98.075	 -6.460	 96.852	 -6.495	 96.929	-21.773	-42.021
   10.400000000	-16.788	 98.445	 -6.490	 85.789	 -6.518	 85.889	-21.221	-67.961
   10.500000000	-16.985	 99.039	 -6.510	 74.779	 -6.547	 74.902	-20.246	-87.547
   10.600000000	-17.077	 99.042	 -6.547	 63.806	 -6.578	 63.923	-18.735	-103.964
   10.700000000	-17.445	 98.794	 -6.592	 52.978	 -6.610	 52.973	-17.609	-114.545
   10.800000000	-17.828	 99.808	 -6.630	 42.054	 -6.651	 42.020	-16.667	-123.719
   10.900000000	-18.616	100.801	 -6.672	 31.163	 -6.690	 31.134	-15.866	-129.954
   11.000000000	-19.361	104.398	 -6.714	 20.244	 -6.736	 20.215	-15.292	-135.780
   11.100000000	-20.439	110.270	 -6.760	  9.344	 -6.774	  9.295	-14.855	-140.526
   11.200000000	-21.086	120.924	 -6.803	 -1.603	 -6.824	 -1.618	-14.441	-145.088
   11.300000000	-21.212	134.831	 -6.851	-12.579	 -6.870	-12.584	-14.085	-149.790
   11.400000000	-20.393	147.749	 -6.907	-23.540	 -6.923	-23.564	-13.757	-154.621
   11.500000000	-18.850	157.600	 -6.966	-34.534	 -6.983	-34.574	-13.407	-159.873
   11.600000000	-17.238	162.782	 -7.033	-45.535	 -7.051	-45.569	-13.064	-165.911
   11.700000000	-15.664	164.972	 -7.109	-56.561	 -7.130	-56.592	-12.724	-172.631
   11.800000000	-14.196	164.848	 -7.200	-67.563	 -7.219	-67.559	-12.332	179.930
   11.900000000	-12.922	162.624	 -7.302	-78.497	 -7.318	-78.548	-11.940	171.776
   12.000000000	-11.855	159.514	 -7.416	-89.436	 -7.433	-89.449	-11.520	163.151
   12.100000000	-10.905	155.690	 -7.536	-100.282	 -7.554	-100.349	-11.088	154.601
   12.200000000	-10.093	151.038	 -7.672	-111.109	 -7.688	-111.147	-10.675	145.808
   12.300000000	 -9.431	145.499	 -7.811	-121.817	 -7.831	-121.908	-10.254	137.212
   12.400000000	 -8.899	139.816	 -7.959	-132.472	 -7.970	-132.497	 -9.891	128.863
   12.500000000	 -8.468	133.323	 -8.103	-143.038	 -8.122	-143.078	 -9.555	120.996
   12.600000000	 -8.109	126.538	 -8.245	-153.517	 -8.264	-153.581	 -9.273	113.329
   12.700000000	 -7.891	119.136	 -8.377	-163.912	 -8.394	-163.980	 -9.066	106.339
   12.800000000	 -7.696	111.437	 -8.496	-174.307	 -8.516	-174.370	 -8.940	 99.683
   12.900000000	 -7.553	103.309	 -8.613	175.379	 -8.631	175.317	 -8.882	 93.246
   13.000000000	 -7.467	 94.805	 -8.715	165.030	 -8.732	164.998	 -8.906	 87.212
   13.100000000	 -7.405	 86.206	 -8.801	154.750	 -8.817	154.712	 -9.023	 81.328
   13.200000000	 -7.324	 77.699	 -8.880	144.522	 -8.900	144.467	 -9.233	 75.536
   13.300000000	 -7.247	 68.826	 -8.944	134.294	 -8.957	134.215	 -9.550	 69.818
   13.400000000	 -7.172	 60.409	 -8.988	124.092	 -9.008	124.010	 -9.991	 64.298
   13.500000000	 -7.070	 52.106	 -9.036	113.868	 -9.053	113.782	-10.497	 58.203
   13.600000000	 -6.931	 44.236	 -9.075	103.647	 -9.089	103.556	-11.161	 52.327
   13.700000000	 -6.835	 36.694	 -9.104	 93.434	 -9.118	 93.411	-11.958	 45.979
   13.800000000	 -6.727	 29.801	 -9.132	 83.299	 -9.142	 83.238	-12.872	 39.807
   13.900000000	 -6.637	 23.855	 -9.148	 73.197	 -9.161	 73.100	-13.958	 33.343
   14.000000000	 -6.544	 18.043	 -9.159	 63.042	 -9.171	 62.978	-15.134	 27.681
   14.100000000	 -6.524	 13.200	 -9.154	 52.957	 -9.170	 52.823	-16.530	 22.582
   14.200000000	 -6.510	  8.814	 -9.144	 42.746	 -9.158	 42.678	-18.164	 19.737
   14.300000000	 -6.542	  5.228	 -9.129	 32.552	 -9.144	 32.451	-19.855	 21.963
   14.400000000	 -6.608	  2.168	 -9.092	 22.279	 -9.109	 22.196	-21.220	 30.980
   14.500000000	 -6.666	 -0.066	 -9.067	 11.901	 -9.079	 11.834	-21.554	 45.188
   14.600000000	 -6.801	 -2.388	 -9.024	  1.493	 -9.044	  1.400	-20.028	 58.705
   14.700000000	 -6.886	 -3.477	 -9.002	 -8.997	 -9.018	 -9.053	-17.864	 65.926
   14.800000000	 -7.055	 -5.015	 -8.971	-19.493	 -8.986	-19.568	-15.801	 66.136
   14.900000000	 -7.139	 -6.603	 -8.964	-30.017	 -8.977	-30.086	-13.922	 64.340
   15.000000000	 -7.340	 -7.676	 -8.960	-40.448	 -8.971	-40.521	-12.419	 60.681
   15.100000000	 -7.536	 -9.996	 -8.960	-50.794	 -8.970	-50.834	-11.249	 56.398
   15.200000000	 -7.886	-12.559	 -8.958	-61.034	 -8.975	-61.112	-10.360	 52.077
   15.300000000	 -8.294	-15.913	 -8.963	-71.223	 -8.974	-71.287	 -9.650	 47.751
   15.400000000	 -8.830	-20.436	 -8.957	-81.281	 -8.973	-81.324	 -9.157	 43.537
   15.500000000	 -9.640	-26.115	 -8.937	-91.355	 -8.961	-91.389	 -8.832	 39.348
   15.600000000	-10.547	-33.255	 -8.921	-101.404	 -8.945	-101.420	 -8.629	 35.813
   15.700000000	-11.619	-42.749	 -8.907	-111.446	 -8.928	-111.507	 -8.541	 32.214
   15.800000000	-12.751	-55.285	 -8.896	-121.644	 -8.917	-121.691	 -8.589	 28.687
   15.900000000	-13.819	-70.065	 -8.887	-131.864	 -8.903	-131.875	 -8.712	 25.004
   16.000000000	-14.446	-87.612	 -8.877	-142.149	 -8.899	-142.193	 -8.969	 21.519
   16.100000000	-14.446	-105.278	 -8.873	-152.570	 -8.899	-152.560	 -9.350	 16.682
   16.200000000	-14.089	-120.930	 -8.877	-163.000	 -8.907	-162.944	 -9.781	 11.924
   16.300000000	-13.501	-133.286	 -8.881	-173.493	 -8.912	-173.457	-10.481	  5.911
   16.400000000	-12.900	-142.688	 -8.885	175.986	 -8.914	176.038	-11.266	 -1.271
   16.500000000	-12.357	-150.526	 -8.891	165.441	 -8.921	165.483	-12.245	 -9.162
   16.600000000	-12.126	-156.133	 -8.888	154.844	 -8.910	154.906	-13.371	-19.411
   16.700000000	-11.793	-161.245	 -8.885	144.286	 -8.909	144.316	-14.525	-30.737
   16.800000000	-12.081	-165.310	 -8.851	133.688	 -8.877	133.737	-16.138	-46.051
   16.900000000	-12.129	-169.988	 -8.827	123.082	 -8.851	123.145	-16.529	-62.405
   17.000000000	-12.875	-173.514	 -8.771	112.541	 -8.802	112.612	-17.397	-77.093
   17.100000000	-13.451	179.779	 -8.725	101.940	 -8.747	101.988	-17.133	-92.942
   17.200000000	-14.787	176.582	 -8.648	 91.299	 -8.680	 91.340	-17.258	-101.168
   17.300000000	-16.793	166.855	 -8.565	 80.537	 -8.594	 80.576	-17.296	-110.368
   17.400000000	-19.578	157.460	 -8.485	 69.731	 -8.511	 69.771	-17.123	-115.055
   17.500000000	-23.589	134.632	 -8.403	 58.771	 -8.431	 58.781	-17.229	-118.194
   17.600000000	-26.840	 83.344	 -8.326	 47.650	 -8.356	 47.690	-17.378	-119.204
   17.700000000	-23.395	 32.918	 -8.268	 36.415	 -8.294	 36.429	-17.743	-119.066
   17.800000000	-19.530	 11.776	 -8.217	 25.092	 -8.243	 25.129	-18.341	-119.396
   17.900000000	-16.749	  1.048	 -8.179	 13.677	 -8.205	 13.681	-19.356	-119.931
   18.000000000	-15.058	 -4.144	 -8.144	  2.221	 -8.178	  2.230	-21.076	-119.308
   18.100000000	-13.684	 -8.053	 -8.123	 -9.334	 -8.145	 -9.302	-23.917	-118.044
   18.200000000	-12.798	-10.166	 -8.099	-20.885	 -8.124	-20.839	-29.509	-113.010
   18.300000000	-12.186	-12.233	 -8.068	-32.478	 -8.095	-32.469	-37.434	-15.502
   18.400000000	-11.718	-12.509	 -8.045	-44.084	 -8.073	-44.072	-26.719	 28.146
   18.500000000	-11.523	-13.527	 -8.009	-55.711	 -8.043	-55.672	-21.718	 31.542
   18.600000000	-11.404	-13.897	 -7.977	-67.311	 -8.007	-67.276	-18.679	 31.614
   18.700000000	-11.597	-14.458	 -7.936	-78.869	 -7.965	-78.869	-16.701	 31.614
   18.800000000	-12.102	-14.597	 -7.891	-90.524	 -7.916	-90.461	-15.466	 31.083
   18.900000000	-12.946	-14.554	 -7.838	-102.147	 -7.871	-102.163	-14.709	 31.532
   19.000000000	-14.309	-12.646	 -7.798	-113.858	 -7.827	-113.832	-14.051	 34.920
   19.100000000	-15.959	 -8.331	 -7.770	-125.687	 -7.808	-125.611	-13.469	 38.350
   19.200000000	-18.411	  4.629	 -7.755	-137.440	 -7.796	-137.365	-12.885	 41.580
   19.300000000	-20.070	 23.659	 -7.763	-149.298	 -7.801	-149.177	-12.066	 45.642
   19.400000000	-19.312	 52.090	 -7.795	-161.228	 -7.822	-161.134	-11.382	 47.271
   19.500000000	-18.064	 68.136	 -7.838	-173.209	 -7.879	-173.122	-10.553	 47.140
   19.600000000	-15.945	 72.237	 -7.912	174.821	 -7.948	174.922	 -9.959	 46.502
   19.700000000	-14.738	 73.574	 -7.992	162.900	 -8.025	162.997	 -9.482	 43.519
   19.800000000	-14.109	 70.010	 -8.068	150.885	 -8.103	151.008	 -9.190	 40.222
   19.900000000	-13.973	 65.594	 -8.128	138.836	 -8.167	138.942	 -9.129	 35.687
   20.000000000	-14.017	 58.165	 -8.192	126.655	 -8.225	126.750	 -9.178	 30.458
