! Date: Wednesday, June 05, 2013  1:52 PM
! Filename: C:\Data\Mike_Arnold\TGP2105-SM\Over_Temp\TGP2105-SM_EVB01_25C_Phase44.s2p 
! Comments: 
!^VDC(V):5.000
!^VDC(mA):0.112
!%Freq(GHz),S11(dB),S11(ang),S21(dB),S21(ang),S12(dB),S12(ang),S22(dB),S22(ang)
# GHz   S   DB   R   50
    5.000000000	 -5.291	108.677	 -9.699	 23.291	 -9.715	 23.250	 -4.382	103.250
    5.100000000	 -5.864	 94.496	 -9.349	  9.585	 -9.367	  9.560	 -4.496	 96.514
    5.200000000	 -6.681	 79.302	 -8.945	 -4.380	 -8.953	 -4.450	 -4.721	 89.910
    5.300000000	 -7.781	 62.225	 -8.525	-18.773	 -8.535	-18.826	 -5.021	 83.745
    5.400000000	 -9.278	 42.405	 -8.100	-33.623	 -8.109	-33.645	 -5.441	 77.818
    5.500000000	-11.283	 18.200	 -7.700	-48.846	 -7.721	-48.868	 -5.953	 72.644
    5.600000000	-13.521	-12.352	 -7.351	-64.366	 -7.367	-64.378	 -6.519	 68.620
    5.700000000	-14.971	-51.782	 -7.095	-80.238	 -7.103	-80.304	 -6.986	 65.160
    5.800000000	-14.411	-93.123	 -6.949	-96.079	 -6.964	-96.093	 -7.374	 61.716
    5.900000000	-12.761	-126.158	 -6.891	-111.502	 -6.908	-111.515	 -7.744	 57.853
    6.000000000	-11.189	-150.274	 -6.890	-126.367	 -6.902	-126.390	 -8.061	 53.412
    6.100000000	-10.001	-168.617	 -6.902	-140.744	 -6.917	-140.740	 -8.411	 47.849
    6.200000000	 -9.147	176.197	 -6.910	-154.613	 -6.923	-154.648	 -8.842	 41.308
    6.300000000	 -8.599	162.576	 -6.902	-168.246	 -6.917	-168.268	 -9.358	 33.888
    6.400000000	 -8.350	150.754	 -6.872	178.381	 -6.885	178.357	 -9.974	 25.263
    6.500000000	 -8.270	140.127	 -6.814	165.168	 -6.826	165.156	-10.755	 15.380
    6.600000000	 -8.312	129.957	 -6.746	151.994	 -6.756	151.986	-11.674	  4.811
    6.700000000	 -8.529	120.032	 -6.658	138.789	 -6.671	138.785	-12.696	 -6.587
    6.800000000	 -8.859	110.467	 -6.551	125.547	 -6.578	125.591	-13.803	-19.044
    6.900000000	 -9.270	101.080	 -6.466	112.324	 -6.489	112.358	-15.048	-31.732
    7.000000000	 -9.759	 90.970	 -6.379	 99.125	 -6.406	 99.151	-16.278	-43.649
    7.100000000	-10.342	 80.632	 -6.300	 85.876	 -6.324	 85.930	-17.514	-54.679
    7.200000000	-10.976	 70.010	 -6.233	 72.672	 -6.254	 72.716	-18.783	-64.045
    7.300000000	-11.646	 58.857	 -6.175	 59.478	 -6.197	 59.534	-20.120	-70.190
    7.400000000	-12.333	 47.145	 -6.124	 46.359	 -6.149	 46.385	-21.286	-71.905
    7.500000000	-13.038	 35.343	 -6.092	 33.238	 -6.115	 33.284	-22.139	-69.652
    7.600000000	-13.662	 23.700	 -6.069	 20.236	 -6.092	 20.275	-22.496	-64.028
    7.700000000	-14.262	 12.458	 -6.053	  7.333	 -6.076	  7.389	-22.101	-57.223
    7.800000000	-14.824	  1.889	 -6.038	 -5.471	 -6.064	 -5.411	-21.197	-53.514
    7.900000000	-15.440	 -7.655	 -6.043	-18.175	 -6.062	-18.101	-20.304	-51.817
    8.000000000	-15.962	-16.147	 -6.037	-30.730	 -6.060	-30.721	-19.526	-51.927
    8.100000000	-16.640	-24.176	 -6.036	-43.277	 -6.068	-43.189	-18.828	-55.010
    8.200000000	-17.395	-31.526	 -6.032	-55.713	 -6.062	-55.650	-18.491	-60.154
    8.300000000	-18.352	-38.531	 -6.031	-68.135	 -6.060	-68.046	-18.529	-66.936
    8.400000000	-19.579	-45.927	 -6.039	-80.548	 -6.058	-80.461	-18.864	-76.452
    8.500000000	-21.593	-54.718	 -6.046	-92.944	 -6.073	-92.884	-19.545	-90.109
    8.600000000	-24.622	-64.034	 -6.069	-105.387	 -6.091	-105.305	-20.643	-108.984
    8.700000000	-30.129	-78.460	 -6.107	-117.808	 -6.136	-117.704	-21.311	-134.838
    8.800000000	-41.598	-158.791	 -6.165	-130.171	 -6.193	-130.087	-20.854	-164.601
    8.900000000	-29.798	116.423	 -6.249	-142.459	 -6.282	-142.385	-19.106	167.969
    9.000000000	-24.305	 99.468	 -6.351	-154.602	 -6.383	-154.518	-17.185	148.840
    9.100000000	-21.380	 88.322	 -6.462	-166.594	 -6.494	-166.496	-15.416	134.232
    9.200000000	-19.670	 78.619	 -6.583	-178.342	 -6.612	-178.251	-13.928	124.012
    9.300000000	-18.813	 69.164	 -6.694	170.139	 -6.729	170.210	-12.881	115.516
    9.400000000	-18.685	 59.135	 -6.798	158.734	 -6.828	158.833	-12.062	108.951
    9.500000000	-19.452	 48.945	 -6.884	147.495	 -6.913	147.588	-11.541	104.385
    9.600000000	-20.964	 37.465	 -6.949	136.388	 -6.976	136.439	-11.184	100.750
    9.700000000	-23.962	 20.626	 -7.004	125.195	 -7.029	125.313	-10.908	 98.070
    9.800000000	-29.366	-14.453	 -7.040	114.148	 -7.067	114.221	-10.735	 96.735
    9.900000000	-29.471	-99.288	 -7.077	103.023	 -7.112	103.101	-10.598	 95.656
   10.000000000	-27.144	-123.998	 -7.086	 91.575	 -7.116	 91.664	-10.826	 92.822
   10.100000000	-22.457	-150.773	 -7.118	 80.375	 -7.144	 80.473	-10.831	 91.294
   10.200000000	-18.859	-167.759	 -7.162	 69.241	 -7.186	 69.327	-10.780	 89.192
   10.300000000	-16.481	-179.307	 -7.210	 58.213	 -7.241	 58.305	-10.729	 87.134
   10.400000000	-14.653	170.280	 -7.261	 47.252	 -7.298	 47.322	-10.718	 84.187
   10.500000000	-13.252	161.871	 -7.332	 36.390	 -7.361	 36.475	-10.610	 80.214
   10.600000000	-12.224	153.335	 -7.405	 25.659	 -7.435	 25.781	-10.680	 76.030
   10.700000000	-11.496	145.938	 -7.485	 15.188	 -7.502	 15.171	-10.712	 70.535
   10.800000000	-10.908	138.768	 -7.558	  4.706	 -7.577	  4.648	-10.769	 64.736
   10.900000000	-10.615	132.009	 -7.618	 -5.707	 -7.640	 -5.769	-10.907	 58.002
   11.000000000	-10.396	125.474	 -7.684	-16.047	 -7.701	-16.093	-11.012	 51.046
   11.100000000	-10.432	119.030	 -7.734	-26.313	 -7.755	-26.362	-11.113	 43.679
   11.200000000	-10.558	112.945	 -7.785	-36.552	 -7.802	-36.594	-11.228	 36.291
   11.300000000	-10.903	106.917	 -7.817	-46.722	 -7.841	-46.787	-11.314	 29.316
   11.400000000	-11.404	100.986	 -7.845	-56.922	 -7.864	-56.937	-11.388	 22.613
   11.500000000	-12.106	 95.536	 -7.865	-67.058	 -7.883	-67.104	-11.472	 16.289
   11.600000000	-13.043	 89.898	 -7.873	-77.222	 -7.892	-77.267	-11.558	 10.682
   11.700000000	-14.336	 85.009	 -7.876	-87.415	 -7.894	-87.487	-11.627	  5.702
   11.800000000	-16.024	 81.189	 -7.874	-97.666	 -7.893	-97.670	-11.732	  1.332
   11.900000000	-18.153	 79.210	 -7.872	-107.909	 -7.891	-107.956	-11.844	 -2.350
   12.000000000	-21.157	 80.522	 -7.871	-118.239	 -7.883	-118.252	-11.935	 -5.360
   12.100000000	-25.234	 93.953	 -7.866	-128.574	 -7.882	-128.651	-12.060	 -8.396
   12.200000000	-27.693	134.664	 -7.865	-138.971	 -7.879	-139.012	-12.153	-10.988
   12.300000000	-24.609	166.738	 -7.869	-149.398	 -7.883	-149.449	-12.272	-13.549
   12.400000000	-21.064	177.442	 -7.881	-159.846	 -7.895	-159.924	-12.370	-16.240
   12.500000000	-18.548	177.736	 -7.896	-170.359	 -7.907	-170.408	-12.531	-19.290
   12.600000000	-16.661	174.409	 -7.913	179.142	 -7.925	179.085	-12.690	-22.491
   12.700000000	-15.405	169.908	 -7.925	168.594	 -7.944	168.541	-12.937	-26.342
   12.800000000	-14.398	164.022	 -7.939	157.982	 -7.959	157.933	-13.214	-30.660
   12.900000000	-13.666	157.028	 -7.959	147.373	 -7.973	147.322	-13.534	-35.267
   13.000000000	-13.131	149.844	 -7.969	136.712	 -7.987	136.651	-13.934	-40.626
   13.100000000	-12.711	142.186	 -7.988	126.044	 -8.004	125.990	-14.366	-46.326
   13.200000000	-12.308	133.949	 -8.007	115.405	 -8.022	115.355	-14.781	-52.433
   13.300000000	-12.032	125.224	 -8.013	104.744	 -8.030	104.701	-15.218	-59.104
   13.400000000	-11.687	116.514	 -8.014	 94.074	 -8.028	 94.015	-15.671	-66.346
   13.500000000	-11.363	107.227	 -8.019	 83.333	 -8.038	 83.300	-16.080	-72.756
   13.600000000	-10.977	 97.802	 -8.028	 72.588	 -8.044	 72.503	-16.520	-79.832
   13.700000000	-10.656	 89.002	 -8.048	 61.809	 -8.061	 61.801	-16.937	-86.321
   13.800000000	-10.253	 80.587	 -8.062	 51.106	 -8.078	 51.076	-17.555	-92.542
   13.900000000	 -9.794	 73.188	 -8.093	 40.391	 -8.104	 40.313	-18.321	-98.230
   14.000000000	 -9.376	 65.976	 -8.121	 29.632	 -8.136	 29.576	-19.538	-102.903
   14.100000000	 -8.943	 60.159	 -8.161	 18.961	 -8.171	 18.836	-21.249	-105.100
   14.200000000	 -8.509	 54.788	 -8.201	  8.208	 -8.215	  8.166	-23.773	-104.520
   14.300000000	 -8.068	 50.344	 -8.256	 -2.491	 -8.267	 -2.550	-27.857	-92.111
   14.400000000	 -7.664	 46.440	 -8.314	-13.114	 -8.325	-13.202	-30.786	-43.603
   14.500000000	 -7.215	 42.978	 -8.379	-23.746	 -8.392	-23.816	-26.127	 -7.698
   14.600000000	 -6.908	 39.822	 -8.446	-34.229	 -8.460	-34.279	-21.781	  2.051
   14.700000000	 -6.521	 37.201	 -8.521	-44.603	 -8.535	-44.662	-18.902	  2.255
   14.800000000	 -6.304	 34.697	 -8.577	-54.821	 -8.591	-54.858	-16.774	 -1.596
   14.900000000	 -6.109	 31.899	 -8.627	-64.871	 -8.644	-64.947	-15.394	 -5.254
   15.000000000	 -5.998	 30.158	 -8.661	-74.762	 -8.675	-74.809	-14.506	-10.267
   15.100000000	 -6.005	 27.789	 -8.665	-84.562	 -8.681	-84.621	-13.998	-15.713
   15.200000000	 -6.127	 26.129	 -8.642	-94.285	 -8.659	-94.304	-13.918	-21.600
   15.300000000	 -6.322	 24.478	 -8.598	-103.972	 -8.610	-104.024	-14.169	-27.241
   15.400000000	 -6.630	 22.736	 -8.529	-113.738	 -8.545	-113.854	-14.801	-33.691
   15.500000000	 -7.083	 21.562	 -8.433	-123.597	 -8.455	-123.649	-15.794	-40.580
   15.600000000	 -7.596	 20.218	 -8.342	-133.605	 -8.363	-133.612	-17.421	-47.992
   15.700000000	 -8.226	 18.821	 -8.253	-143.722	 -8.267	-143.761	-19.656	-56.799
   15.800000000	 -8.971	 17.033	 -8.161	-154.043	 -8.176	-154.088	-22.821	-69.927
   15.900000000	 -9.734	 15.245	 -8.087	-164.444	 -8.101	-164.478	-27.177	-93.908
   16.000000000	-10.595	 12.210	 -8.025	-175.005	 -8.043	-175.055	-30.039	-153.651
   16.100000000	-11.547	  7.622	 -7.977	174.214	 -8.006	174.262	-26.129	166.326
   16.200000000	-12.499	  1.856	 -7.951	163.474	 -7.980	163.512	-22.695	145.597
   16.300000000	-13.399	 -6.262	 -7.936	152.653	 -7.969	152.692	-20.091	137.056
   16.400000000	-14.166	-16.630	 -7.935	141.765	 -7.966	141.842	-18.463	130.311
   16.500000000	-14.782	-29.028	 -7.942	130.885	 -7.974	130.963	-17.188	123.770
   16.600000000	-14.825	-41.007	 -7.955	120.037	 -7.983	120.106	-16.439	118.189
   16.700000000	-14.691	-54.469	 -7.974	109.173	 -8.000	109.209	-16.005	111.131
   16.800000000	-14.094	-62.207	 -7.993	 98.445	 -8.020	 98.472	-15.678	106.306
   16.900000000	-13.637	-71.445	 -7.998	 87.631	 -8.026	 87.695	-16.415	 96.530
   17.000000000	-12.837	-75.835	 -8.018	 76.932	 -8.042	 77.016	-16.694	 84.840
   17.100000000	-12.558	-81.418	 -8.022	 66.264	 -8.053	 66.316	-18.073	 71.425
   17.200000000	-11.702	-84.924	 -8.049	 55.512	 -8.079	 55.568	-18.599	 48.776
   17.300000000	-11.458	-86.865	 -8.070	 44.975	 -8.099	 45.035	-18.913	 26.313
   17.400000000	-11.037	-89.980	 -8.101	 34.345	 -8.134	 34.400	-18.225	  0.623
   17.500000000	-10.955	-92.784	 -8.132	 23.914	 -8.155	 23.917	-16.807	-18.694
   17.600000000	-11.014	-95.999	 -8.166	 13.404	 -8.188	 13.443	-15.265	-33.239
   17.700000000	-11.356	-99.439	 -8.186	  2.982	 -8.216	  2.980	-13.921	-43.250
   17.800000000	-11.985	-103.335	 -8.205	 -7.511	 -8.235	 -7.464	-12.946	-50.433
   17.900000000	-13.051	-107.091	 -8.203	-18.050	 -8.235	-18.027	-12.276	-55.679
   18.000000000	-14.816	-112.732	 -8.188	-28.688	 -8.219	-28.665	-11.754	-59.195
   18.100000000	-17.542	-117.271	 -8.168	-39.486	 -8.196	-39.475	-11.476	-61.892
   18.200000000	-22.386	-124.412	 -8.135	-50.446	 -8.159	-50.412	-11.380	-63.898
   18.300000000	-34.513	-146.482	 -8.105	-61.541	 -8.128	-61.498	-11.400	-64.849
   18.400000000	-26.446	 60.807	 -8.074	-72.739	 -8.105	-72.727	-11.531	-66.199
   18.500000000	-19.612	 52.421	 -8.055	-83.978	 -8.080	-83.965	-11.821	-68.101
   18.600000000	-15.871	 46.733	 -8.035	-95.238	 -8.058	-95.216	-12.325	-70.368
   18.700000000	-13.644	 43.115	 -8.008	-106.486	 -8.040	-106.446	-13.192	-73.493
   18.800000000	-12.138	 40.482	 -7.995	-117.712	 -8.022	-117.704	-14.342	-77.745
   18.900000000	-11.132	 38.095	 -7.972	-128.961	 -8.000	-128.943	-16.038	-83.592
   19.000000000	-10.454	 36.865	 -7.956	-140.227	 -7.981	-140.207	-18.950	-91.792
   19.100000000	 -9.980	 34.899	 -7.944	-151.570	 -7.980	-151.487	-23.270	-104.745
   19.200000000	 -9.758	 34.583	 -7.944	-162.763	 -7.977	-162.700	-29.954	-138.736
   19.300000000	 -9.692	 32.008	 -7.933	-174.066	 -7.977	-173.958	-28.308	128.015
   19.400000000	 -9.757	 30.890	 -7.919	174.618	 -7.957	174.676	-22.960	102.590
   19.500000000	-10.354	 27.443	 -7.883	163.060	 -7.919	163.141	-19.747	 88.283
   19.600000000	-10.781	 23.745	 -7.852	151.285	 -7.894	151.381	-17.844	 81.864
   19.700000000	-11.732	 19.197	 -7.813	139.294	 -7.855	139.366	-16.954	 74.424
   19.800000000	-12.917	 11.962	 -7.778	126.926	 -7.815	127.005	-16.505	 69.774
   19.900000000	-14.680	  2.843	 -7.742	114.276	 -7.780	114.339	-16.699	 65.786
   20.000000000	-16.715	 -8.638	 -7.727	101.320	 -7.754	101.415	-17.152	 62.163
