! Date: Wednesday, June 05, 2013  1:51 PM
! Filename: C:\Data\Mike_Arnold\TGP2105-SM\Over_Temp\TGP2105-SM_EVB01_25C_Phase41.s2p 
! Comments: 
!^VDC(V):5.000
!^VDC(mA):0.056
!%Freq(GHz),S11(dB),S11(ang),S21(dB),S21(ang),S12(dB),S12(ang),S22(dB),S22(ang)
# GHz   S   DB   R   50
    5.000000000	 -6.816	 84.281	 -8.764	  5.921	 -8.779	  5.888	 -4.935	 98.074
    5.100000000	 -7.954	 70.505	 -8.415	 -8.710	 -8.426	 -8.765	 -5.160	 91.220
    5.200000000	 -9.664	 55.407	 -8.045	-23.819	 -8.056	-23.840	 -5.529	 84.685
    5.300000000	-12.204	 37.550	 -7.714	-39.334	 -7.727	-39.379	 -5.999	 79.037
    5.400000000	-16.231	 13.298	 -7.442	-55.215	 -7.458	-55.237	 -6.567	 74.186
    5.500000000	-22.351	-37.768	 -7.251	-71.137	 -7.264	-71.149	 -7.164	 70.510
    5.600000000	-20.779	-123.165	 -7.119	-86.898	 -7.131	-86.946	 -7.716	 68.277
    5.700000000	-15.633	-158.711	 -7.058	-102.710	 -7.071	-102.753	 -8.020	 66.376
    5.800000000	-12.418	-177.866	 -7.094	-118.111	 -7.108	-118.151	 -8.147	 63.548
    5.900000000	-10.330	166.794	 -7.179	-132.868	 -7.192	-132.905	 -8.275	 59.361
    6.000000000	 -9.023	153.459	 -7.268	-146.976	 -7.276	-147.038	 -8.428	 53.909
    6.100000000	 -8.230	141.732	 -7.328	-160.626	 -7.344	-160.655	 -8.697	 47.023
    6.200000000	 -7.728	131.139	 -7.352	-173.826	 -7.366	-173.889	 -9.113	 39.011
    6.300000000	 -7.426	120.899	 -7.343	173.058	 -7.351	173.021	 -9.651	 29.968
    6.400000000	 -7.366	111.160	 -7.283	160.073	 -7.299	160.030	-10.338	 19.566
    6.500000000	 -7.458	101.998	 -7.203	147.124	 -7.217	147.101	-11.185	  7.757
    6.600000000	 -7.619	 93.089	 -7.105	134.070	 -7.118	134.037	-12.186	 -5.075
    6.700000000	 -7.895	 83.817	 -6.999	120.986	 -7.009	120.926	-13.264	-19.149
    6.800000000	 -8.255	 74.567	 -6.879	107.717	 -6.902	107.767	-14.377	-34.755
    6.900000000	 -8.677	 65.403	 -6.779	 94.526	 -6.801	 94.559	-15.536	-51.322
    7.000000000	 -9.102	 55.536	 -6.681	 81.294	 -6.707	 81.365	-16.643	-67.269
    7.100000000	 -9.573	 45.289	 -6.595	 68.068	 -6.619	 68.137	-17.734	-82.908
    7.200000000	-10.063	 34.881	 -6.522	 54.888	 -6.544	 54.925	-18.853	-97.471
    7.300000000	-10.541	 24.101	 -6.450	 41.705	 -6.475	 41.760	-20.284	-110.458
    7.400000000	-11.016	 13.150	 -6.394	 28.541	 -6.413	 28.596	-22.113	-120.748
    7.500000000	-11.504	  2.225	 -6.345	 15.451	 -6.367	 15.498	-24.508	-128.014
    7.600000000	-11.966	 -8.141	 -6.305	  2.448	 -6.326	  2.491	-28.179	-129.976
    7.700000000	-12.443	-18.243	 -6.271	-10.529	 -6.296	-10.444	-33.743	-109.586
    7.800000000	-12.951	-27.750	 -6.248	-23.368	 -6.272	-23.325	-33.739	-53.644
    7.900000000	-13.556	-36.772	 -6.224	-36.155	 -6.246	-36.110	-28.841	-31.640
    8.000000000	-14.195	-45.052	 -6.203	-48.863	 -6.231	-48.826	-25.524	-28.629
    8.100000000	-15.001	-53.541	 -6.187	-61.556	 -6.213	-61.427	-23.454	-33.858
    8.200000000	-15.979	-62.262	 -6.172	-74.148	 -6.201	-74.069	-22.525	-41.454
    8.300000000	-17.266	-71.236	 -6.165	-86.732	 -6.191	-86.641	-22.452	-50.346
    8.400000000	-18.908	-81.771	 -6.166	-99.301	 -6.191	-99.242	-23.150	-62.665
    8.500000000	-21.237	-96.667	 -6.176	-111.918	 -6.205	-111.855	-24.804	-81.298
    8.600000000	-24.409	-118.501	 -6.211	-124.516	 -6.232	-124.424	-27.423	-113.477
    8.700000000	-27.726	-158.949	 -6.258	-137.046	 -6.288	-136.981	-27.337	-163.590
    8.800000000	-26.980	148.751	 -6.327	-149.525	 -6.358	-149.433	-23.762	158.557
    8.900000000	-23.580	116.160	 -6.429	-161.850	 -6.453	-161.776	-20.099	137.489
    9.000000000	-21.099	 96.460	 -6.534	-174.009	 -6.560	-173.932	-17.600	124.608
    9.100000000	-19.563	 82.260	 -6.645	174.022	 -6.677	174.107	-15.697	115.018
    9.200000000	-18.832	 71.000	 -6.757	162.283	 -6.782	162.327	-14.252	108.470
    9.300000000	-18.810	 60.814	 -6.854	150.684	 -6.883	150.771	-13.291	102.617
    9.400000000	-19.558	 50.826	 -6.939	139.187	 -6.972	139.296	-12.542	 98.491
    9.500000000	-21.544	 41.470	 -7.015	127.825	 -7.044	127.912	-12.094	 96.008
    9.600000000	-25.072	 31.877	 -7.073	116.466	 -7.100	116.576	-11.741	 94.197
    9.700000000	-34.437	 15.356	 -7.127	105.208	 -7.155	105.310	-11.388	 93.012
    9.800000000	-32.009	-153.405	 -7.178	 93.933	 -7.205	 94.031	-11.123	 92.763
    9.900000000	-23.092	-167.724	 -7.230	 82.699	 -7.262	 82.775	-10.868	 92.248
   10.000000000	-21.201	177.795	 -7.262	 71.104	 -7.288	 71.186	-10.997	 89.765
   10.100000000	-18.161	168.006	 -7.312	 59.863	 -7.343	 59.988	-10.881	 87.976
   10.200000000	-15.728	158.933	 -7.376	 48.742	 -7.407	 48.804	-10.730	 85.413
   10.300000000	-14.158	150.542	 -7.439	 37.738	 -7.479	 37.831	-10.640	 82.529
   10.400000000	-12.893	142.444	 -7.512	 26.841	 -7.548	 26.925	-10.614	 78.706
   10.500000000	-11.986	135.352	 -7.587	 16.143	 -7.618	 16.229	-10.534	 73.908
   10.600000000	-11.327	127.900	 -7.661	  5.542	 -7.690	  5.629	-10.651	 68.979
   10.700000000	-10.927	121.050	 -7.726	 -4.835	 -7.751	 -4.880	-10.751	 62.924
   10.800000000	-10.645	114.496	 -7.786	-15.235	 -7.811	-15.279	-10.892	 56.653
   10.900000000	-10.615	107.918	 -7.837	-25.606	 -7.857	-25.625	-11.089	 49.505
   11.000000000	-10.673	101.647	 -7.880	-35.868	 -7.900	-35.928	-11.267	 42.378
   11.100000000	-10.974	 95.164	 -7.912	-46.117	 -7.928	-46.159	-11.413	 35.000
   11.200000000	-11.394	 89.134	 -7.938	-56.373	 -7.956	-56.405	-11.577	 27.784
   11.300000000	-12.058	 82.939	 -7.952	-66.575	 -7.967	-66.659	-11.708	 21.079
   11.400000000	-12.922	 76.718	 -7.958	-76.869	 -7.976	-76.900	-11.820	 14.838
   11.500000000	-14.112	 71.192	 -7.956	-87.103	 -7.977	-87.157	-11.929	  9.005
   11.600000000	-15.624	 65.580	 -7.951	-97.377	 -7.972	-97.456	-12.026	  3.981
   11.700000000	-17.757	 60.740	 -7.949	-107.710	 -7.969	-107.764	-12.080	 -0.380
   11.800000000	-20.819	 58.077	 -7.939	-118.073	 -7.957	-118.089	-12.159	 -4.169
   11.900000000	-25.287	 62.865	 -7.936	-128.428	 -7.953	-128.491	-12.225	 -7.347
   12.000000000	-31.918	 98.744	 -7.932	-138.844	 -7.952	-138.892	-12.279	 -9.994
   12.100000000	-28.072	165.769	 -7.939	-149.260	 -7.952	-149.369	-12.339	-12.880
   12.200000000	-22.497	176.270	 -7.952	-159.705	 -7.962	-159.778	-12.357	-15.513
   12.300000000	-19.248	173.900	 -7.962	-170.168	 -7.977	-170.205	-12.425	-18.174
   12.400000000	-17.001	169.839	 -7.981	179.364	 -7.996	179.298	-12.471	-21.243
   12.500000000	-15.420	163.719	 -8.008	168.908	 -8.020	168.815	-12.601	-24.791
   12.600000000	-14.194	156.788	 -8.032	158.402	 -8.045	158.324	-12.742	-28.673
   12.700000000	-13.374	149.538	 -8.053	147.893	 -8.066	147.816	-12.967	-33.174
   12.800000000	-12.670	141.752	 -8.079	137.353	 -8.092	137.259	-13.220	-38.264
   12.900000000	-12.120	133.163	 -8.106	126.796	 -8.120	126.757	-13.519	-43.794
   13.000000000	-11.707	124.441	 -8.135	116.228	 -8.147	116.172	-13.858	-50.108
   13.100000000	-11.351	115.445	 -8.157	105.670	 -8.173	105.598	-14.228	-57.019
   13.200000000	-10.966	106.256	 -8.194	 95.141	 -8.206	 95.064	-14.558	-64.400
   13.300000000	-10.630	 96.581	 -8.222	 84.628	 -8.231	 84.579	-14.891	-72.410
   13.400000000	-10.253	 87.332	 -8.242	 74.109	 -8.256	 74.048	-15.195	-81.260
   13.500000000	 -9.862	 77.896	 -8.271	 63.592	 -8.289	 63.509	-15.490	-89.256
   13.600000000	 -9.428	 68.713	 -8.308	 53.100	 -8.322	 53.024	-15.774	-98.197
   13.700000000	 -9.065	 60.145	 -8.353	 42.688	 -8.364	 42.616	-16.096	-106.472
   13.800000000	 -8.668	 52.163	 -8.386	 32.268	 -8.399	 32.227	-16.599	-115.092
   13.900000000	 -8.289	 45.334	 -8.431	 21.967	 -8.443	 21.923	-17.276	-123.561
   14.000000000	 -7.930	 38.653	 -8.477	 11.642	 -8.484	 11.579	-18.379	-132.590
   14.100000000	 -7.630	 33.168	 -8.521	  1.430	 -8.531	  1.371	-19.965	-141.727
   14.200000000	 -7.344	 28.079	 -8.558	 -8.783	 -8.570	 -8.854	-22.241	-153.389
   14.300000000	 -7.085	 23.860	 -8.599	-18.967	 -8.614	-19.066	-25.977	-172.433
   14.400000000	 -6.879	 20.048	 -8.635	-29.163	 -8.647	-29.227	-30.680	142.534
   14.500000000	 -6.668	 16.820	 -8.674	-39.271	 -8.689	-39.332	-28.925	 74.834
   14.600000000	 -6.581	 13.504	 -8.696	-49.314	 -8.711	-49.394	-23.639	 45.495
   14.700000000	 -6.466	 11.103	 -8.724	-59.318	 -8.739	-59.360	-20.344	 31.855
   14.800000000	 -6.499	  8.411	 -8.725	-69.196	 -8.736	-69.269	-18.088	 21.151
   14.900000000	 -6.538	  5.606	 -8.718	-79.019	 -8.736	-79.109	-16.538	 14.170
   15.000000000	 -6.730	  3.696	 -8.685	-88.778	 -8.703	-88.845	-15.610	  7.606
   15.100000000	 -7.000	  0.973	 -8.633	-98.493	 -8.650	-98.568	-15.086	  1.749
   15.200000000	 -7.448	 -1.229	 -8.556	-108.264	 -8.574	-108.319	-15.006	 -3.472
   15.300000000	 -7.988	 -3.509	 -8.469	-118.062	 -8.480	-118.130	-15.231	 -7.576
   15.400000000	 -8.667	 -5.956	 -8.364	-127.968	 -8.381	-128.049	-15.835	-11.546
   15.500000000	 -9.583	 -8.220	 -8.251	-138.040	 -8.273	-138.076	-16.758	-14.513
   15.600000000	-10.584	-10.549	 -8.152	-148.216	 -8.168	-148.217	-18.217	-15.613
   15.700000000	-11.742	-13.350	 -8.055	-158.517	 -8.073	-158.529	-20.081	-14.579
   15.800000000	-13.042	-17.122	 -7.975	-168.994	 -7.990	-169.021	-22.614	-10.372
   15.900000000	-14.380	-21.212	 -7.906	-179.546	 -7.926	-179.593	-25.692	  1.613
   16.000000000	-15.693	-28.005	 -7.862	169.762	 -7.882	169.734	-28.784	 33.633
   16.100000000	-16.797	-38.238	 -7.833	158.911	 -7.857	158.949	-28.523	 72.812
   16.200000000	-17.573	-50.394	 -7.830	148.100	 -7.855	148.120	-24.890	 93.663
   16.300000000	-17.612	-64.379	 -7.841	137.231	 -7.863	137.242	-22.065	103.958
   16.400000000	-17.029	-77.560	 -7.859	126.316	 -7.887	126.330	-19.978	105.853
   16.500000000	-16.150	-89.510	 -7.890	115.405	 -7.918	115.463	-18.246	104.225
   16.600000000	-15.162	-96.960	 -7.922	104.551	 -7.955	104.586	-17.197	100.552
   16.700000000	-14.071	-104.709	 -7.964	 93.704	 -7.990	 93.732	-16.433	 94.141
   16.800000000	-13.383	-107.591	 -8.001	 82.970	 -8.028	 83.051	-15.977	 89.424
   16.900000000	-12.631	-112.539	 -8.029	 72.184	 -8.061	 72.244	-16.353	 77.568
   17.000000000	-12.063	-113.571	 -8.063	 61.559	 -8.086	 61.594	-16.239	 65.388
   17.100000000	-11.749	-117.907	 -8.085	 50.888	 -8.116	 50.932	-16.954	 49.826
   17.200000000	-11.200	-119.048	 -8.132	 40.212	 -8.159	 40.227	-16.582	 29.927
   17.300000000	-11.270	-121.502	 -8.158	 29.707	 -8.180	 29.730	-16.260	 12.211
   17.400000000	-11.156	-124.246	 -8.193	 19.110	 -8.220	 19.167	-15.372	 -6.276
   17.500000000	-11.447	-128.163	 -8.223	  8.611	 -8.249	  8.642	-14.278	-20.275
   17.600000000	-11.945	-133.017	 -8.247	 -1.941	 -8.272	 -1.929	-13.109	-31.564
   17.700000000	-12.849	-139.418	 -8.276	-12.517	 -8.307	-12.487	-12.093	-39.640
   17.800000000	-14.165	-147.764	 -8.298	-23.165	 -8.320	-23.114	-11.296	-45.710
   17.900000000	-16.193	-159.509	 -8.314	-33.924	 -8.336	-33.918	-10.674	-50.084
   18.000000000	-18.706	178.568	 -8.328	-44.782	 -8.354	-44.753	-10.124	-53.273
   18.100000000	-21.085	141.095	 -8.349	-55.838	 -8.380	-55.795	 -9.730	-55.926
   18.200000000	-19.653	 96.847	 -8.381	-66.901	 -8.404	-66.847	 -9.472	-58.289
   18.300000000	-16.671	 69.928	 -8.409	-77.887	 -8.440	-77.915	 -9.293	-60.033
   18.400000000	-13.908	 54.283	 -8.449	-88.981	 -8.472	-88.931	 -9.244	-62.470
   18.500000000	-12.068	 44.193	 -8.467	-99.913	 -8.499	-99.872	 -9.352	-65.557
   18.600000000	-10.659	 36.344	 -8.487	-110.788	 -8.511	-110.765	 -9.648	-68.958
   18.700000000	 -9.752	 30.566	 -8.477	-121.644	 -8.501	-121.576	-10.233	-73.024
   18.800000000	 -9.184	 26.037	 -8.451	-132.397	 -8.479	-132.348	-11.010	-77.862
   18.900000000	 -8.901	 22.108	 -8.399	-143.202	 -8.432	-143.155	-12.092	-83.779
   19.000000000	 -8.865	 19.264	 -8.339	-154.123	 -8.360	-154.133	-13.764	-90.809
   19.100000000	 -8.976	 16.113	 -8.272	-165.274	 -8.303	-165.142	-15.793	-99.209
   19.200000000	 -9.401	 14.466	 -8.200	-176.266	 -8.236	-176.186	-18.148	-109.661
   19.300000000	 -9.945	 10.876	 -8.114	172.455	 -8.152	172.548	-21.488	-128.605
   19.400000000	-10.775	  9.134	 -8.027	161.010	 -8.058	161.142	-24.168	-154.827
   19.500000000	-12.167	  4.297	 -7.931	149.245	 -7.971	149.300	-25.803	169.630
   19.600000000	-13.529	  0.831	 -7.860	137.167	 -7.901	137.298	-24.238	142.372
   19.700000000	-15.745	 -4.219	 -7.801	124.833	 -7.844	124.952	-23.279	128.229
   19.800000000	-18.493	-11.900	 -7.766	112.250	 -7.807	112.305	-22.086	122.053
   19.900000000	-22.820	-23.975	 -7.744	 99.404	 -7.778	 99.479	-21.397	122.150
   20.000000000	-29.314	-43.570	 -7.742	 86.363	 -7.779	 86.453	-20.909	123.437
