! Date: Wednesday, June 05, 2013  1:50 PM
! Filename: C:\Data\Mike_Arnold\TGP2105-SM\Over_Temp\TGP2105-SM_EVB01_25C_Phase11.s2p 
! Comments: 
!^VDC(V):5.000
!^VDC(mA):0.070
!%Freq(GHz),S11(dB),S11(ang),S21(dB),S21(ang),S12(dB),S12(ang),S22(dB),S22(ang)
# GHz   S   DB   R   50
    5.000000000	 -9.167	 96.475	 -7.342	-170.231	 -7.361	-170.294	 -6.430	 87.308
    5.100000000	-10.247	 87.244	 -7.126	174.063	 -7.142	174.020	 -6.733	 79.718
    5.200000000	-11.927	 79.054	 -6.896	158.264	 -6.908	158.234	 -7.298	 72.367
    5.300000000	-14.395	 73.059	 -6.684	142.386	 -6.701	142.323	 -8.075	 66.155
    5.400000000	-18.065	 74.359	 -6.520	126.317	 -6.532	126.316	 -9.061	 61.101
    5.500000000	-22.308	100.862	 -6.415	110.355	 -6.433	110.335	-10.171	 58.043
    5.600000000	-20.259	141.000	 -6.379	 94.612	 -6.398	 94.561	-11.293	 57.447
    5.700000000	-16.320	150.029	 -6.406	 79.177	 -6.424	 79.188	-12.146	 58.243
    5.800000000	-13.686	147.165	 -6.477	 64.320	 -6.493	 64.302	-12.709	 59.340
    5.900000000	-11.867	140.502	 -6.563	 49.920	 -6.579	 49.898	-13.110	 58.965
    6.000000000	-10.718	132.096	 -6.656	 35.950	 -6.675	 35.911	-13.480	 56.716
    6.100000000	-10.092	123.409	 -6.752	 22.513	 -6.767	 22.452	-14.076	 52.208
    6.200000000	 -9.760	114.578	 -6.824	  9.597	 -6.839	  9.595	-15.135	 46.911
    6.300000000	 -9.734	105.081	 -6.810	 -2.670	 -6.826	 -2.659	-16.475	 43.085
    6.400000000	-10.223	 96.192	 -6.631	-15.235	 -6.646	-15.273	-17.576	 38.324
    6.500000000	-10.947	 89.461	 -6.476	-28.750	 -6.488	-28.778	-19.083	 27.788
    6.600000000	-11.643	 84.288	 -6.395	-42.334	 -6.409	-42.359	-21.695	 11.947
    6.700000000	-12.395	 79.093	 -6.355	-55.903	 -6.369	-55.927	-25.765	-10.801
    6.800000000	-13.188	 74.620	 -6.338	-69.428	 -6.361	-69.361	-30.892	-59.737
    6.900000000	-13.941	 71.223	 -6.349	-82.688	 -6.374	-82.635	-29.241	-130.978
    7.000000000	-14.558	 67.337	 -6.388	-95.805	 -6.413	-95.739	-25.417	-165.077
    7.100000000	-15.087	 63.408	 -6.428	-108.764	 -6.455	-108.718	-22.871	174.512
    7.200000000	-15.467	 59.358	 -6.484	-121.590	 -6.507	-121.509	-21.227	158.022
    7.300000000	-15.678	 54.518	 -6.540	-134.227	 -6.567	-134.170	-20.112	141.505
    7.400000000	-15.750	 48.793	 -6.602	-146.775	 -6.625	-146.699	-19.411	125.045
    7.500000000	-15.741	 42.518	 -6.656	-159.166	 -6.685	-159.098	-18.859	108.722
    7.600000000	-15.523	 35.945	 -6.724	-171.409	 -6.747	-171.384	-18.200	 92.265
    7.700000000	-15.252	 28.835	 -6.783	176.437	 -6.807	176.511	-17.478	 75.958
    7.800000000	-14.932	 21.594	 -6.843	164.450	 -6.858	164.530	-16.738	 61.055
    7.900000000	-14.629	 14.656	 -6.888	152.563	 -6.919	152.645	-15.912	 47.755
    8.000000000	-14.267	  7.493	 -6.932	140.814	 -6.961	140.885	-15.097	 36.035
    8.100000000	-14.063	  0.178	 -6.963	129.136	 -7.000	129.229	-14.486	 25.306
    8.200000000	-13.928	 -7.220	 -6.983	117.549	 -7.014	117.675	-14.077	 16.067
    8.300000000	-13.961	-14.533	 -6.992	106.046	 -7.019	106.163	-13.842	  8.029
    8.400000000	-14.167	-22.391	 -6.978	 94.526	 -7.007	 94.615	-13.879	  0.418
    8.500000000	-14.745	-30.579	 -6.947	 82.932	 -6.980	 83.070	-14.273	 -6.523
    8.600000000	-15.573	-38.895	 -6.912	 71.259	 -6.941	 71.389	-15.013	-12.026
    8.700000000	-16.824	-47.753	 -6.869	 59.452	 -6.905	 59.517	-16.178	-16.889
    8.800000000	-18.581	-57.950	 -6.835	 47.476	 -6.865	 47.561	-17.880	-20.213
    8.900000000	-21.146	-69.770	 -6.815	 35.432	 -6.848	 35.532	-20.488	-19.168
    9.000000000	-24.644	-84.374	 -6.811	 23.331	 -6.841	 23.424	-23.769	-12.275
    9.100000000	-29.379	-109.639	 -6.830	 11.242	 -6.864	 11.329	-27.237	 13.500
    9.200000000	-32.703	-163.006	 -6.864	 -0.857	 -6.897	 -0.767	-27.470	 57.183
    9.300000000	-30.301	152.710	 -6.915	-12.851	 -6.942	-12.751	-24.402	 78.686
    9.400000000	-27.997	136.893	 -6.964	-24.810	 -6.997	-24.680	-21.829	 88.864
    9.500000000	-26.478	136.849	 -7.023	-36.607	 -7.053	-36.519	-20.231	 95.432
    9.600000000	-25.130	141.122	 -7.087	-48.411	 -7.116	-48.284	-18.903	 99.918
    9.700000000	-23.527	150.768	 -7.146	-60.089	 -7.176	-60.013	-17.732	103.773
    9.800000000	-21.264	158.507	 -7.215	-71.720	 -7.252	-71.625	-16.688	108.448
    9.900000000	-18.964	161.750	 -7.297	-83.323	 -7.330	-83.208	-15.705	111.523
   10.000000000	-18.430	151.442	 -7.344	-95.107	 -7.375	-95.005	-15.622	111.619
   10.100000000	-16.859	148.118	 -7.411	-106.632	 -7.448	-106.553	-14.963	112.072
   10.200000000	-15.283	144.111	 -7.491	-118.087	 -7.525	-117.974	-14.335	110.748
   10.300000000	-14.171	139.198	 -7.571	-129.400	 -7.600	-129.308	-13.788	108.841
   10.400000000	-13.195	133.924	 -7.655	-140.640	 -7.691	-140.516	-13.404	105.791
   10.500000000	-12.490	129.044	 -7.735	-151.713	 -7.771	-151.609	-13.045	101.189
   10.600000000	-11.938	123.516	 -7.819	-162.724	 -7.848	-162.627	-12.935	 96.888
   10.700000000	-11.612	118.132	 -7.905	-173.546	 -7.920	-173.587	-12.898	 90.938
   10.800000000	-11.371	113.101	 -7.971	175.630	 -7.991	175.586	-12.922	 84.877
   10.900000000	-11.378	107.848	 -8.034	164.854	 -8.051	164.797	-13.098	 78.061
   11.000000000	-11.424	102.945	 -8.086	154.116	 -8.107	154.076	-13.232	 70.989
   11.100000000	-11.714	 97.802	 -8.125	143.417	 -8.148	143.360	-13.369	 63.584
   11.200000000	-12.093	 93.242	 -8.167	132.701	 -8.181	132.681	-13.522	 56.267
   11.300000000	-12.691	 88.650	 -8.183	122.044	 -8.204	121.982	-13.603	 49.427
   11.400000000	-13.459	 84.311	 -8.203	111.376	 -8.225	111.305	-13.639	 42.921
   11.500000000	-14.494	 80.971	 -8.217	100.698	 -8.236	100.658	-13.653	 37.027
   11.600000000	-15.741	 78.137	 -8.226	 90.034	 -8.242	 89.993	-13.592	 32.041
   11.700000000	-17.412	 77.277	 -8.225	 79.353	 -8.249	 79.315	-13.457	 27.647
   11.800000000	-19.452	 80.096	 -8.234	 68.692	 -8.248	 68.654	-13.309	 23.853
   11.900000000	-21.521	 89.158	 -8.238	 58.042	 -8.256	 58.044	-13.110	 20.679
   12.000000000	-23.144	106.107	 -8.244	 47.438	 -8.270	 47.408	-12.856	 17.981
   12.100000000	-23.000	128.098	 -8.257	 36.822	 -8.269	 36.776	-12.634	 15.092
   12.200000000	-21.159	143.122	 -8.269	 26.282	 -8.286	 26.191	-12.353	 12.214
   12.300000000	-19.224	147.881	 -8.289	 15.726	 -8.305	 15.645	-12.153	  9.246
   12.400000000	-17.593	148.842	 -8.306	  5.213	 -8.326	  5.134	-11.954	  5.924
   12.500000000	-16.324	146.122	 -8.331	 -5.254	 -8.341	 -5.336	-11.844	  2.431
   12.600000000	-15.270	141.909	 -8.351	-15.740	 -8.363	-15.799	-11.751	 -1.377
   12.700000000	-14.598	136.464	 -8.366	-26.232	 -8.386	-26.251	-11.770	 -5.611
   12.800000000	-13.992	130.212	 -8.385	-36.673	 -8.402	-36.742	-11.832	-10.229
   12.900000000	-13.518	122.822	 -8.401	-47.166	 -8.416	-47.191	-11.947	-15.084
   13.000000000	-13.171	115.127	 -8.414	-57.617	 -8.432	-57.687	-12.141	-20.411
   13.100000000	-12.871	107.140	 -8.427	-68.105	 -8.442	-68.157	-12.362	-26.100
   13.200000000	-12.506	 98.990	 -8.444	-78.550	 -8.461	-78.644	-12.597	-32.216
   13.300000000	-12.197	 90.066	 -8.458	-89.040	 -8.479	-89.122	-12.844	-38.746
   13.400000000	-11.839	 81.794	 -8.477	-99.521	 -8.494	-99.564	-13.130	-45.865
   13.500000000	-11.440	 73.333	 -8.496	-109.940	 -8.513	-109.990	-13.360	-52.569
   13.600000000	-10.970	 65.298	 -8.521	-120.368	 -8.539	-120.479	-13.669	-59.813
   13.700000000	-10.572	 57.672	 -8.554	-130.800	 -8.570	-130.819	-13.926	-66.614
   13.800000000	-10.128	 50.875	 -8.584	-141.092	 -8.595	-141.199	-14.331	-73.060
   13.900000000	 -9.681	 45.166	 -8.619	-151.454	 -8.629	-151.545	-14.815	-79.012
   14.000000000	 -9.247	 39.482	 -8.654	-161.796	 -8.669	-161.839	-15.535	-83.682
   14.100000000	 -8.856	 35.150	 -8.694	-172.102	 -8.708	-172.209	-16.428	-86.883
   14.200000000	 -8.459	 31.064	 -8.730	177.572	 -8.748	177.507	-17.588	-88.343
   14.300000000	 -8.079	 27.792	 -8.776	167.263	 -8.789	167.227	-19.178	-86.268
   14.400000000	 -7.737	 24.800	 -8.821	157.021	 -8.828	156.914	-20.959	-78.411
   14.500000000	 -7.362	 22.260	 -8.876	146.742	 -8.884	146.681	-22.046	-63.964
   14.600000000	 -7.120	 19.526	 -8.910	136.595	 -8.928	136.532	-22.025	-44.680
   14.700000000	 -6.827	 17.514	 -8.961	126.520	 -8.978	126.448	-20.776	-30.474
   14.800000000	 -6.687	 15.148	 -8.993	116.537	 -9.010	116.473	-19.014	-23.777
   14.900000000	 -6.556	 12.435	 -9.022	106.637	 -9.038	106.584	-17.733	-20.494
   15.000000000	 -6.553	 10.561	 -9.022	 96.928	 -9.038	 96.859	-16.807	-20.799
   15.100000000	 -6.642	  7.761	 -9.009	 87.253	 -9.024	 87.196	-16.231	-22.572
   15.200000000	 -6.884	  5.357	 -8.961	 77.636	 -8.980	 77.551	-16.103	-25.528
   15.300000000	 -7.214	  2.725	 -8.912	 68.005	 -8.927	 67.923	-16.309	-28.352
   15.400000000	 -7.656	 -0.305	 -8.833	 58.298	 -8.847	 58.232	-16.873	-32.058
   15.500000000	 -8.307	 -3.368	 -8.746	 48.539	 -8.765	 48.485	-17.779	-35.961
   15.600000000	 -9.043	 -6.967	 -8.657	 38.713	 -8.682	 38.691	-19.313	-39.719
   15.700000000	 -9.924	-11.405	 -8.574	 28.754	 -8.591	 28.729	-21.326	-43.794
   15.800000000	-10.937	-17.224	 -8.494	 18.685	 -8.516	 18.650	-24.244	-50.018
   15.900000000	-12.004	-23.673	 -8.432	  8.520	 -8.451	  8.468	-28.647	-59.874
   16.000000000	-13.065	-32.718	 -8.382	 -1.745	 -8.402	 -1.818	-37.050	-105.286
   16.100000000	-13.949	-44.524	 -8.348	-12.195	 -8.370	-12.167	-32.319	178.613
   16.200000000	-14.552	-57.867	 -8.329	-22.613	 -8.360	-22.581	-26.825	154.667
   16.300000000	-14.642	-72.034	 -8.332	-33.063	 -8.360	-33.010	-23.003	148.827
   16.400000000	-14.275	-85.331	 -8.343	-43.494	 -8.374	-43.470	-20.690	144.270
   16.500000000	-13.702	-97.513	 -8.367	-53.888	 -8.395	-53.837	-18.866	139.074
   16.600000000	-13.078	-106.145	 -8.380	-64.178	 -8.406	-64.115	-17.709	135.146
   16.700000000	-12.357	-114.658	 -8.404	-74.498	 -8.432	-74.428	-16.976	129.673
   16.800000000	-12.074	-119.259	 -8.407	-84.609	 -8.436	-84.555	-16.244	126.311
   16.900000000	-11.724	-125.261	 -8.398	-94.808	 -8.430	-94.751	-16.794	120.640
   17.000000000	-11.693	-127.357	 -8.379	-104.922	 -8.409	-104.845	-16.993	112.214
   17.100000000	-11.856	-132.267	 -8.350	-115.082	 -8.382	-115.019	-18.286	106.113
   17.200000000	-11.931	-132.766	 -8.323	-125.299	 -8.349	-125.223	-19.755	 90.128
   17.300000000	-12.643	-134.507	 -8.279	-135.514	 -8.313	-135.476	-21.418	 74.249
   17.400000000	-13.163	-134.925	 -8.253	-145.856	 -8.282	-145.817	-23.223	 46.193
   17.500000000	-14.084	-135.854	 -8.227	-156.279	 -8.258	-156.258	-22.944	 14.747
   17.600000000	-15.237	-136.524	 -8.219	-166.831	 -8.241	-166.770	-21.029	-10.504
   17.700000000	-16.854	-137.350	 -8.216	-177.461	 -8.238	-177.415	-18.902	-24.882
   17.800000000	-19.111	-137.913	 -8.221	171.773	 -8.252	171.789	-17.244	-33.169
   17.900000000	-22.880	-136.771	 -8.256	160.900	 -8.282	160.887	-16.000	-37.545
   18.000000000	-30.684	-136.289	 -8.301	149.928	 -8.324	149.955	-14.900	-39.577
   18.100000000	-33.825	 12.567	 -8.363	138.809	 -8.391	138.839	-14.038	-40.720
   18.200000000	-23.448	 23.152	 -8.442	127.662	 -8.468	127.667	-13.385	-41.204
   18.300000000	-19.116	 20.794	 -8.548	116.539	 -8.576	116.542	-12.757	-40.901
   18.400000000	-16.315	 18.738	 -8.666	105.404	 -8.701	105.414	-12.302	-41.614
   18.500000000	-14.793	 15.886	 -8.803	 94.473	 -8.831	 94.481	-12.039	-43.305
   18.600000000	-13.786	 13.486	 -8.961	 83.710	 -8.986	 83.738	-12.026	-45.438
   18.700000000	-13.460	 12.442	 -9.122	 73.316	 -9.151	 73.318	-12.399	-48.294
   18.800000000	-13.574	 13.702	 -9.275	 63.436	 -9.297	 63.412	-13.147	-52.483
   18.900000000	-13.876	 18.129	 -9.349	 54.120	 -9.377	 54.129	-14.643	-57.405
   19.000000000	-13.936	 26.050	 -9.266	 45.139	 -9.293	 45.139	-17.657	-59.450
   19.100000000	-13.475	 32.025	 -8.998	 35.378	 -9.035	 35.512	-22.307	-49.706
   19.200000000	-13.082	 37.737	 -8.690	 24.385	 -8.728	 24.533	-25.634	 -7.725
   19.300000000	-12.927	 39.231	 -8.462	 12.382	 -8.494	 12.467	-22.046	 33.117
   19.400000000	-12.820	 43.306	 -8.336	 -0.057	 -8.378	  0.073	-18.768	 38.871
   19.500000000	-13.309	 46.176	 -8.293	-12.539	 -8.326	-12.468	-16.423	 36.724
   19.600000000	-13.215	 48.411	 -8.286	-25.050	 -8.329	-24.976	-15.265	 32.916
   19.700000000	-13.419	 50.657	 -8.303	-37.561	 -8.340	-37.446	-14.560	 25.121
   19.800000000	-13.685	 50.004	 -8.324	-50.206	 -8.360	-50.086	-14.398	 16.962
   19.900000000	-14.164	 48.691	 -8.348	-63.033	 -8.382	-62.936	-14.651	  6.140
   20.000000000	-14.545	 45.161	 -8.391	-76.025	 -8.427	-75.894	-15.028	 -6.179
