! Date: Wednesday, June 05, 2013  1:49 PM
! Filename: C:\Data\Mike_Arnold\TGP2105-SM\Over_Temp\TGP2105-SM_EVB01_25C_Phase4.s2p 
! Comments: 
!^VDC(V):5.000
!^VDC(mA):0.083
!%Freq(GHz),S11(dB),S11(ang),S21(dB),S21(ang),S12(dB),S12(ang),S22(dB),S22(ang)
# GHz   S   DB   R   50
    5.000000000	-13.301	 -7.235	 -8.354	142.170	 -8.369	142.153	 -4.967	 98.376
    5.100000000	-13.346	-48.229	 -8.196	126.205	 -8.207	126.187	 -5.179	 93.440
    5.200000000	-12.086	-84.426	 -8.102	110.521	 -8.117	110.508	 -5.388	 88.675
    5.300000000	-10.503	-112.216	 -8.070	 95.320	 -8.088	 95.329	 -5.538	 84.092
    5.400000000	 -9.134	-133.852	 -8.069	 80.657	 -8.085	 80.630	 -5.691	 79.064
    5.500000000	 -8.047	-151.550	 -8.072	 66.517	 -8.092	 66.502	 -5.860	 73.688
    5.600000000	 -7.300	-167.116	 -8.063	 52.863	 -8.081	 52.830	 -6.108	 68.007
    5.700000000	 -6.804	179.192	 -8.022	 39.488	 -8.039	 39.486	 -6.420	 61.695
    5.800000000	 -6.536	167.237	 -7.940	 26.473	 -7.960	 26.447	 -6.853	 54.822
    5.900000000	 -6.393	156.200	 -7.825	 13.497	 -7.832	 13.479	 -7.469	 47.330
    6.000000000	 -6.431	145.830	 -7.673	  0.519	 -7.686	  0.505	 -8.268	 39.366
    6.100000000	 -6.659	136.308	 -7.508	-12.466	 -7.523	-12.481	 -9.340	 30.808
    6.200000000	 -7.014	127.604	 -7.324	-25.397	 -7.344	-25.426	-10.749	 22.258
    6.300000000	 -7.516	119.355	 -7.112	-38.331	 -7.127	-38.353	-12.430	 14.232
    6.400000000	 -8.235	112.181	 -6.845	-51.708	 -6.860	-51.728	-14.336	  5.695
    6.500000000	 -9.003	106.644	 -6.643	-65.675	 -6.660	-65.671	-16.865	 -4.015
    6.600000000	 -9.697	102.078	 -6.523	-79.525	 -6.536	-79.545	-20.589	-12.801
    6.700000000	-10.416	 97.501	 -6.436	-93.345	 -6.451	-93.327	-26.083	-13.168
    6.800000000	-11.137	 93.263	 -6.377	-107.101	 -6.400	-107.013	-32.776	 24.983
    6.900000000	-11.782	 89.643	 -6.352	-120.581	 -6.378	-120.527	-28.689	 74.413
    7.000000000	-12.381	 85.237	 -6.348	-133.952	 -6.377	-133.897	-24.160	 73.227
    7.100000000	-12.957	 80.715	 -6.360	-147.206	 -6.388	-147.117	-21.554	 62.320
    7.200000000	-13.458	 76.043	 -6.381	-160.270	 -6.411	-160.192	-19.739	 48.874
    7.300000000	-13.867	 70.693	 -6.415	-173.208	 -6.442	-173.128	-18.254	 34.900
    7.400000000	-14.197	 64.707	 -6.451	173.974	 -6.476	174.043	-17.000	 20.735
    7.500000000	-14.445	 58.338	 -6.491	161.288	 -6.519	161.338	-15.955	  7.171
    7.600000000	-14.510	 51.412	 -6.539	148.698	 -6.563	148.767	-15.039	 -4.914
    7.700000000	-14.488	 44.014	 -6.589	136.262	 -6.609	136.347	-14.248	-16.129
    7.800000000	-14.388	 36.532	 -6.633	123.950	 -6.653	124.021	-13.650	-26.851
    7.900000000	-14.271	 29.286	 -6.665	111.736	 -6.690	111.837	-13.250	-36.604
    8.000000000	-14.104	 21.826	 -6.689	 99.647	 -6.722	 99.745	-13.044	-45.613
    8.100000000	-14.039	 14.990	 -6.715	 87.582	 -6.748	 87.666	-13.033	-55.095
    8.200000000	-14.042	  8.428	 -6.732	 75.535	 -6.759	 75.663	-13.301	-64.806
    8.300000000	-14.111	  2.894	 -6.736	 63.516	 -6.762	 63.650	-13.854	-74.788
    8.400000000	-14.261	 -2.377	 -6.744	 51.489	 -6.770	 51.589	-14.647	-85.989
    8.500000000	-14.587	 -6.582	 -6.745	 39.408	 -6.772	 39.503	-15.717	-99.338
    8.600000000	-14.892	-10.051	 -6.752	 27.239	 -6.785	 27.343	-17.093	-115.692
    8.700000000	-15.193	-13.132	 -6.770	 15.105	 -6.798	 15.176	-18.361	-136.241
    8.800000000	-15.525	-17.012	 -6.799	  2.867	 -6.828	  2.951	-19.073	-160.259
    8.900000000	-15.890	-21.507	 -6.837	 -9.314	 -6.866	 -9.221	-18.748	174.535
    9.000000000	-16.241	-27.740	 -6.884	-21.450	 -6.913	-21.377	-17.783	155.183
    9.100000000	-16.665	-36.687	 -6.937	-33.600	 -6.970	-33.508	-16.572	140.547
    9.200000000	-17.234	-49.576	 -6.996	-45.749	 -7.031	-45.641	-15.299	131.252
    9.300000000	-17.783	-66.585	 -7.064	-57.901	 -7.100	-57.770	-14.303	124.414
    9.400000000	-18.012	-87.831	 -7.144	-69.976	 -7.176	-69.832	-13.316	119.916
    9.500000000	-17.547	-112.223	 -7.240	-82.000	 -7.265	-81.919	-12.442	117.192
    9.600000000	-16.525	-135.290	 -7.340	-93.985	 -7.373	-93.860	-11.627	114.588
    9.700000000	-15.120	-154.390	 -7.469	-105.844	 -7.497	-105.717	-10.859	111.861
    9.800000000	-13.746	-170.371	 -7.604	-117.527	 -7.642	-117.407	-10.199	109.571
    9.900000000	-12.601	176.288	 -7.753	-129.013	 -7.780	-128.882	 -9.655	106.699
   10.000000000	-12.555	160.652	 -7.832	-140.912	 -7.870	-140.795	 -9.534	103.187
   10.100000000	-11.977	148.574	 -7.949	-152.201	 -7.983	-152.069	 -9.321	 99.344
   10.200000000	-11.430	138.087	 -8.064	-163.328	 -8.095	-163.192	 -9.164	 94.879
   10.300000000	-11.221	128.185	 -8.170	-174.292	 -8.203	-174.173	 -9.106	 90.380
   10.400000000	-11.112	119.126	 -8.252	174.808	 -8.291	174.923	 -9.166	 85.432
   10.500000000	-11.250	111.035	 -8.325	164.086	 -8.365	164.201	 -9.227	 80.005
   10.600000000	-11.554	102.985	 -8.385	153.390	 -8.415	153.488	 -9.459	 74.769
   10.700000000	-12.114	 95.291	 -8.435	142.799	 -8.457	142.753	 -9.685	 68.888
   10.800000000	-12.884	 88.364	 -8.471	132.084	 -8.491	132.079	 -9.937	 63.117
   10.900000000	-14.040	 80.928	 -8.489	121.402	 -8.511	121.368	-10.215	 56.772
   11.000000000	-15.515	 74.287	 -8.509	110.656	 -8.528	110.646	-10.438	 50.607
   11.100000000	-17.707	 66.768	 -8.518	 99.881	 -8.540	 99.829	-10.593	 44.286
   11.200000000	-20.921	 60.501	 -8.528	 89.065	 -8.549	 89.031	-10.719	 37.977
   11.300000000	-26.827	 53.686	 -8.544	 78.247	 -8.564	 78.228	-10.755	 32.076
   11.400000000	-64.094	135.702	 -8.563	 67.381	 -8.584	 67.382	-10.729	 26.250
   11.500000000	-26.383	-142.815	 -8.589	 56.603	 -8.614	 56.560	-10.658	 20.609
   11.600000000	-20.513	-148.972	 -8.626	 45.833	 -8.648	 45.796	-10.537	 15.184
   11.700000000	-17.037	-155.440	 -8.664	 35.126	 -8.688	 35.108	-10.380	  9.883
   11.800000000	-14.648	-162.145	 -8.714	 24.503	 -8.738	 24.500	-10.244	  4.756
   11.900000000	-12.930	-169.216	 -8.765	 13.975	 -8.786	 13.955	-10.138	 -0.210
   12.000000000	-11.648	-175.713	 -8.819	  3.585	 -8.842	  3.528	-10.061	 -5.135
   12.100000000	-10.629	177.886	 -8.874	 -6.724	 -8.887	 -6.787	-10.069	-10.339
   12.200000000	 -9.841	171.535	 -8.918	-16.963	 -8.934	-16.995	-10.114	-15.493
   12.300000000	 -9.287	165.001	 -8.963	-27.103	 -8.980	-27.174	-10.267	-20.628
   12.400000000	 -8.854	158.884	 -9.000	-37.217	 -9.014	-37.289	-10.492	-26.011
   12.500000000	 -8.561	152.546	 -9.022	-47.338	 -9.038	-47.391	-10.823	-31.622
   12.600000000	 -8.341	146.198	 -9.042	-57.412	 -9.057	-57.470	-11.235	-37.194
   12.700000000	 -8.265	139.752	 -9.039	-67.533	 -9.065	-67.565	-11.772	-43.273
   12.800000000	 -8.203	133.171	 -9.045	-77.710	 -9.060	-77.715	-12.370	-49.629
   12.900000000	 -8.191	126.226	 -9.036	-87.910	 -9.053	-87.953	-13.069	-56.232
   13.000000000	 -8.229	119.151	 -9.032	-98.146	 -9.043	-98.225	-13.854	-63.278
   13.100000000	 -8.283	111.895	 -9.010	-108.453	 -9.025	-108.517	-14.717	-70.646
   13.200000000	 -8.291	104.524	 -9.005	-118.775	 -9.017	-118.806	-15.619	-78.205
   13.300000000	 -8.316	 96.693	 -8.991	-129.121	 -9.005	-129.192	-16.589	-85.986
   13.400000000	 -8.298	 89.159	 -8.982	-139.514	 -8.994	-139.601	-17.591	-94.541
   13.500000000	 -8.234	 81.434	 -8.976	-149.931	 -8.990	-149.998	-18.739	-101.564
   13.600000000	 -8.098	 73.756	 -8.977	-160.335	 -8.990	-160.410	-20.024	-108.938
   13.700000000	 -7.972	 66.417	 -8.989	-170.708	 -9.002	-170.795	-21.585	-114.128
   13.800000000	 -7.776	 59.528	 -9.005	178.909	 -9.018	178.857	-23.828	-117.655
   13.900000000	 -7.537	 53.463	 -9.018	168.563	 -9.039	168.487	-26.862	-114.412
   14.000000000	 -7.282	 47.304	 -9.060	158.217	 -9.074	158.146	-31.268	-92.700
   14.100000000	 -7.021	 42.197	 -9.100	147.934	 -9.112	147.871	-30.806	-41.424
   14.200000000	 -6.757	 37.202	 -9.147	137.643	 -9.160	137.620	-26.120	-19.396
   14.300000000	 -6.506	 32.866	 -9.198	127.512	 -9.212	127.454	-22.438	-13.932
   14.400000000	 -6.299	 28.825	 -9.244	117.470	 -9.260	117.418	-19.840	-14.273
   14.500000000	 -6.090	 25.223	 -9.295	107.504	 -9.310	107.431	-17.947	-18.304
   14.600000000	 -6.014	 21.652	 -9.321	 97.688	 -9.334	 97.593	-16.653	-21.769
   14.700000000	 -5.927	 18.932	 -9.343	 87.966	 -9.353	 87.889	-15.870	-26.201
   14.800000000	 -5.991	 16.180	 -9.327	 78.297	 -9.337	 78.215	-15.320	-30.870
   14.900000000	 -6.078	 13.418	 -9.289	 68.667	 -9.308	 68.613	-15.267	-34.871
   15.000000000	 -6.290	 11.840	 -9.233	 59.124	 -9.250	 59.035	-15.593	-39.360
   15.100000000	 -6.586	  9.710	 -9.148	 49.490	 -9.164	 49.422	-16.305	-43.435
   15.200000000	 -7.018	  8.376	 -9.041	 39.809	 -9.062	 39.741	-17.522	-47.318
   15.300000000	 -7.506	  7.260	 -8.937	 30.052	 -8.951	 30.015	-19.397	-49.391
   15.400000000	 -8.080	  6.032	 -8.825	 20.191	 -8.846	 20.131	-22.028	-49.884
   15.500000000	 -8.815	  5.338	 -8.709	 10.248	 -8.734	 10.217	-25.979	-43.834
   15.600000000	 -9.577	  4.386	 -8.618	  0.192	 -8.633	  0.184	-31.822	-11.008
   15.700000000	-10.462	  2.894	 -8.528	 -9.917	 -8.547	 -9.940	-30.104	 50.422
   15.800000000	-11.490	  0.346	 -8.450	-20.099	 -8.474	-20.139	-25.431	 70.335
   15.900000000	-12.595	 -2.698	 -8.398	-30.333	 -8.416	-30.365	-22.355	 74.721
   16.000000000	-13.854	 -8.213	 -8.355	-40.617	 -8.374	-40.636	-20.219	 77.039
   16.100000000	-15.273	-16.895	 -8.318	-51.043	 -8.342	-51.016	-19.130	 76.445
   16.200000000	-16.687	-28.272	 -8.295	-61.446	 -8.327	-61.420	-18.100	 74.721
   16.300000000	-17.803	-43.798	 -8.289	-71.927	 -8.319	-71.875	-17.609	 73.645
   16.400000000	-18.280	-61.854	 -8.287	-82.420	 -8.315	-82.399	-17.340	 70.481
   16.500000000	-18.124	-80.218	 -8.291	-92.947	 -8.323	-92.883	-17.156	 66.675
   16.600000000	-17.474	-92.899	 -8.296	-103.462	 -8.327	-103.392	-17.407	 60.628
   16.700000000	-16.513	-105.018	 -8.305	-114.014	 -8.334	-113.947	-17.713	 52.284
   16.800000000	-16.094	-109.776	 -8.305	-124.454	 -8.335	-124.396	-18.716	 44.523
   16.900000000	-15.500	-116.565	 -8.314	-135.035	 -8.339	-134.968	-19.538	 24.296
   17.000000000	-15.254	-117.374	 -8.316	-145.514	 -8.344	-145.451	-19.778	  6.814
   17.100000000	-15.303	-122.321	 -8.326	-156.001	 -8.356	-155.952	-19.716	-19.480
   17.200000000	-15.066	-121.962	 -8.346	-166.526	 -8.376	-166.462	-18.117	-37.392
   17.300000000	-15.839	-122.800	 -8.355	-176.996	 -8.390	-176.946	-17.027	-52.858
   17.400000000	-16.347	-122.572	 -8.379	172.526	 -8.409	172.587	-15.571	-64.669
   17.500000000	-17.683	-122.433	 -8.403	162.019	 -8.429	162.052	-14.562	-72.485
   17.600000000	-19.616	-120.331	 -8.421	151.473	 -8.458	151.471	-13.703	-77.917
   17.700000000	-22.806	-111.918	 -8.451	140.752	 -8.482	140.785	-13.134	-81.264
   17.800000000	-26.802	-82.516	 -8.487	129.940	 -8.512	129.989	-12.800	-83.550
   17.900000000	-25.309	-28.874	 -8.533	118.973	 -8.563	119.015	-12.642	-84.535
   18.000000000	-20.834	 -6.087	 -8.590	107.897	 -8.615	107.934	-12.503	-84.388
   18.100000000	-17.131	 -1.563	 -8.666	 96.678	 -8.689	 96.740	-12.466	-84.446
   18.200000000	-14.739	 -1.178	 -8.757	 85.461	 -8.782	 85.471	-12.561	-84.929
   18.300000000	-13.147	 -3.730	 -8.858	 74.225	 -8.884	 74.232	-12.806	-85.259
   18.400000000	-12.055	 -5.807	 -8.968	 62.934	 -8.993	 62.943	-13.207	-87.287
   18.500000000	-11.558	 -8.894	 -9.096	 51.699	 -9.127	 51.709	-13.933	-91.059
   18.600000000	-11.382	-11.423	 -9.250	 40.543	 -9.282	 40.556	-15.159	-96.625
   18.700000000	-11.727	-13.533	 -9.433	 29.599	 -9.460	 29.673	-17.257	-106.025
   18.800000000	-12.597	-14.223	 -9.646	 19.210	 -9.677	 19.191	-20.552	-122.586
   18.900000000	-13.984	-12.178	 -9.840	  9.614	 -9.868	  9.649	-25.610	-164.248
   19.000000000	-15.748	 -3.114	 -9.876	  0.903	 -9.906	  0.905	-23.849	114.638
   19.100000000	-16.595	 11.395	 -9.666	 -8.117	 -9.705	 -7.951	-19.013	 79.120
   19.200000000	-16.580	 28.400	 -9.325	-18.387	 -9.364	-18.325	-16.576	 60.313
   19.300000000	-16.082	 36.116	 -9.024	-30.088	 -9.062	-29.964	-15.215	 49.727
   19.400000000	-15.619	 45.066	 -8.822	-42.451	 -8.859	-42.371	-15.017	 40.513
   19.500000000	-16.055	 51.608	 -8.716	-55.198	 -8.749	-55.094	-15.150	 33.804
   19.600000000	-15.731	 57.865	 -8.677	-68.033	 -8.717	-67.918	-15.991	 30.299
   19.700000000	-15.641	 65.419	 -8.677	-80.943	 -8.719	-80.828	-17.177	 27.230
   19.800000000	-15.420	 69.995	 -8.715	-94.016	 -8.745	-93.890	-18.896	 29.088
   19.900000000	-15.107	 74.110	 -8.784	-107.217	 -8.816	-107.090	-21.046	 35.245
   20.000000000	-14.566	 73.828	 -8.888	-120.422	 -8.924	-120.309	-22.615	 48.357
