! Date: Wednesday, June 05, 2013  1:51 PM
! Filename: C:\Data\Mike_Arnold\TGP2105-SM\Over_Temp\TGP2105-SM_EVB01_25C_Phase42.s2p 
! Comments: 
!^VDC(V):5.000
!^VDC(mA):0.059
!%Freq(GHz),S11(dB),S11(ang),S21(dB),S21(ang),S12(dB),S12(ang),S22(dB),S22(ang)
# GHz   S   DB   R   50
    5.000000000	 -7.918	 85.599	 -7.997	 13.036	 -8.009	 13.010	 -6.295	101.758
    5.100000000	 -9.182	 72.921	 -7.725	 -2.351	 -7.745	 -2.399	 -6.483	 94.727
    5.200000000	-11.143	 59.341	 -7.441	-18.034	 -7.453	-18.078	 -6.884	 88.151
    5.300000000	-14.206	 43.850	 -7.195	-34.025	 -7.211	-34.039	 -7.423	 82.754
    5.400000000	-19.734	 23.445	 -7.008	-50.147	 -7.021	-50.177	 -8.112	 78.516
    5.500000000	-32.093	-64.692	 -6.896	-66.234	 -6.912	-66.252	 -8.840	 76.112
    5.600000000	-20.408	-157.011	 -6.838	-81.994	 -6.849	-82.030	 -9.482	 75.922
    5.700000000	-15.076	-176.418	 -6.821	-97.712	 -6.841	-97.736	 -9.754	 76.326
    5.800000000	-12.145	170.049	 -6.888	-113.021	 -6.905	-113.042	 -9.747	 75.507
    5.900000000	-10.234	157.447	 -7.001	-127.698	 -7.017	-127.735	 -9.719	 72.972
    6.000000000	 -9.032	145.625	 -7.102	-141.737	 -7.121	-141.787	 -9.727	 68.889
    6.100000000	 -8.342	134.754	 -7.174	-155.368	 -7.189	-155.377	 -9.885	 63.251
    6.200000000	 -7.923	124.630	 -7.202	-168.569	 -7.220	-168.583	-10.251	 56.618
    6.300000000	 -7.714	114.715	 -7.193	178.348	 -7.207	178.310	-10.792	 49.056
    6.400000000	 -7.765	105.118	 -7.138	165.339	 -7.153	165.313	-11.551	 40.388
    6.500000000	 -7.983	 95.998	 -7.048	152.299	 -7.067	152.283	-12.596	 30.661
    6.600000000	 -8.303	 87.258	 -6.955	139.184	 -6.969	139.131	-13.939	 20.311
    6.700000000	 -8.761	 78.182	 -6.848	125.978	 -6.865	125.932	-15.557	  9.015
    6.800000000	 -9.326	 69.389	 -6.740	112.534	 -6.766	112.599	-17.554	 -3.642
    6.900000000	 -9.969	 60.918	 -6.650	 99.203	 -6.677	 99.241	-20.078	-17.462
    7.000000000	-10.623	 52.029	 -6.584	 85.824	 -6.610	 85.859	-23.042	-31.219
    7.100000000	-11.324	 43.051	 -6.531	 72.468	 -6.554	 72.533	-26.873	-45.642
    7.200000000	-12.029	 34.268	 -6.489	 59.181	 -6.511	 59.236	-32.604	-59.283
    7.300000000	-12.693	 25.475	 -6.458	 45.934	 -6.485	 46.022	-48.365	-35.899
    7.400000000	-13.308	 16.855	 -6.448	 32.826	 -6.474	 32.887	-35.384	 67.572
    7.500000000	-13.873	  8.483	 -6.443	 19.815	 -6.471	 19.874	-28.819	 58.226
    7.600000000	-14.334	  1.080	 -6.451	  6.887	 -6.478	  6.957	-24.872	 46.620
    7.700000000	-14.709	 -5.748	 -6.471	 -5.864	 -6.491	 -5.791	-21.989	 34.951
    7.800000000	-14.993	-11.961	 -6.481	-18.441	 -6.505	-18.398	-19.926	 24.315
    7.900000000	-15.250	-17.518	 -6.499	-30.947	 -6.524	-30.887	-18.263	 15.034
    8.000000000	-15.395	-22.599	 -6.509	-43.260	 -6.537	-43.207	-16.913	  6.911
    8.100000000	-15.610	-28.095	 -6.512	-55.521	 -6.546	-55.409	-15.987	 -1.717
    8.200000000	-15.882	-33.833	 -6.510	-67.637	 -6.539	-67.558	-15.453	 -9.558
    8.300000000	-16.287	-39.848	 -6.498	-79.719	 -6.521	-79.624	-15.218	-16.716
    8.400000000	-16.889	-46.880	 -6.475	-91.790	 -6.506	-91.704	-15.368	-24.180
    8.500000000	-17.970	-55.333	 -6.453	-103.889	 -6.481	-103.807	-15.978	-31.901
    8.600000000	-19.491	-64.845	 -6.426	-116.055	 -6.456	-115.977	-17.156	-38.760
    8.700000000	-21.698	-76.582	 -6.406	-128.245	 -6.431	-128.155	-18.965	-46.262
    8.800000000	-24.796	-94.040	 -6.396	-140.479	 -6.427	-140.391	-21.797	-54.247
    8.900000000	-28.989	-128.068	 -6.410	-152.728	 -6.441	-152.655	-27.152	-64.005
    9.000000000	-30.403	174.283	 -6.439	-164.942	 -6.467	-164.848	-39.614	-97.871
    9.100000000	-27.247	134.904	 -6.482	-177.024	 -6.510	-176.968	-31.408	124.544
    9.200000000	-24.638	116.878	 -6.535	170.961	 -6.568	171.025	-24.525	116.372
    9.300000000	-23.153	106.798	 -6.597	159.086	 -6.624	159.153	-21.374	110.478
    9.400000000	-22.717	101.310	 -6.657	147.327	 -6.688	147.417	-19.332	108.088
    9.500000000	-23.034	102.760	 -6.718	135.678	 -6.741	135.766	-18.056	108.441
    9.600000000	-23.403	109.420	 -6.767	124.147	 -6.799	124.239	-17.060	109.321
    9.700000000	-23.390	124.420	 -6.818	112.694	 -6.850	112.755	-16.093	110.715
    9.800000000	-21.789	139.861	 -6.868	101.275	 -6.901	101.344	-15.188	113.139
    9.900000000	-19.606	148.328	 -6.922	 89.932	 -6.962	 90.039	-14.352	114.791
   10.000000000	-18.841	138.816	 -6.963	 78.371	 -6.985	 78.473	-14.296	114.617
   10.100000000	-17.228	137.022	 -7.011	 67.160	 -7.046	 67.225	-13.756	114.238
   10.200000000	-15.672	134.398	 -7.070	 56.016	 -7.102	 56.090	-13.219	112.330
   10.300000000	-14.600	130.119	 -7.131	 45.058	 -7.159	 45.119	-12.767	110.123
   10.400000000	-13.667	125.318	 -7.183	 34.154	 -7.216	 34.246	-12.479	106.846
   10.500000000	-13.045	120.788	 -7.241	 23.419	 -7.278	 23.494	-12.195	102.239
   10.600000000	-12.584	115.501	 -7.299	 12.763	 -7.331	 12.854	-12.149	 98.014
   10.700000000	-12.374	110.365	 -7.354	  2.330	 -7.371	  2.259	-12.180	 92.316
   10.800000000	-12.263	105.642	 -7.403	 -8.160	 -7.416	 -8.211	-12.252	 86.518
   10.900000000	-12.418	100.674	 -7.434	-18.612	 -7.459	-18.650	-12.472	 80.009
   11.000000000	-12.636	 96.155	 -7.466	-29.025	 -7.487	-29.081	-12.657	 73.366
   11.100000000	-13.115	 91.344	 -7.490	-39.456	 -7.512	-39.485	-12.861	 66.340
   11.200000000	-13.733	 87.354	 -7.507	-49.873	 -7.530	-49.893	-13.073	 59.493
   11.300000000	-14.638	 83.490	 -7.521	-60.282	 -7.548	-60.310	-13.221	 53.161
   11.400000000	-15.781	 80.365	 -7.538	-70.692	 -7.560	-70.736	-13.302	 47.131
   11.500000000	-17.320	 79.094	 -7.558	-81.111	 -7.574	-81.145	-13.346	 41.643
   11.600000000	-19.208	 80.008	 -7.568	-91.536	 -7.586	-91.594	-13.316	 36.963
   11.700000000	-21.620	 86.491	 -7.583	-102.008	 -7.607	-102.019	-13.183	 32.901
   11.800000000	-23.921	104.748	 -7.602	-112.432	 -7.624	-112.468	-13.022	 29.361
   11.900000000	-23.909	130.777	 -7.629	-122.853	 -7.646	-122.907	-12.805	 26.368
   12.000000000	-21.963	149.591	 -7.661	-133.306	 -7.674	-133.334	-12.506	 23.771
   12.100000000	-19.503	157.540	 -7.692	-143.701	 -7.708	-143.790	-12.252	 20.918
   12.200000000	-17.403	158.673	 -7.737	-154.101	 -7.746	-154.157	-11.945	 18.044
   12.300000000	-15.836	155.713	 -7.778	-164.453	 -7.791	-164.525	-11.694	 15.101
   12.400000000	-14.617	151.761	 -7.820	-174.827	 -7.836	-174.891	-11.465	 11.785
   12.500000000	-13.714	146.251	 -7.859	174.841	 -7.880	174.773	-11.315	  8.333
   12.600000000	-12.988	140.033	 -7.902	164.527	 -7.922	164.447	-11.191	  4.599
   12.700000000	-12.556	133.149	 -7.938	154.139	 -7.958	154.081	-11.170	  0.502
   12.800000000	-12.173	125.833	 -7.975	143.740	 -7.988	143.733	-11.204	 -3.883
   12.900000000	-11.898	117.750	 -8.004	133.386	 -8.019	133.327	-11.287	 -8.459
   13.000000000	-11.730	109.429	 -8.028	122.970	 -8.046	122.940	-11.457	-13.411
   13.100000000	-11.602	100.984	 -8.052	112.521	 -8.067	112.451	-11.655	-18.664
   13.200000000	-11.420	 92.461	 -8.076	102.131	 -8.096	102.061	-11.873	-24.246
   13.300000000	-11.271	 83.582	 -8.090	 91.743	 -8.102	 91.653	-12.124	-30.179
   13.400000000	-11.072	 75.219	 -8.102	 81.301	 -8.113	 81.250	-12.437	-36.437
   13.500000000	-10.829	 66.863	 -8.109	 70.869	 -8.128	 70.796	-12.680	-42.349
   13.600000000	-10.532	 58.965	 -8.123	 60.410	 -8.139	 60.336	-13.023	-48.733
   13.700000000	-10.293	 51.625	 -8.141	 49.973	 -8.157	 49.921	-13.320	-54.493
   13.800000000	-10.006	 45.205	 -8.155	 39.582	 -8.169	 39.514	-13.742	-59.795
   13.900000000	 -9.713	 39.969	 -8.174	 29.193	 -8.187	 29.111	-14.238	-64.274
   14.000000000	 -9.411	 34.949	 -8.194	 18.715	 -8.208	 18.670	-14.914	-67.154
   14.100000000	 -9.133	 31.408	 -8.216	  8.306	 -8.225	  8.259	-15.645	-67.914
   14.200000000	 -8.824	 28.199	 -8.239	 -2.131	 -8.256	 -2.206	-16.440	-66.309
   14.300000000	 -8.490	 25.903	 -8.270	-12.639	 -8.282	-12.727	-17.229	-60.928
   14.400000000	 -8.159	 23.843	 -8.311	-23.082	 -8.320	-23.142	-17.619	-52.205
   14.500000000	 -7.760	 22.112	 -8.357	-33.560	 -8.376	-33.627	-17.234	-43.201
   14.600000000	 -7.464	 20.092	 -8.410	-43.907	 -8.423	-43.987	-16.378	-35.244
   14.700000000	 -7.101	 18.618	 -8.470	-54.172	 -8.485	-54.241	-15.321	-31.094
   14.800000000	 -6.885	 16.589	 -8.521	-64.298	 -8.538	-64.382	-14.165	-30.241
   14.900000000	 -6.670	 14.086	 -8.568	-74.238	 -8.584	-74.330	-13.340	-30.956
   15.000000000	 -6.593	 12.299	 -8.597	-84.097	 -8.614	-84.158	-12.743	-33.880
   15.100000000	 -6.606	  9.509	 -8.607	-93.796	 -8.621	-93.860	-12.364	-37.840
   15.200000000	 -6.780	  7.050	 -8.584	-103.453	 -8.602	-103.517	-12.274	-43.123
   15.300000000	 -7.030	  4.274	 -8.547	-113.082	 -8.563	-113.184	-12.425	-48.804
   15.400000000	 -7.407	  1.033	 -8.487	-122.792	 -8.508	-122.868	-12.776	-55.726
   15.500000000	 -7.987	 -2.315	 -8.415	-132.609	 -8.434	-132.662	-13.316	-63.843
   15.600000000	 -8.648	 -6.257	 -8.342	-142.533	 -8.357	-142.567	-14.143	-73.415
   15.700000000	 -9.442	-11.179	 -8.266	-152.581	 -8.287	-152.623	-15.034	-84.740
   15.800000000	-10.366	-17.517	 -8.204	-162.812	 -8.221	-162.847	-15.876	-98.799
   15.900000000	-11.342	-24.673	 -8.158	-173.146	 -8.176	-173.167	-16.492	-114.963
   16.000000000	-12.298	-34.405	 -8.141	176.368	 -8.154	176.325	-16.628	-133.908
   16.100000000	-13.085	-46.750	 -8.131	165.794	 -8.160	165.811	-16.024	-150.429
   16.200000000	-13.620	-60.327	 -8.158	155.248	 -8.182	155.278	-15.273	-165.824
   16.300000000	-13.681	-74.613	 -8.203	144.705	 -8.225	144.730	-14.150	-178.066
   16.400000000	-13.339	-87.848	 -8.249	134.199	 -8.278	134.254	-13.182	171.961
   16.500000000	-12.838	-100.001	 -8.305	123.817	 -8.337	123.861	-12.318	162.799
   16.600000000	-12.316	-108.779	 -8.354	113.551	 -8.385	113.607	-11.642	155.256
   16.700000000	-11.709	-117.343	 -8.398	103.353	 -8.427	103.390	-11.208	147.758
   16.800000000	-11.516	-122.146	 -8.418	 93.354	 -8.445	 93.423	-10.724	141.528
   16.900000000	-11.241	-128.100	 -8.407	 83.331	 -8.438	 83.392	-10.937	135.450
   17.000000000	-11.271	-130.452	 -8.370	 73.358	 -8.398	 73.411	-11.042	127.687
   17.100000000	-11.442	-135.471	 -8.314	 63.329	 -8.340	 63.402	-11.602	122.044
   17.200000000	-11.569	-136.255	 -8.243	 53.149	 -8.278	 53.218	-12.404	112.432
   17.300000000	-12.298	-138.634	 -8.156	 42.936	 -8.184	 43.005	-13.277	103.863
   17.400000000	-12.837	-139.627	 -8.069	 32.567	 -8.099	 32.611	-14.616	 92.909
   17.500000000	-13.788	-141.461	 -7.984	 22.041	 -8.012	 22.069	-15.866	 79.288
   17.600000000	-14.961	-143.606	 -7.903	 11.355	 -7.931	 11.361	-16.999	 62.084
   17.700000000	-16.635	-146.749	 -7.841	  0.476	 -7.864	  0.505	-17.410	 42.566
   17.800000000	-18.983	-151.494	 -7.792	-10.497	 -7.817	-10.480	-17.049	 25.154
   17.900000000	-22.915	-159.698	 -7.757	-21.615	 -7.787	-21.622	-16.161	 11.803
   18.000000000	-29.316	164.627	 -7.741	-32.813	 -7.766	-32.814	-14.973	  1.744
   18.100000000	-28.020	 72.592	 -7.740	-44.148	 -7.770	-44.159	-13.905	 -5.055
   18.200000000	-21.173	 47.106	 -7.759	-55.469	 -7.787	-55.443	-12.977	 -9.903
   18.300000000	-17.437	 36.702	 -7.783	-66.711	 -7.809	-66.702	-12.098	-13.435
   18.400000000	-14.755	 30.642	 -7.816	-77.949	 -7.834	-77.923	-11.492	-16.916
   18.500000000	-13.168	 25.801	 -7.830	-89.055	 -7.856	-89.037	-11.136	-20.122
   18.600000000	-11.987	 21.695	 -7.841	-100.096	 -7.873	-100.055	-10.990	-22.816
   18.700000000	-11.328	 18.823	 -7.827	-111.009	 -7.858	-110.955	-11.144	-24.645
   18.800000000	-11.015	 16.970	 -7.802	-121.967	 -7.831	-121.927	-11.518	-26.445
   18.900000000	-10.995	 15.860	 -7.761	-132.986	 -7.787	-132.970	-12.141	-27.318
   19.000000000	-11.207	 16.422	 -7.709	-144.064	 -7.738	-144.066	-13.088	-25.378
   19.100000000	-11.481	 17.224	 -7.664	-155.296	 -7.702	-155.218	-14.008	-21.867
   19.200000000	-11.975	 20.649	 -7.625	-166.466	 -7.661	-166.377	-14.782	-17.150
   19.300000000	-12.398	 22.259	 -7.574	-177.740	 -7.615	-177.633	-15.453	 -9.000
   19.400000000	-12.785	 26.696	 -7.541	170.813	 -7.573	170.868	-15.671	 -3.372
   19.500000000	-13.640	 28.277	 -7.502	159.146	 -7.537	159.221	-15.389	  0.932
   19.600000000	-13.950	 30.073	 -7.481	147.311	 -7.516	147.399	-15.353	  2.797
   19.700000000	-14.741	 31.138	 -7.468	135.331	 -7.502	135.427	-15.164	  0.338
   19.800000000	-15.625	 29.214	 -7.460	123.156	 -7.497	123.235	-15.351	 -3.616
   19.900000000	-16.980	 26.597	 -7.457	110.747	 -7.488	110.825	-15.735	-11.382
   20.000000000	-18.264	 22.039	 -7.463	 98.244	 -7.498	 98.343	-16.149	-20.793
