

! Chelmsford, MA 01824
! http://www.hittite.com
! Tel: 978-250-3343
! Fax: 978-250-3373
! 
! Device     :  HMC633LC4
! Description:  GaAs PHEMT MMIC DRIVER Amplifier 
! Frequency  :  2.3 - 2.7 GHz
! Package    :  LC4  - 4x4 mm QFN Ceramic High frequency SMT Package: 24 pin 
! Ports      :  2 RF, 2 DC
!              Pin  3 = Rfin = Port 1
!              Pin 16 = Rfout = Port 2
!              Pin 24 = Vdd1
!              Pin 22 = vdd2
!              Pin 20 = Vdd3
!              Pin 19 = Vdd4
!              Pin 9  = vgg
!
! Voltages:   Vdd1-4      = 5.0 Volts
!             vgg = -2 to 0.0 volts
!             
! Currents :  Idd      = 180.0 mA
!          
!         
! Data:    The device was measured on evaluation board 115855-1.  
!          Data was collected using a calibrated network analyzer. 
!          The evaluation circuit board was modeled and simulated.  This was use
!          to removed the evaluation board circuit from the measured data.
!          The reference plane is the center of the package pin.
!
! Misc:    Lot # GB64
!
!Date Measured:  12-05-2008
! Date:          12-09-2008
! Note: 
!   Hittite Microwave supplies this data as a sample of measured data at the 
!   package pin for this package product.  Your particular data for this product 
!   may vary.
!   Data was taken at 25 degrees C.
!   Hittite Microwave reserves the right to change this data at anytime.


# MHz S MA R 50

1000 1.00508 -124.733 0.0152927 -170.63 5.71081e-005 -172.782 0.945543 -35.3871 
1105 0.99511 -134.77 0.019475 162.323 5.70678e-005 150.75 0.931096 -39.2563 
1210 0.978306 -145.325 0.0232388 142.447 5.99729e-005 127.265 0.916409 -43.1316 
1315 0.961286 -156.42 0.0273683 128.965 3.26748e-005 147.591 0.903095 -46.9922 
1420 0.947323 -167.9 0.0330039 118.985 6.28494e-005 42.5855 0.88944 -50.9309 
1525 0.927869 -179.809 0.0405497 111.011 8.49092e-005 26.2333 0.876005 -54.9414 
1630 0.904412 167.843 0.0506114 104.198 0.000128669 11.3824 0.862002 -58.9752 
1735 0.886126 155.179 0.0642175 97.746 0.000141505 1.83218 0.846794 -62.9985 
1840 0.868686 142.408 0.0820858 91.0148 0.00016723 -24.4034 0.830859 -66.9869 
1945 0.847619 129.587 0.104985 84.0798 0.000210968 -36.0946 0.814622 -70.9267 
2050 0.831175 116.733 0.134126 76.8599 0.000232867 -60.8018 0.797606 -74.7776 
2155 0.821116 104.075 0.171048 69.1376 0.000225621 -80.8645 0.780063 -78.5007 
2260 0.809785 91.821 0.216291 61.0902 0.000292501 -78.6152 0.762049 -82.0801 
2365 0.798071 79.941 0.270601 53.0295 0.00035143 -86.4446 0.743644 -85.5049 
2470 0.792941 68.4218 0.338292 45.1128 0.00036968 -87.4226 0.725195 -88.8259 
2575 0.788695 57.5376 0.422202 36.446 0.000465755 -102.188 0.705658 -92.0324 
2680 0.780433 47.2173 0.520836 27.4946 0.000441321 -109.799 0.686661 -95.0354 
2785 0.774191 37.3086 0.635877 18.715 0.000488878 -116.441 0.666556 -97.9188 
2890 0.771736 27.8443 0.772303 10.1443 0.000515264 -121.444 0.646795 -100.676 
2995 0.764112 18.9963 0.946182 1.46814 0.000551223 -130.236 0.625568 -103.378 
3100 0.753942 10.5179 1.14981 -7.63363 0.000591404 -147.28 0.603779 -105.885 
3205 0.747096 2.13556 1.39405 -16.8868 0.00058765 -148.315 0.581256 -108.454 
3310 0.74086 -5.7216 1.6842 -26.4629 0.000636042 -155.72 0.555661 -110.981 
3415 0.728458 -13.1564 2.02807 -36.0309 0.00067817 -154.589 0.529188 -113.431 
3520 0.715757 -20.5905 2.43418 -45.9305 0.000724088 -159.376 0.500128 -115.823 
3625 0.705518 -27.8484 2.9128 -55.9831 0.000776279 -166.159 0.469232 -118.208 
3730 0.692067 -34.7255 3.48198 -66.3356 0.000818037 -173.553 0.436077 -120.655 
3835 0.674428 -41.5029 4.14568 -76.9864 0.000808164 -177.758 0.400136 -123.089 
3940 0.658445 -48.1827 4.93459 -88.04 0.000847344 174.007 0.360175 -125.179 
4045 0.64181 -54.59 5.85207 -99.6247 0.000830602 169.122 0.314479 -127.036 
4150 0.618083 -60.9586 6.88629 -111.515 0.000837859 163.32 0.268694 -128.93 
4255 0.591112 -67.4378 8.0654 -123.697 0.000834657 157.367 0.221146 -130.394 
4360 0.563359 -73.9963 9.39144 -136.335 0.000862288 149.78 0.171614 -130.961 
4465 0.532496 -80.2139 10.8329 -149.442 0.000885066 146.077 0.121812 -128.745 
4570 0.496193 -86.3776 12.3698 -162.81 0.000889605 139.086 0.0757316 -118.652 
4675 0.458732 -92.7867 14.011 -176.488 0.000856316 134.067 0.0434495 -83.1606 
4780 0.420846 -99.0207 15.6525 169.474 0.000858868 129.616 0.0554881 -27.5716 
4885 0.380208 -104.546 17.2247 155.233 0.000780616 120 0.0901 -11.055 
4990 0.336008 -110.12 18.7559 141.127 0.000796212 120.25 0.12534 -8.40724 
5095 0.294639 -115.812 20.1644 126.971 0.000744693 119.716 0.15612 -7.4441 
5200 0.255506 -120.718 21.4466 112.971 0.000793076 119.142 0.182209 -7.60308 
5305 0.215161 -124.428 22.5431 99.0353 0.000801316 110.821 0.200704 -8.21071 
5410 0.174404 -127.739 23.5271 85.2804 0.000754431 106.422 0.214961 -8.53227 
5515 0.139043 -130.409 24.3392 72.0007 0.000801951 105.528 0.22406 -8.76251 
5620 0.107364 -129.98 25.016 59.0586 0.000754523 98.5099 0.229726 -8.58575 
5725 0.0772071 -123.971 25.5629 46.3975 0.000757928 96.7647 0.232486 -8.07178 
5830 0.0525332 -108.953 25.9837 33.9988 0.000758919 97.5121 0.233193 -7.01573 
5935 0.0420022 -81.4721 26.3391 22.0399 0.000725991 92.0597 0.232182 -5.71365 
6040 0.0501134 -53.1413 26.5985 10.2996 0.000716135 86.6434 0.230544 -4.25628 
6145 0.0684789 -37.1833 26.7482 -1.12215 0.000731864 85.4585 0.228044 -2.57741 
6250 0.0876452 -31.2457 26.8024 -12.2337 0.000745538 84.1734 0.224949 -0.648188 
6355 0.105662 -30.4367 26.8211 -23.0581 0.000706279 80.325 0.221395 1.39662 
6460 0.12439 -31.8924 26.8019 -33.6462 0.000723846 75.7362 0.217716 3.49666 
6565 0.142661 -33.7462 26.7152 -44.0505 0.000760468 71.8874 0.214033 5.57583 
6670 0.156761 -35.6968 26.6244 -54.3412 0.000766577 72.8128 0.210275 7.73183 
6775 0.168698 -38.777 26.5118 -64.4135 0.000785903 70.1125 0.205996 9.72803 
6880 0.180722 -42.0382 26.4081 -74.1911 0.000768958 66.6182 0.201598 11.7491 
6985 0.190529 -44.9171 26.3295 -83.79 0.00072622 59.6203 0.197368 13.615 
7090 0.195792 -47.6512 26.2758 -93.3475 0.000735208 56.4047 0.192446 15.3676 
7195 0.198871 -51.1625 26.2115 -102.594 0.000760473 52.4489 0.187736 16.8696 
7300 0.202708 -54.3299 26.136 -111.813 0.000781995 47.6831 0.182141 18.3303 
7405 0.203335 -57.155 26.0848 -120.926 0.000812923 48.7092 0.1765 19.3618 
7510 0.201093 -59.9191 26.0595 -129.807 0.000786183 40.3987 0.170256 20.2718 
7615 0.197749 -63.0298 26.0084 -138.815 0.000818781 38.7483 0.163962 20.7971 
7720 0.195124 -65.5934 25.9741 -147.642 0.00078323 35.1357 0.157008 21.0869 
7825 0.190589 -67.2983 25.8886 -156.358 0.000751948 32.7338 0.149708 21.1111 
7930 0.183674 -68.8408 25.7784 -165.032 0.000798019 29.9088 0.142691 20.9288 
8035 0.177561 -70.2085 25.587 -173.722 0.000787805 25.9215 0.136135 20.4692 
8140 0.172547 -70.6903 25.3447 177.877 0.000784429 22.8815 0.130561 19.6906 
8245 0.167127 -70.1761 25.1098 169.755 0.00078579 20.8469 0.125782 18.0598 
8350 0.161689 -69.646 24.906 161.646 0.000773584 15.9631 0.122335 15.6458 
8455 0.158092 -69.0315 24.6997 153.607 0.000752662 14.8233 0.119538 12.263 
8560 0.157641 -67.5411 24.4905 145.52 0.000768114 11.4593 0.117319 7.46291 
8665 0.157877 -65.4529 24.254 137.53 0.000810779 6.21802 0.115484 1.77774 
8770 0.159285 -63.7886 24.0417 129.695 0.000817884 3.14668 0.114584 -4.10939 
8875 0.163206 -62.3498 23.8576 121.83 0.000796938 -0.0574377 0.11495 -9.81929 
8980 0.169318 -60.877 23.6973 114.08 0.000824192 -3.18047 0.116191 -15.6263 
9085 0.176357 -59.5691 23.534 106.47 0.000823471 -7.62972 0.119281 -21.2101 
9190 0.1829 -59.0911 23.384 98.8128 0.000826627 -8.27934 0.12435 -25.9016 
9295 0.191712 -60.1873 23.2453 91.2857 0.000769991 -17.3276 0.130186 -30.0342 
9400 0.203716 -61.0115 23.1264 83.8628 0.000808831 -17.615 0.136862 -33.3812 
9505 0.212802 -62.145 23.0071 76.4875 0.000778631 -20.2701 0.145412 -35.7749 
9610 0.222385 -63.9696 22.8765 69.1063 0.000758951 -24.988 0.15382 -37.7037 
9715 0.231809 -66.6098 22.7441 61.8182 0.00074379 -26.2682 0.163272 -39.347 
9820 0.241918 -69.443 22.6249 54.6116 0.000816516 -29.9991 0.172791 -40.6899 
9925 0.250216 -72.3158 22.4744 47.5262 0.00081227 -35.3339 0.182243 -41.4901 
10030 0.257211 -75.8555 22.3405 40.4297 0.000808781 -37.9783 0.190938 -41.9179 
10135 0.264678 -79.6202 22.2008 33.423 0.000827732 -42.2739 0.199922 -41.9345 
10240 0.270456 -83.3439 22.0603 26.5462 0.0007955 -46.0297 0.208772 -41.745 
10345 0.274167 -87.4025 21.9292 19.6963 0.000779805 -46.6647 0.217394 -41.3496 
10450 0.2776 -91.8387 21.7982 12.9076 0.000763308 -54.2749 0.225526 -40.8347 
10555 0.280362 -96.1273 21.691 6.19172 0.00079652 -55.8323 0.233762 -40.1047 
10660 0.280904 -100.472 21.6145 -0.540816 0.000852093 -57.8206 0.241584 -39.3005 
10765 0.280109 -105.099 21.5636 -7.29464 0.000813693 -61.0585 0.249116 -38.2939 
10870 0.278837 -109.749 21.5222 -13.9442 0.000775777 -65.0405 0.256174 -37.2485 
10975 0.275694 -114.402 21.5347 -20.5625 0.000791932 -67.3079 0.262489 -36.1123 
11080 0.271645 -119.15 21.5532 -27.2445 0.000831931 -74.5662 0.268893 -35.0147 
11185 0.265764 -124.071 21.583 -33.9423 0.00086927 -78.6794 0.274853 -33.6511 
11290 0.259329 -129.141 21.6566 -40.5048 0.000813268 -79.7605 0.280437 -32.3383 
11395 0.251634 -134.292 21.7659 -47.1336 0.000840349 -84.2298 0.285176 -30.8499 
11500 0.243565 -139.597 21.8569 -53.7589 0.000878787 -85.7569 0.290149 -29.4881 
11605 0.233988 -145.049 21.965 -60.4209 0.00090737 -92.134 0.294665 -27.9183 
11710 0.224325 -150.965 22.1335 -67.1154 0.000861513 -96.3883 0.299786 -26.6481 
11815 0.213317 -156.86 22.34 -73.8655 0.000925624 -99.5685 0.304491 -25.1556 
11920 0.201949 -163.124 22.5021 -80.6027 0.000926427 -99.8423 0.309385 -23.8523 
12025 0.190373 -169.41 22.6685 -87.4449 0.000948147 -105.716 0.314345 -22.6139 
12130 0.178828 -175.936 22.8436 -94.4019 0.00100157 -110.541 0.319598 -21.5816 
12235 0.167125 177.614 22.9948 -101.374 0.0010187 -117.769 0.32393 -20.8911 
12340 0.155646 170.841 23.0767 -108.355 0.00103455 -122.438 0.327344 -20.5536 
12445 0.145823 164.075 23.1219 -115.254 0.00105592 -127.61 0.328504 -20.3443 
12550 0.136942 157.341 23.2024 -122.113 0.000989662 -132.782 0.326633 -20.2868 
12655 0.129974 149.907 23.3214 -128.904 0.000964564 -137.216 0.322513 -20.3395 
12760 0.125056 141.433 23.4495 -135.54 0.000969053 -142.17 0.316454 -20.1402 
12865 0.121021 131.744 23.6233 -142.116 0.000915119 -141.92 0.308674 -19.6833 
12970 0.117052 120.917 23.8999 -148.824 0.000895785 -144.538 0.301068 -18.9464 
13075 0.113381 108.393 24.2893 -155.839 0.000903066 -144.904 0.293027 -18.126 
13180 0.110817 95.1286 24.6195 -162.968 0.000934262 -142.557 0.286438 -17.1275 
13285 0.106705 80.9611 24.9339 -170.172 0.00097543 -143.84 0.281338 -16.3877 
13390 0.10385 66.5364 25.2561 -177.591 0.0010168 -144.784 0.2769 -15.6534 
13495 0.0984414 51.4164 25.491 174.951 0.0011002 -151.511 0.271284 -15.5527 
13600 0.0959041 37.9521 25.6148 167.777 0.00115149 -154.332 0.265348 -15.3452 
13705 0.0906493 25.6138 25.7156 160.768 0.00120843 -162.899 0.259641 -15.4486 
13810 0.0879187 13.4146 25.8714 153.625 0.00130413 -163.763 0.253395 -15.6253 
13915 0.0852756 2.58288 26.0514 146.397 0.00130366 -168.204 0.248059 -16.1349 
14020 0.0783552 -5.28592 26.2419 142.422 0.00126471 -169.762 0.243018 -16.7961 
14125 0.072273 -15.6828 26.3793 139.077 0.00134309 -171.101 0.237707 -18.0962 
14230 0.0704465 -26.4482 26.4776 135.826 0.00139923 -171.008 0.232491 -19.8216 
14335 0.0713835 -36.2636 26.5442 132.57 0.0014304 -170.164 0.227757 -21.6905 
14440 0.0739701 -44.9544 26.6153 129.281 0.00144957 -170.758 0.223395 -23.608 
14545 0.0790762 -52.2465 26.7301 126.002 0.00147755 -170.631 0.220211 -25.9261 
14650 0.0856243 -56.8289 26.8595 122.751 0.00146825 -172.501 0.218305 -28.6216 
14755 0.0920185 -59.6558 26.9814 119.465 0.00151147 -173.854 0.217113 -31.291 
14860 0.0991839 -60.8373 27.1344 116.025 0.00149223 -175.524 0.217846 -33.9954 
14965 0.108335 -60.5645 27.3024 112.456 0.00148999 -175.98 0.220886 -36.7103 
15070 0.119195 -59.9303 27.3873 108.764 0.00153206 -173.747 0.225133 -39.8134 
15175 0.131333 -60.5658 27.3546 105.156 0.00156624 -172.736 0.230293 -42.7125 
15280 0.140387 -61.0906 27.3681 101.79 0.00156929 -172.991 0.236719 -45.7661 
15385 0.147302 -61.2088 27.4595 98.2762 0.00161099 -176.171 0.24433 -48.4084 
15490 0.151365 -60.1845 27.417 94.6994 0.00165278 -173.861 0.250808 -50.6149 
15595 0.153016 -58.3249 27.469 91.1903 0.00164737 -176.25 0.259953 -51.7371 
15700 0.156302 -55.037 27.5154 87.5359 0.00156957 -176.699 0.273442 -53.1807 
15805 0.162593 -51.8855 27.3662 83.8953 0.00164828 -179.158 0.287602 -54.7548 
15910 0.167483 -49.8254 27.1592 80.3049 0.0016319 -179.387 0.301253 -55.9472 
16015 0.168477 -47.8552 27.0112 76.8031 0.00163592 -179.958 0.316205 -56.8885 
16120 0.168269 -44.1631 26.9148 73.2345 0.00159662 179.49 0.331783 -57.7294 
16225 0.169889 -39.383 26.7591 69.7264 0.0015174 178.637 0.347464 -58.5357 
16330 0.172243 -34.6262 26.5428 66.2535 0.00152446 178.66 0.361994 -59.0114 
16435 0.174223 -29.4948 26.3994 62.7912 0.00155887 -179.997 0.37617 -59.2909 
16540 0.178496 -23.9792 26.283 59.1466 0.00151518 179.674 0.391414 -59.4587 
16645 0.185222 -18.1903 26.1283 55.4406 0.00156893 179.258 0.407208 -59.288 
16750 0.194537 -12.6355 25.8389 51.7471 0.00151631 179.639 0.42337 -59.0693 
16855 0.205601 -7.44856 25.5467 47.8838 0.0014696 -177.507 0.439141 -58.9753 
16960 0.217556 -2.59047 25.2881 44.0206 0.00145252 -176.284 0.45428 -58.8989 
17065 0.230813 1.90339 24.9652 40.3386 0.0014333 -174.906 0.468478 -58.6475 
17170 0.243993 6.08458 24.5894 36.7948 0.00142159 -175.468 0.481286 -58.2302 
17275 0.258153 9.82416 24.2461 33.2373 0.00144043 -175.874 0.493311 -57.7343 
17380 0.272363 13.2586 23.9336 29.7598 0.00145044 -176.846 0.505136 -57.1311 
17485 0.286546 16.4019 23.5607 26.3365 0.00141231 -174.37 0.516385 -56.523 
17590 0.299981 19.2475 23.1569 23.0051 0.0013615 -172.094 0.526506 -55.8448 
17695 0.313476 22.2538 22.7752 19.6648 0.00133449 -173.722 0.537426 -55.0182 
17800 0.326111 25.1161 22.4555 16.4741 0.00133718 -171.498 0.546194 -54.2177 
17905 0.338875 27.5049 22.0445 13.2852 0.00136186 -172.663 0.555061 -53.3022 
18010 0.350835 30.0691 21.6654 10.0561 0.00129797 -169.593 0.56216 -52.3923 
18115 0.362596 32.6376 21.2998 6.96164 0.00129907 -168.321 0.569182 -51.5213 
18220 0.374066 34.9082 20.9577 3.99696 0.00131804 -167.074 0.575813 -50.6234 
18325 0.385097 37.1518 20.5594 0.97701 0.00131037 -168.814 0.580089 -49.581 
18430 0.395422 39.4488 20.1998 -1.88469 0.00129196 -166.736 0.583816 -48.5122 
18535 0.40444 41.6272 19.8991 -4.67744 0.00130573 -165.534 0.586528 -47.4324 
18640 0.411204 43.7671 19.6357 -7.47949 0.00126443 -167.108 0.58885 -46.3296 
18745 0.417409 45.6646 19.3652 -10.4386 0.00125096 -166.439 0.590742 -45.2189 
18850 0.424001 47.6242 19.1137 -13.4048 0.00124652 -164.989 0.592492 -44.2123 
18955 0.429397 49.848 18.8926 -16.2721 0.00120116 -162.459 0.593591 -43.1383 
19060 0.431332 51.9662 18.6754 -19.1319 0.0011782 -161.376 0.592746 -42.0246 
19165 0.4324 53.8934 18.4555 -21.8958 0.00117258 -160.496 0.59115 -40.9124 
19270 0.432846 56.0535 18.2605 -24.5912 0.00118619 -160.601 0.58931 -39.9056 
19375 0.432084 58.3134 18.0963 -27.316 0.00113532 -159.389 0.586971 -38.874 
19480 0.430062 60.5328 17.9622 -29.998 0.00114575 -161.071 0.583478 -37.8967 
19585 0.427548 62.8702 17.857 -32.6606 0.00107308 -156.407 0.577981 -36.9986 
19690 0.423933 65.2079 17.8143 -35.4489 0.00108785 -153.02 0.572036 -36.1877 
19795 0.422536 67.2166 17.782 -38.4048 0.00109556 -152.143 0.564213 -35.3555 
19900 0.419815 69.2799 17.7854 -41.3736 0.00109685 -145.411 0.556192 -34.3752 
20005 0.4165 70.9738 17.769 -44.5408 0.00112218 -142.98 0.54628 -33.5032 
20110 0.410909 72.7455 17.6839 -47.7035 0.00114992 -139.504 0.537286 -32.6996 
20215 0.4029 74.3374 17.6386 -50.8872 0.00133897 -141.624 0.527323 -31.9258 
20320 0.392224 75.9957 17.5652 -53.9784 0.0014143 -144.769 0.516935 -31.1406 
20425 0.381667 77.5918 17.518 -57.1819 0.00138581 -144.535 0.506562 -30.5647 
20530 0.370482 79.3343 17.4667 -60.3916 0.00131864 -146.055 0.495285 -30.1573 
20635 0.357462 80.8459 17.4503 -63.6356 0.00131265 -145.055 0.484462 -30.0204 
20740 0.342661 82.1882 17.4428 -66.9237 0.00129807 -146.676 0.473194 -29.9728 
20845 0.327384 83.3925 17.424 -70.3927 0.00138788 -147.628 0.45982 -30.1507 
20950 0.310269 84.5489 17.4162 -73.9544 0.00139164 -147.175 0.446012 -30.6519 
21055 0.292922 85.5416 17.3812 -77.5114 0.00133772 -149.508 0.4329 -31.2402 
21160 0.275385 86.5651 17.3368 -81.0862 0.00128262 -151.858 0.419412 -31.7998 
21265 0.257691 87.5991 17.2834 -84.6799 0.00122644 -154.227 0.405616 -32.3407 
21370 0.239825 88.6399 17.2208 -88.2856 0.00116921 -156.609 0.391513 -32.8589 
21475 0.221795 89.6267 17.1469 -91.9039 0.00111095 -159.002 0.377278 -33.3943 
21580 0.203617 90.5973 17.0631 -95.5261 0.00105175 -161.399 0.362833 -33.9056 
21685 0.185281 91.5812 16.9694 -99.1461 0.000991753 -163.795 0.348168 -34.3782 
21790 0.166708 92.5856 16.8664 -102.758 0.000931083 -166.182 0.333276 -34.8081 
21895 0.14761 93.6022 16.7568 -106.352 0.00086993 -168.551 0.317896 -35.2308 
22000 0.128333 94.6398 16.641 -109.929 0.000808414 -170.904 0.302431 -35.6077 
